frequency,mag_dB,phase_deg
1.000000000000000000e+00,-4.999999999999998890e-01,-2.864788975657100740e-04
1.020939483707679951e+00,-4.999999999999998890e-01,-2.924776177738942404e-04
1.042317429393304185e+00,-4.999999999999998890e-01,-2.986019480861455168e-04
1.064143018224316117e+00,-4.999999999999998890e-01,-3.048545187131914509e-04
1.086425623617065517e+00,-4.999999999999998890e-01,-3.112380149410144941e-04
1.109174815262401026e+00,-4.999999999999998890e-01,-3.177551782840990413e-04
1.132400363235557039e+00,-4.999999999999998890e-01,-3.244088076628273937e-04
1.156112242192098849e+00,-5.000000000000019984e-01,-3.312017606055297743e-04
1.180320635651729733e+00,-4.999999999999998890e-01,-3.381369544757041514e-04
1.205035940371797398e+00,-5.000000000000019984e-01,-3.452173677249338211e-04
1.230268770812381618e+00,-4.999999999999998890e-01,-3.524460411720408402e-04
1.256029963694874851e+00,-5.000000000000019984e-01,-3.598260793090231010e-04
1.282330582656021400e+00,-4.999999999999998890e-01,-3.673606516343381296e-04
1.309181922999407055e+00,-4.999999999999998890e-01,-3.750529940141053066e-04
1.336595516546442264e+00,-4.999999999999998890e-01,-3.829064100718092690e-04
1.364583136588924273e+00,-4.999999999999998890e-01,-3.909242726071048175e-04
1.393156802945303196e+00,-4.999999999999998890e-01,-3.991100250443307506e-04
1.422328787122819849e+00,-4.999999999999998890e-01,-4.074671829113531174e-04
1.452111617587742431e+00,-4.999999999999998890e-01,-4.159993353493766986e-04
1.482518085145953624e+00,-5.000000000000008882e-01,-4.247101466543701438e-04
1.513561248436208206e+00,-4.999999999999998890e-01,-4.336033578507678056e-04
1.545254439538413793e+00,-4.999999999999998890e-01,-4.426827882981240032e-04
1.577611269699348506e+00,-4.999999999999998890e-01,-4.519523373314103488e-04
1.610645635178270307e+00,-4.999999999999998890e-01,-4.614159859356599500e-04
1.644371723214931524e+00,-4.999999999999998890e-01,-4.710777984556766603e-04
1.678804018122560304e+00,-4.999999999999998890e-01,-4.809419243415464216e-04
1.713957307508425343e+00,-4.999999999999998890e-01,-4.910125999306973318e-04
1.749846688624656865e+00,-4.999999999999998890e-01,-5.012941502672765967e-04
1.786487574852051008e+00,-5.000000000000019984e-01,-5.117909909596227679e-04
1.823895702319637602e+00,-5.000000000000008882e-01,-5.225076300766324329e-04
1.862087136662867071e+00,-4.999999999999998890e-01,-5.334486700838388454e-04
1.901078279923299919e+00,-5.000000000000019984e-01,-5.446188098200263270e-04
1.940885877592777975e+00,-4.999999999999998890e-01,-5.560228465152374476e-04
1.981527025805098097e+00,-4.999999999999998890e-01,-5.676656778510353598e-04
2.023019178678271413e+00,-4.999999999999998890e-01,-5.795523040639065371e-04
2.065380155810529583e+00,-4.999999999999998890e-01,-5.916878300927078159e-04
2.108628149933289286e+00,-4.999999999999998890e-01,-6.040774677710799645e-04
2.152781734724372509e+00,-4.999999999999998890e-01,-6.167265380657699489e-04
2.197859872784824642e+00,-4.999999999999998890e-01,-6.296404733618206568e-04
2.243881923782766297e+00,-5.000000000000019984e-01,-6.428248197956134028e-04
2.290867652767773155e+00,-4.999999999999998890e-01,-6.562852396367616558e-04
2.338837238659354778e+00,-5.000000000000019984e-01,-6.700275137198814270e-04
2.387811282913177457e+00,-4.999999999999998890e-01,-6.840575439272812133e-04
2.437810818368752130e+00,-5.000000000000019984e-01,-6.983813557236372670e-04
2.488857318282390541e+00,-4.999999999999998890e-01,-7.130051007437466322e-04
2.540972705549304766e+00,-4.999999999999998890e-01,-7.279350594344618846e-04
2.594179362118814058e+00,-4.999999999999998890e-01,-7.431776437519505398e-04
2.648500138606700194e+00,-4.999999999999998890e-01,-7.587393999154313107e-04
2.703958364108843160e+00,-5.000000000000008882e-01,-7.746270112185747432e-04
2.760577856220344906e+00,-4.999999999999998890e-01,-7.908473008997700653e-04
2.818382931264454161e+00,-4.999999999999998890e-01,-8.074072350724947845e-04
2.877398414735668819e+00,-4.999999999999998890e-01,-8.243139257170467669e-04
2.937649651961530495e+00,-5.000000000000019984e-01,-8.415746337349195661e-04
2.999162518987650738e+00,-4.999999999999998890e-01,-8.591967720671355975e-04
3.061963433690677139e+00,-4.999999999999998890e-01,-8.771879088778747379e-04
3.126079367123954622e+00,-5.000000000000019984e-01,-8.955557708047663960e-04
3.191537855100761600e+00,-4.999999999999998890e-01,-9.143082462772455198e-04
3.258367010020088106e+00,-4.999999999999998890e-01,-9.334533889043846030e-04
3.326595532940044286e+00,-4.999999999999998890e-01,-9.529994209336725220e-04
3.396252725904083114e+00,-4.999999999999998890e-01,-9.729547367822159081e-04
3.467368504525315753e+00,-5.000000000000019984e-01,-9.933279066418824587e-04
3.539973410834346357e+00,-4.999999999999998890e-01,-1.014127680159931716e-03
3.614098626396132108e+00,-4.999999999999998890e-01,-1.035362990196719716e-03
3.689775985701502670e+00,-4.999999999999998890e-01,-1.057042956662087229e-03
3.767037989839088219e+00,-4.999999999999998890e-01,-1.079176890432078382e-03
3.845917820453535363e+00,-4.999999999999998890e-01,-1.101774297347674720e-03
3.926449353995998592e+00,-4.999999999999998890e-01,-1.124844882297260703e-03
4.008667176273028154e+00,-5.000000000000019984e-01,-1.148398553384571801e-03
4.092606597300108895e+00,-4.999999999999998890e-01,-1.172445426183921962e-03
4.178303666466217869e+00,-4.999999999999998890e-01,-1.196995828084527775e-03
4.265795188015927053e+00,-5.000000000000019984e-01,-1.222060302725805217e-03
4.355118736855684958e+00,-5.000000000000019984e-01,-1.247649614525534823e-03
4.446312674691085931e+00,-4.999999999999998890e-01,-1.273774753302850306e-03
4.539416166502030947e+00,-5.000000000000019984e-01,-1.300446938998023024e-03
4.634469197362879100e+00,-4.999999999999998890e-01,-1.327677626491080565e-03
4.731512589614804476e+00,-4.999999999999998890e-01,-1.355478510521324889e-03
4.830588020397725835e+00,-4.999999999999998890e-01,-1.383861530709861809e-03
4.931738039549357744e+00,-4.999999999999998890e-01,-1.412838876687299173e-03
5.035006087879047243e+00,-5.000000000000019984e-01,-1.442422993328816398e-03
5.140436515824259978e+00,-4.999999999999998890e-01,-1.472626586098853578e-03
5.248074602497725394e+00,-4.999999999999998890e-01,-1.503462626507718431e-03
5.357966575133415787e+00,-4.999999999999998890e-01,-1.534944357682446270e-03
5.470159628939716079e+00,-4.999999999999998890e-01,-1.567085300054316208e-03
5.584701947368308161e+00,-5.000000000000019984e-01,-1.599899257165458746e-03
5.701642722807473973e+00,-4.999999999999998890e-01,-1.633400321597049034e-03
5.821032177708712396e+00,-4.999999999999998890e-01,-1.667602881021639557e-03
5.942921586155724967e+00,-4.999999999999998890e-01,-1.702521624382215227e-03
6.067363295885052743e+00,-4.999999999999998890e-01,-1.738171548200645846e-03
6.194410750767812779e+00,-4.999999999999998890e-01,-1.774567963018225392e-03
6.324118513762193139e+00,-4.999999999999998890e-01,-1.811726499971080860e-03
6.456542290346554580e+00,-4.999999999999998890e-01,-1.849663117503258514e-03
6.591738952443212618e+00,-4.999999999999998890e-01,-1.888394108220384096e-03
6.729766562843177091e+00,-5.000000000000019984e-01,-1.927936105886836728e-03
6.870684400142320847e+00,-5.000000000000019984e-01,-1.968306092569431249e-03
7.014552984199712959e+00,-4.999999999999998890e-01,-2.009521405930698133e-03
7.161434102129019763e+00,-4.999999999999998890e-01,-2.051599746674867639e-03
7.311390834834172736e+00,-4.999999999999998890e-01,-2.094559186149781097e-03
7.464487584100662154e+00,-4.999999999999998890e-01,-2.138418174107975002e-03
7.620790100254117405e+00,-4.999999999999998890e-01,-2.183195546630277255e-03
7.780365510398038253e+00,-4.999999999999998890e-01,-2.228910534215327970e-03
7.943282347242814012e+00,-4.999999999999998890e-01,-2.275582770038478246e-03
8.109610578538406500e+00,-4.999999999999998890e-01,-2.323232298383637838e-03
8.279421637123340005e+00,-5.000000000000019984e-01,-2.371879583251673869e-03
8.452788451602897268e+00,-5.000000000000019984e-01,-2.421545517149068568e-03
8.629785477669701166e+00,-4.999999999999998890e-01,-2.472251430060603845e-03
8.810488730080139774e+00,-4.999999999999998890e-01,-2.524019098609932028e-03
8.994975815300351840e+00,-4.999999999999998890e-01,-2.576870755411964520e-03
9.183325964835807653e+00,-5.000000000000019984e-01,-2.630829098621093390e-03
9.375620069258802758e+00,-4.999999999999998890e-01,-2.685917301679345906e-03
9.571940712948441288e+00,-4.999999999999998890e-01,-2.742159023268660525e-03
9.772372209558104927e+00,-4.999999999999998890e-01,-2.799578417471569516e-03
9.977000638225531404e+00,-4.999999999999998890e-01,-2.858200144144619828e-03
1.018591388054116997e+01,-5.000000000000019984e-01,-2.918049379509029054e-03
1.039920165829058973e+01,-4.999999999999998890e-01,-2.979151826963088480e-03
1.061695557198724593e+01,-5.000000000000019984e-01,-3.041533728120986158e-03
1.083926914021203380e+01,-4.999999999999998890e-01,-3.105221874082763657e-03
1.106623783977665809e+01,-4.999999999999998890e-01,-3.170243616940268943e-03
1.129795914672797608e+01,-5.000000000000019984e-01,-3.236626881524038487e-03
1.153453257821091960e+01,-5.000000000000019984e-01,-3.304400177396141919e-03
1.177605973520807225e+01,-4.999999999999998890e-01,-3.373592611094169535e-03
1.202264434617412370e+01,-5.000000000000019984e-01,-3.444233898631578975e-03
1.227439231158407118e+01,-4.999999999999998890e-01,-3.516354378259819481e-03
1.253141174941415592e+01,-5.000000000000019984e-01,-3.589985023497661680e-03
1.279381304157524646e+01,-4.999999999999998890e-01,-3.665157456433377689e-03
1.306170888131841146e+01,-4.999999999999998890e-01,-3.741903961305444084e-03
1.333521432163323972e+01,-4.999999999999998890e-01,-3.820257498367634133e-03
1.361444682465949718e+01,-4.999999999999998890e-01,-3.900251718044417306e-03
1.389952631213353307e+01,-5.000000000000008882e-01,-3.981920975382794402e-03
1.419057521689091672e+01,-4.999999999999998890e-01,-4.065300344806710951e-03
1.448771853544761079e+01,-4.999999999999998890e-01,-4.150425635180457831e-03
1.479108388168207178e+01,-4.999999999999998890e-01,-4.237333405187462820e-03
1.510080154164147714e+01,-5.000000000000019984e-01,-4.326060979031111885e-03
1.541700452949559264e+01,-4.999999999999998890e-01,-4.416646462464361711e-03
1.573982864466218778e+01,-4.999999999999998890e-01,-4.509128759154958782e-03
1.606941253012877269e+01,-5.000000000000019984e-01,-4.603547587393389505e-03
1.640589773199538826e+01,-4.999999999999998890e-01,-4.699943497150640796e-03
1.674942876026437233e+01,-4.999999999999998890e-01,-4.798357887493174059e-03
1.710015315090286947e+01,-4.999999999999998890e-01,-4.898833024362535433e-03
1.745822152920503711e+01,-4.999999999999998890e-01,-5.001412058727287141e-03
1.782378767448089008e+01,-4.999999999999998890e-01,-5.106139045115003737e-03
1.819700858609983385e+01,-4.999999999999998890e-01,-5.213058960532341614e-03
1.857804455091698159e+01,-4.999999999999998890e-01,-5.322217723781269040e-03
1.896705921211145451e+01,-4.999999999999998890e-01,-5.433662215179779070e-03
1.936421963946606795e+01,-5.000000000000008882e-01,-5.547440296695545572e-03
1.976969640111860116e+01,-5.000000000000008882e-01,-5.663600832501142213e-03
2.018366363681560571e+01,-4.999999999999998890e-01,-5.782193709959720929e-03
2.060629913269999491e+01,-4.999999999999998890e-01,-5.903269861050081113e-03
2.103778439766475117e+01,-4.999999999999998890e-01,-6.026881284240385994e-03
2.147830474130532963e+01,-4.999999999999998890e-01,-6.153081066819899789e-03
2.192804935350448403e+01,-5.000000000000008882e-01,-6.281923407698356866e-03
2.238721138568338986e+01,-4.999999999999998890e-01,-6.413463640682686047e-03
2.285598803375430066e+01,-4.999999999999998890e-01,-6.547758258241218217e-03
2.333458062281001943e+01,-4.999999999999998890e-01,-6.684864935765421311e-03
2.382319469358690256e+01,-5.000000000000008882e-01,-6.824842556339734065e-03
2.432204009073814532e+01,-4.999999999999998890e-01,-6.967751236030006630e-03
2.483133105295569010e+01,-4.999999999999988898e-01,-7.113652349701521903e-03
2.535128630497906954e+01,-4.999999999999998890e-01,-7.262608557377593990e-03
2.588212915153090421e+01,-4.999999999999998890e-01,-7.414683831150115784e-03
2.642408757321945956e+01,-4.999999999999998890e-01,-7.569943482653615843e-03
2.697739432444919316e+01,-4.999999999999998890e-01,-7.728454191114569535e-03
2.754228703338166184e+01,-5.000000000000019984e-01,-7.890284031988093610e-03
2.811900830398939632e+01,-4.999999999999988898e-01,-8.055502506194240145e-03
2.870780582024690730e+01,-4.999999999999998890e-01,-8.224180569966512561e-03
2.930893245250319978e+01,-5.000000000000008882e-01,-8.396390665325374758e-03
2.992264636608188866e+01,-4.999999999999998890e-01,-8.572206751189864402e-03
3.054921113215511852e+01,-4.999999999999998890e-01,-8.751704335140679872e-03
3.118889584093937017e+01,-5.000000000000008882e-01,-8.934960505848365403e-03
3.184197521726123981e+01,-4.999999999999998890e-01,-9.122053966180486070e-03
3.250872973854342263e+01,-4.999999999999968359e-01,-9.313065067002133587e-03
3.318944575526103336e+01,-4.999999999999998890e-01,-9.508075841684128157e-03
3.388441561392023971e+01,-4.999999999999978906e-01,-9.707170041333802041e-03
3.459393778261218699e+01,-5.000000000000019984e-01,-9.910433170763571428e-03
3.531831697919567858e+01,-4.999999999999998890e-01,-1.011795252521257953e-02
3.605786430216423355e+01,-4.999999999999998890e-01,-1.032981722783734256e-02
3.681289736425313208e+01,-4.999999999999998890e-01,-1.054611826798737204e-02
3.758374042884441479e+01,-4.999999999999998890e-01,-1.076694854028235372e-02
3.837072454922786591e+01,-4.999999999999998890e-01,-1.099240288450747255e-02
3.917418771077830542e+01,-4.999999999999988898e-01,-1.122257812634422369e-02
3.999447497610973556e+01,-4.999999999999978906e-01,-1.145757311895403974e-02
4.083193863326921047e+01,-4.999999999999998890e-01,-1.169748878543271781e-02
4.168693834703353218e+01,-5.000000000000019984e-01,-1.194242816215374328e-02
4.255984131337428522e+01,-4.999999999999988898e-01,-1.219249644301928330e-02
4.345102241715714086e+01,-4.999999999999998890e-01,-1.244780102463772728e-02
4.436086439314323115e+01,-4.999999999999998890e-01,-1.270845155244721553e-02
4.528975799036207661e+01,-4.999999999999998890e-01,-1.297455996780501677e-02
4.623810213992601348e+01,-4.999999999999998890e-01,-1.324624055606286356e-02
4.720630412635904349e+01,-4.999999999999998890e-01,-1.352360999564905866e-02
4.819477976251272366e+01,-4.999999999999998890e-01,-1.380678740817821784e-02
4.920395356814508858e+01,-4.999999999999998890e-01,-1.409589440961041620e-02
5.023425895223869020e+01,-4.999999999999998890e-01,-1.439105516248144652e-02
5.128613839913648320e+01,-4.999999999999998890e-01,-1.469239642922689354e-02
5.236004365857501597e+01,-5.000000000000008882e-01,-1.500004762662262257e-02
5.345643593969713692e+01,-5.000000000000008882e-01,-1.531414088136542548e-02
5.457578610912707973e+01,-4.999999999999998890e-01,-1.563481108681732956e-02
5.571857489319295098e+01,-4.999999999999988898e-01,-1.596219596093814350e-02
5.688529308438413068e+01,-5.000000000000008882e-01,-1.629643610543119250e-02
5.807644175213118132e+01,-5.000000000000019984e-01,-1.663767506612734773e-02
5.929253245799996819e+01,-5.000000000000008882e-01,-1.698605939463366035e-02
6.053408747539133117e+01,-4.999999999999998890e-01,-1.734173871127272365e-02
6.180164001384157046e+01,-4.999999999999998890e-01,-1.770486576934009529e-02
6.309573444801930009e+01,-4.999999999999998890e-01,-1.807559652070712258e-02
6.441692655151771874e+01,-4.999999999999998890e-01,-1.845409018279755078e-02
6.576578373554202983e+01,-4.999999999999998890e-01,-1.884050930696649223e-02
6.714288529259522420e+01,-4.999999999999998890e-01,-1.923501984831136463e-02
6.854882264526612801e+01,-4.999999999999998890e-01,-1.963779123694446224e-02
6.998419960022731345e+01,-4.999999999999978906e-01,-2.004899645075807271e-02
7.144963260755130818e+01,-4.999999999999998890e-01,-2.046881208971322585e-02
7.294575102545682910e+01,-4.999999999999978906e-01,-2.089741845168396200e-02
7.447319739059888377e+01,-4.999999999999998890e-01,-2.133499960988984728e-02
7.603262769401814580e+01,-4.999999999999998890e-01,-2.178174349194975101e-02
7.762471166286916002e+01,-4.999999999999998890e-01,-2.223784196059113913e-02
7.925013304804714664e+01,-4.999999999999978906e-01,-2.270349089604922072e-02
8.090958991783821830e+01,-4.999999999999998890e-01,-2.317889028019163786e-02
8.260379495771783809e+01,-4.999999999999998890e-01,-2.366424428240454861e-02
8.433347577642750537e+01,-4.999999999999998890e-01,-2.415976134727727473e-02
8.609937521846002539e+01,-4.999999999999988898e-01,-2.466565428412289054e-02
8.790225168308842285e+01,-4.999999999999998890e-01,-2.518214035837344072e-02
8.974287945007480971e+01,-4.999999999999998890e-01,-2.570944138488880440e-02
9.162204901219992337e+01,-5.000000000000008882e-01,-2.624778382321962464e-02
9.354056741475515935e+01,-4.999999999999978906e-01,-2.679739887486473626e-02
9.549925860214354145e+01,-4.999999999999998890e-01,-2.735852258256530126e-02
9.749896377173867279e+01,-4.999999999999998890e-01,-2.793139593167812129e-02
9.954054173515264381e+01,-5.000000000000019984e-01,-2.851626495367150238e-02
1.016248692870694867e+02,-4.999999999999998890e-01,-2.911338083178849692e-02
1.037528415818012633e+02,-4.999999999999998890e-01,-2.972300000892258431e-02
1.059253725177288601e+02,-4.999999999999998890e-01,-3.034538429775205520e-02
1.081433951297937597e+02,-5.000000000000008882e-01,-3.098080099318100897e-02
1.104078619902072518e+02,-4.999999999999978906e-01,-3.162952298713433974e-02
1.127197456175510411e+02,-4.999999999999998890e-01,-3.229182888575679589e-02
1.150800388944435610e+02,-4.999999999999998890e-01,-3.296800312906592728e-02
1.174897554939529272e+02,-5.000000000000019984e-01,-3.365833611311074697e-02
1.199499303149378164e+02,-5.000000000000008882e-01,-3.436312431468820788e-02
1.224616199265047669e+02,-4.999999999999988898e-01,-3.508267041867114272e-02
1.250259030217720095e+02,-4.999999999999998890e-01,-3.581728344800260561e-02
1.276438808811343506e+02,-4.999999999999998890e-01,-3.656727889641193940e-02
1.303166778452298615e+02,-4.999999999999998890e-01,-3.733297886391023779e-02
1.330454417978090191e+02,-4.999999999999998890e-01,-3.811471219512280878e-02
1.358313446587154090e+02,-4.999999999999998890e-01,-3.891281462051825873e-02
1.386755828871888241e+02,-5.000000000000019984e-01,-3.972762890059484270e-02
1.415793779957080858e+02,-4.999999999999998890e-01,-4.055950497308637159e-02
1.445439770745926467e+02,-5.000000000000008882e-01,-4.140880010325003607e-02
1.475706533275894685e+02,-5.000000000000008882e-01,-4.227587903730170571e-02
1.506607066186741690e+02,-4.999999999999998890e-01,-4.316111415906358911e-02
1.538154640303034171e+02,-4.999999999999978906e-01,-4.406488564989267942e-02
1.570362804333551594e+02,-4.999999999999998890e-01,-4.498758165195752834e-02
1.603245390690040040e+02,-4.999999999999998890e-01,-4.592959843493422262e-02
1.636816521427808198e+02,-4.999999999999998890e-01,-4.689134056619297108e-02
1.671090614310706997e+02,-4.999999999999988898e-01,-4.787322108454808434e-02
1.706082389003122728e+02,-4.999999999999998890e-01,-4.887566167764670344e-02
1.741806873391612669e+02,-4.999999999999988898e-01,-4.989909286307157160e-02
1.778279410038922776e+02,-5.000000000000008882e-01,-5.094395417323630687e-02
1.815515662773134977e+02,-4.999999999999998890e-01,-5.201069434415204334e-02
1.853531623414810099e+02,-4.999999999999998890e-01,-5.309977150814738922e-02
1.892343618644974015e+02,-4.999999999999998890e-01,-5.421165339062335164e-02
1.931968317016923891e+02,-4.999999999999998890e-01,-5.534681751092843105e-02
1.972422736114853308e+02,-5.000000000000019984e-01,-5.650575138744003828e-02
