 time            v(vin)          v(vinp)         v(vinn)         v(voutp)        v(voutn)        v(vout)        
 8.00191723e-06  1.12934128e-03  1.50000000e+00  2.22044605e-16  9.54252224e-01  5.54555768e-01  3.99696456e-01 
 8.00446429e-06  2.62967596e-03  1.50000000e+00  2.22044605e-16  9.53621075e-01  5.55078445e-01  3.98542631e-01 
 8.00452009e-06  2.66254677e-03  1.35000000e+00  1.50000000e-01  9.53607240e-01  5.55089907e-01  3.98517333e-01 
 8.00463170e-06  2.72828838e-03  1.05000000e+00  4.50000000e-01  9.53579569e-01  5.55112833e-01  3.98466736e-01 
 8.00485491e-06  2.85977154e-03  4.50000000e-01  1.05000000e+00  9.53524225e-01  5.55158691e-01  3.98365534e-01 
 8.00502232e-06  2.95838385e-03 -0.00000000e+00  1.50000000e+00  9.53482716e-01  5.55193091e-01  3.98289625e-01 
 8.00506696e-06  2.98468045e-03 -0.00000000e+00  1.50000000e+00  9.53471647e-01  5.55202266e-01  3.98269381e-01 
 8.00515625e-06  3.03727366e-03 -0.00000000e+00  1.50000000e+00  9.53449509e-01  5.55220616e-01  3.98228892e-01 
 8.00533482e-06  3.14246002e-03 -0.00000000e+00  1.50000000e+00  9.53405232e-01  5.55257323e-01  3.98147909e-01 
 8.00569196e-06  3.35283255e-03 -0.00000000e+00  1.50000000e+00  9.53316675e-01  5.55330755e-01  3.97985920e-01 
 8.00627545e-06  3.69652941e-03 -0.00000000e+00  1.50000000e+00  9.53171973e-01  5.55450771e-01  3.97721202e-01 
 8.00701591e-06  4.13269003e-03 -0.00000000e+00  1.50000000e+00  9.52988279e-01  5.55603139e-01  3.97385141e-01 
 8.00831350e-06  4.89702028e-03 -0.00000000e+00  1.50000000e+00  9.52666165e-01  5.55870294e-01  3.96795871e-01 
 8.01084581e-06  6.38862964e-03 -0.00000000e+00  1.50000000e+00  9.52036827e-01  5.56392282e-01  3.95644546e-01 
 8.01283482e-06  7.56020584e-03 -0.00000000e+00  1.50000000e+00  9.51541951e-01  5.56802994e-01  3.94738957e-01 
 8.01289062e-06  7.59307518e-03  1.50000000e-01  1.35000000e+00  9.51528060e-01  5.56814527e-01  3.94713533e-01 
 8.01300223e-06  7.65881382e-03  4.50000000e-01  1.05000000e+00  9.51500276e-01  5.56837594e-01  3.94662682e-01 
 8.01322545e-06  7.79029091e-03  1.05000000e+00  4.50000000e-01  9.51444707e-01  5.56883736e-01  3.94560971e-01 
 8.01339286e-06  7.88889857e-03  1.50000000e+00  4.55391280e-12  9.51403027e-01  5.56918349e-01  3.94484679e-01 
 8.01343750e-06  7.91519393e-03  1.50000000e+00  2.22044605e-16  9.51391913e-01  5.56927580e-01  3.94464333e-01 
 8.01352679e-06  7.96778461e-03  1.50000000e+00  2.22044605e-16  9.51369683e-01  5.56946044e-01  3.94423639e-01 
 8.01370536e-06  8.07296585e-03  1.50000000e+00  2.22044605e-16  9.51325222e-01  5.56982977e-01  3.94342245e-01 
 8.01406250e-06  8.28332785e-03  1.50000000e+00  2.22044605e-16  9.51236292e-01  5.57056862e-01  3.94179430e-01 
 8.01464599e-06  8.62700710e-03  1.50000000e+00  2.22044605e-16  9.51090974e-01  5.57177618e-01  3.93913356e-01 
 8.01538645e-06  9.06314366e-03  1.50000000e+00  2.22044605e-16  9.50906496e-01  5.57330927e-01  3.93575569e-01 
 8.01668404e-06  9.82742831e-03  1.50000000e+00  2.22044605e-16  9.50583023e-01  5.57599734e-01  3.92983289e-01 
 8.01921635e-06  1.13189339e-02  1.50000000e+00  2.22044605e-16  9.49951151e-01  5.58124887e-01  3.91826264e-01 
 8.02232143e-06  1.31477333e-02  1.50000000e+00  2.22044605e-16  9.49175443e-01  5.58770023e-01  3.90405420e-01 
 8.02237723e-06  1.31805992e-02  1.35000000e+00  1.50000000e-01  9.49161493e-01  5.58781631e-01  3.90379862e-01 
 8.02248884e-06  1.32463310e-02  1.05000000e+00  4.50000000e-01  9.49133591e-01  5.58804848e-01  3.90328744e-01 
 8.02271205e-06  1.33777944e-02  4.50000000e-01  1.05000000e+00  9.49077787e-01  5.58851287e-01  3.90226499e-01 
 8.02287946e-06  1.34763916e-02  4.55369076e-12  1.50000000e+00  9.49035932e-01  5.58886125e-01  3.90149807e-01 
 8.02292411e-06  1.35026842e-02 -0.00000000e+00  1.50000000e+00  9.49024771e-01  5.58895416e-01  3.90129355e-01 
 8.02301339e-06  1.35552693e-02 -0.00000000e+00  1.50000000e+00  9.49002449e-01  5.58914000e-01  3.90088449e-01 
 8.02319196e-06  1.36604392e-02 -0.00000000e+00  1.50000000e+00  9.48957804e-01  5.58951175e-01  3.90006630e-01 
 8.02354911e-06  1.38707783e-02 -0.00000000e+00  1.50000000e+00  9.48868513e-01  5.59025545e-01  3.89842968e-01 
 8.02413259e-06  1.42144184e-02 -0.00000000e+00  1.50000000e+00  9.48722610e-01  5.59147100e-01  3.89575511e-01 
 8.02487305e-06  1.46505040e-02 -0.00000000e+00  1.50000000e+00  9.48537388e-01  5.59301424e-01  3.89235963e-01 
 8.02617064e-06  1.54146938e-02 -0.00000000e+00  1.50000000e+00  9.48212564e-01  5.59572014e-01  3.88640551e-01 
 8.02870294e-06  1.69059977e-02 -0.00000000e+00  1.50000000e+00  9.47577841e-01  5.60100749e-01  3.87477092e-01 
 8.03069196e-06  1.80773085e-02 -0.00000000e+00  1.50000000e+00  9.47078655e-01  5.60516832e-01  3.86561823e-01 
 8.03074777e-06  1.81101699e-02  1.50000000e-01  1.35000000e+00  9.47064642e-01  5.60528517e-01  3.86536125e-01 
 8.03085937e-06  1.81758927e-02  4.50000000e-01  1.05000000e+00  9.47036614e-01  5.60551887e-01  3.86484727e-01 
 8.03108259e-06  1.83073379e-02  1.05000000e+00  4.50000000e-01  9.46980556e-01  5.60598636e-01  3.86381921e-01 
 8.03125000e-06  1.84059214e-02  1.50000000e+00  2.22044605e-16  9.46938510e-01  5.60633705e-01  3.86304805e-01 
 8.03129464e-06  1.84322103e-02  1.50000000e+00  2.22044605e-16  9.46927298e-01  5.60643058e-01  3.86284239e-01 
 8.03138393e-06  1.84847880e-02  1.50000000e+00  2.22044605e-16  9.46904872e-01  5.60661766e-01  3.86243106e-01 
 8.03156250e-06  1.85899431e-02  1.50000000e+00  2.22044605e-16  9.46860019e-01  5.60699187e-01  3.86160832e-01 
 8.03191964e-06  1.88002522e-02  1.50000000e+00  2.22044605e-16  9.46770304e-01  5.60774051e-01  3.85996254e-01 
 8.03250313e-06  1.91438433e-02  1.50000000e+00  2.22044605e-16  9.46623698e-01  5.60896411e-01  3.85727287e-01 
 8.03324359e-06  1.95798649e-02  1.50000000e+00  2.22044605e-16  9.46437575e-01  5.61051765e-01  3.85385810e-01 
 8.03454118e-06  2.03439394e-02  1.50000000e+00  2.22044605e-16  9.46111190e-01  5.61324179e-01  3.84787011e-01 
 8.03707349e-06  2.18350034e-02  1.50000000e+00  2.22044605e-16  9.45473520e-01  5.61856462e-01  3.83617058e-01 
 8.04017857e-06  2.36632044e-02  1.50000000e+00  4.55391280e-12  9.44690501e-01  5.62510522e-01  3.82179979e-01 
 8.04023438e-06  2.36960591e-02  1.35000000e+00  1.50000000e-01  9.44676418e-01  5.62522292e-01  3.82154125e-01 
 8.04034598e-06  2.37617682e-02  1.05000000e+00  4.50000000e-01  9.44648249e-01  5.62545833e-01  3.82102416e-01 
 8.04056920e-06  2.38931859e-02  4.50000000e-01  1.05000000e+00  9.44591910e-01  5.62592923e-01  3.81998986e-01 
 8.04073661e-06  2.39917487e-02 -0.00000000e+00  1.50000000e+00  9.44549654e-01  5.62628249e-01  3.81921405e-01 
 8.04078125e-06  2.40180320e-02 -0.00000000e+00  1.50000000e+00  9.44538385e-01  5.62637671e-01  3.81900715e-01 
 8.04087054e-06  2.40705986e-02 -0.00000000e+00  1.50000000e+00  9.44515849e-01  5.62656516e-01  3.81859333e-01 
 8.04104911e-06  2.41757314e-02 -0.00000000e+00  1.50000000e+00  9.44470774e-01  5.62694212e-01  3.81776562e-01 
 8.04140625e-06  2.43859957e-02 -0.00000000e+00  1.50000000e+00  9.44380622e-01  5.62769629e-01  3.81610992e-01 
 8.04198973e-06  2.47295117e-02 -0.00000000e+00  1.50000000e+00  9.44233305e-01  5.62892900e-01  3.81340405e-01 
 8.04273019e-06  2.51654367e-02 -0.00000000e+00  1.50000000e+00  9.44046276e-01  5.63049412e-01  3.80996864e-01 
 8.04402778e-06  2.59293365e-02 -0.00000000e+00  1.50000000e+00  9.43718255e-01  5.63323862e-01  3.80394393e-01 
 8.04656009e-06  2.74200430e-02 -0.00000000e+00  1.50000000e+00  9.43077171e-01  5.63860232e-01  3.79216939e-01 
 8.04854911e-06  2.85908553e-02  4.55364912e-12  1.50000000e+00  9.42572884e-01  5.64282410e-01  3.78290474e-01 
 8.04860491e-06  2.86237024e-02  1.50000000e-01  1.35000000e+00  9.42558726e-01  5.64294266e-01  3.78264460e-01 
 8.04871652e-06  2.86893965e-02  4.50000000e-01  1.05000000e+00  9.42530409e-01  5.64317981e-01  3.78212428e-01 
 8.04893973e-06  2.88207839e-02  1.05000000e+00  4.50000000e-01  9.42473772e-01  5.64365420e-01  3.78108352e-01 
 8.04910714e-06  2.89193238e-02  1.50000000e+00  4.55391280e-12  9.42431291e-01  5.64401008e-01  3.78030284e-01 
 8.04915179e-06  2.89456011e-02  1.50000000e+00  2.22044605e-16  9.42419963e-01  5.64410499e-01  3.78009463e-01 
 8.04924107e-06  2.89981554e-02  1.50000000e+00  2.22044605e-16  9.42397305e-01  5.64429484e-01  3.77967821e-01 
 8.04941964e-06  2.91032638e-02  1.50000000e+00  2.22044605e-16  9.42351986e-01  5.64467459e-01  3.77884527e-01 
 8.04977679e-06  2.93134787e-02  1.50000000e+00  2.22044605e-16  9.42261339e-01  5.64543433e-01  3.77717906e-01 
 8.05036027e-06  2.96569141e-02  1.50000000e+00  2.22044605e-16  9.42113203e-01  5.64667613e-01  3.77445590e-01 
 8.05110073e-06  3.00927348e-02  1.50000000e+00  2.22044605e-16  9.41925127e-01  5.64825287e-01  3.77099841e-01 
 8.05239832e-06  3.08564488e-02  1.50000000e+00  2.22044605e-16  9.41595288e-01  5.65101792e-01  3.76493496e-01 
 8.05493063e-06  3.23467779e-02  1.50000000e+00  2.22044605e-16  9.40950766e-01  5.65642156e-01  3.75308610e-01 
 8.05803571e-06  3.41740211e-02  1.50000000e+00  4.55391280e-12  9.40159152e-01  5.66306301e-01  3.73852851e-01 
 8.05809152e-06  3.42068580e-02  1.35000000e+00  1.50000000e-01  9.40144912e-01  5.66318254e-01  3.73826658e-01 
 8.05820312e-06  3.42725315e-02  1.05000000e+00  4.50000000e-01  9.40116431e-01  5.66342162e-01  3.73774269e-01 
 8.05842634e-06  3.44038777e-02  4.50000000e-01  1.05000000e+00  9.40059465e-01  5.66389985e-01  3.73669480e-01 
 8.05859375e-06  3.45023866e-02 -0.00000000e+00  1.50000000e+00  9.40016738e-01  5.66425861e-01  3.73590877e-01 
 8.05863839e-06  3.45286555e-02 -0.00000000e+00  1.50000000e+00  9.40005344e-01  5.66435430e-01  3.73569914e-01 
 8.05872768e-06  3.45811933e-02 -0.00000000e+00  1.50000000e+00  9.39982556e-01  5.66454569e-01  3.73527987e-01 
 8.05890625e-06  3.46862684e-02 -0.00000000e+00  1.50000000e+00  9.39936979e-01  5.66492854e-01  3.73444125e-01 
 8.05926339e-06  3.48964164e-02 -0.00000000e+00  1.50000000e+00  9.39845818e-01  5.66569450e-01  3.73276368e-01 
 8.05984688e-06  3.52397409e-02 -0.00000000e+00  1.50000000e+00  9.39696850e-01  5.66694652e-01  3.73002198e-01 
 8.06058734e-06  3.56754195e-02 -0.00000000e+00  1.50000000e+00  9.39507714e-01  5.66853625e-01  3.72654089e-01 
 8.06188493e-06  3.64388790e-02 -0.00000000e+00  1.50000000e+00  9.39175972e-01  5.67132410e-01  3.72043562e-01 
 8.06441723e-06  3.79286949e-02 -0.00000000e+00  1.50000000e+00  9.38527528e-01  5.67677326e-01  3.70850202e-01 
 8.06640625e-06  3.90987785e-02 -0.00000000e+00  1.50000000e+00  9.38017374e-01  5.68106297e-01  3.69911076e-01 
 8.06646205e-06  3.91316048e-02  1.50000000e-01  1.35000000e+00  9.38003050e-01  5.68118346e-01  3.69884705e-01 
 8.06657366e-06  3.91972571e-02  4.50000000e-01  1.05000000e+00  9.37974402e-01  5.68142444e-01  3.69831958e-01 
 8.06679687e-06  3.93285609e-02  1.05000000e+00  4.50000000e-01  9.37917101e-01  5.68190651e-01  3.69726451e-01 
 8.06696429e-06  3.94270379e-02  1.50000000e+00  4.55391280e-12  9.37874122e-01  5.68226815e-01  3.69647308e-01 
 8.06700893e-06  3.94532984e-02  1.50000000e+00  2.22044605e-16  9.37862660e-01  5.68236460e-01  3.69626200e-01 
 8.06709821e-06  3.95058191e-02  1.50000000e+00  2.22044605e-16  9.37839736e-01  5.68255752e-01  3.69583984e-01 
 8.06727679e-06  3.96108599e-02  1.50000000e+00  2.22044605e-16  9.37793886e-01  5.68294343e-01  3.69499543e-01 
 8.06763393e-06  3.98209393e-02  1.50000000e+00  2.22044605e-16  9.37702172e-01  5.68371550e-01  3.69330622e-01 
 8.06821741e-06  4.01641514e-02  1.50000000e+00  2.22044605e-16  9.37552289e-01  5.68497751e-01  3.69054539e-01 
 8.06895787e-06  4.05996856e-02  1.50000000e+00  2.22044605e-16  9.37361987e-01  5.68657995e-01  3.68703992e-01 
 8.07025547e-06  4.13628889e-02  1.50000000e+00  2.22044605e-16  9.37028222e-01  5.68939026e-01  3.68089196e-01 
 8.07278778e-06  4.28521900e-02  1.50000000e+00  2.22044605e-16  9.36375955e-01  5.69488299e-01  3.66887656e-01 
 8.07589286e-06  4.46781159e-02  1.50000000e+00  2.22044605e-16  9.35574705e-01  5.70163502e-01  3.65411203e-01 
 8.07594866e-06  4.47109285e-02  1.35000000e+00  1.50000000e-01  9.35560290e-01  5.70175655e-01  3.65384635e-01 
 8.07606027e-06  4.47765535e-02  1.05000000e+00  4.50000000e-01  9.35531460e-01  5.70199963e-01  3.65331497e-01 
 8.07628348e-06  4.49078023e-02  4.50000000e-01  1.05000000e+00  9.35473794e-01  5.70248587e-01  3.65225207e-01 
 8.07645089e-06  4.50062380e-02 -0.00000000e+00  1.50000000e+00  9.35430543e-01  5.70285065e-01  3.65145478e-01 
 8.07649554e-06  4.50324874e-02 -0.00000000e+00  1.50000000e+00  9.35419009e-01  5.70294794e-01  3.65124215e-01 
 8.07658482e-06  4.50849861e-02 -0.00000000e+00  1.50000000e+00  9.35395941e-01  5.70314254e-01  3.65081687e-01 
 8.07676339e-06  4.51899826e-02 -0.00000000e+00  1.50000000e+00  9.35349803e-01  5.70353181e-01  3.64996622e-01 
 8.07712054e-06  4.53999731e-02 -0.00000000e+00  1.50000000e+00  9.35257521e-01  5.70431064e-01  3.64826457e-01 
 8.07770402e-06  4.57430385e-02 -0.00000000e+00  1.50000000e+00  9.35106716e-01  5.70558373e-01  3.64548343e-01 
 8.07844448e-06  4.61783851e-02 -0.00000000e+00  1.50000000e+00  9.34915242e-01  5.70720025e-01  3.64195217e-01 
 8.07974207e-06  4.69412542e-02 -0.00000000e+00  1.50000000e+00  9.34579383e-01  5.71003521e-01  3.63575861e-01 
 8.08227437e-06  4.84298863e-02 -0.00000000e+00  1.50000000e+00  9.33922835e-01  5.71557692e-01  3.62365142e-01 
 8.08426339e-06  4.95990111e-02 -0.00000000e+00  1.50000000e+00  9.33406258e-01  5.71993990e-01  3.61412268e-01 
 8.08431920e-06  4.96318101e-02  1.50000000e-01  1.35000000e+00  9.33391754e-01  5.72006245e-01  3.61385509e-01 
 8.08443080e-06  4.96974078e-02  4.50000000e-01  1.05000000e+00  9.33362744e-01  5.72030756e-01  3.61331988e-01 
 8.08465402e-06  4.98286021e-02  1.05000000e+00  4.50000000e-01  9.33304719e-01  5.72079789e-01  3.61224930e-01 
 8.08482143e-06  4.99269969e-02  1.50000000e+00  2.22044605e-16  9.33261196e-01  5.72116573e-01  3.61144624e-01 
 8.08486607e-06  4.99532353e-02  1.50000000e+00  2.22044605e-16  9.33249590e-01  5.72126384e-01  3.61123206e-01 
 8.08495536e-06  5.00057121e-02  1.50000000e+00  2.22044605e-16  9.33226376e-01  5.72146007e-01  3.61080369e-01 
 8.08513393e-06  5.01106648e-02  1.50000000e+00  2.22044605e-16  9.33179945e-01  5.72185260e-01  3.60994685e-01 
 8.08549107e-06  5.03205672e-02  1.50000000e+00  2.22044605e-16  9.33087070e-01  5.72263792e-01  3.60823278e-01 
 8.08607456e-06  5.06634885e-02  1.50000000e+00  2.22044605e-16  9.32935287e-01  5.72392161e-01  3.60543126e-01 
 8.08681502e-06  5.10986505e-02  1.50000000e+00  2.22044605e-16  9.32742568e-01  5.72555163e-01  3.60187405e-01 
 8.08811261e-06  5.18611931e-02  1.50000000e+00  2.22044605e-16  9.32404551e-01  5.72841040e-01  3.59563511e-01 
 8.09064492e-06  5.33491732e-02  1.50000000e+00  2.22044605e-16  9.31743934e-01  5.73399819e-01  3.58344115e-01 
 8.09375000e-06  5.51734227e-02  1.50000000e+00  2.22044605e-16  9.30932361e-01  5.74086765e-01  3.56845596e-01 
 8.09380580e-06  5.52062046e-02  1.35000000e+00  1.50000000e-01  9.30917760e-01  5.74099131e-01  3.56818630e-01 
 8.09391741e-06  5.52717681e-02  1.05000000e+00  4.50000000e-01  9.30888557e-01  5.74123862e-01  3.56764695e-01 
 8.09414062e-06  5.54028938e-02  4.50000000e-01  1.05000000e+00  9.30830146e-01  5.74173335e-01  3.56656811e-01 
 8.09430804e-06  5.55012369e-02 -0.00000000e+00  1.50000000e+00  9.30786335e-01  5.74210450e-01  3.56575886e-01 
 8.09435268e-06  5.55274616e-02 -0.00000000e+00  1.50000000e+00  9.30774652e-01  5.74220349e-01  3.56554304e-01 
 8.09444196e-06  5.55799107e-02 -0.00000000e+00  1.50000000e+00  9.30751286e-01  5.74240148e-01  3.56511137e-01 
 8.09462054e-06  5.56848082e-02 -0.00000000e+00  1.50000000e+00  9.30704551e-01  5.74279756e-01  3.56424795e-01 
 8.09497768e-06  5.58945999e-02 -0.00000000e+00  1.50000000e+00  9.30611074e-01  5.74358999e-01  3.56252075e-01 
 8.09556116e-06  5.62373386e-02 -0.00000000e+00  1.50000000e+00  9.30458316e-01  5.74488534e-01  3.55969782e-01 
 8.09630162e-06  5.66722675e-02 -0.00000000e+00  1.50000000e+00  9.30264359e-01  5.74653014e-01  3.55611344e-01 
 8.09759921e-06  5.74343961e-02 -0.00000000e+00  1.50000000e+00  9.29924135e-01  5.74941476e-01  3.54982659e-01 
 8.10013152e-06  5.89215518e-02 -0.00000000e+00  1.50000000e+00  9.29259033e-01  5.75505374e-01  3.53753659e-01 
 8.10212054e-06  6.00894877e-02 -0.00000000e+00  1.50000000e+00  9.28735709e-01  5.75949346e-01  3.52786363e-01 
 8.10217634e-06  6.01222530e-02  1.50000000e-01  1.35000000e+00  9.28721015e-01  5.75961817e-01  3.52759199e-01 
 8.10228795e-06  6.01877832e-02  4.50000000e-01  1.05000000e+00  9.28691626e-01  5.75986759e-01  3.52704867e-01 
 8.10251116e-06  6.03188423e-02  1.05000000e+00  4.50000000e-01  9.28632843e-01  5.76036655e-01  3.52596187e-01 
 8.10267857e-06  6.04171354e-02  1.50000000e+00  4.55391280e-12  9.28588751e-01  5.76074087e-01  3.52514663e-01 
 8.10272321e-06  6.04433467e-02  1.50000000e+00  2.22044605e-16  9.28576992e-01  5.76084071e-01  3.52492921e-01 
 8.10281250e-06  6.04957691e-02  1.50000000e+00  2.22044605e-16  9.28553475e-01  5.76104040e-01  3.52449435e-01 
 8.10299107e-06  6.06006130e-02  1.50000000e+00  2.22044605e-16  9.28506437e-01  5.76143985e-01  3.52362452e-01 
 8.10334821e-06  6.08102973e-02  1.50000000e+00  2.22044605e-16  9.28412347e-01  5.76223901e-01  3.52188446e-01 
 8.10393170e-06  6.11528603e-02  1.50000000e+00  2.22044605e-16  9.28258577e-01  5.76354533e-01  3.51904045e-01 
 8.10467216e-06  6.15875646e-02  1.50000000e+00  2.22044605e-16  9.28063335e-01  5.76520410e-01  3.51542925e-01 
 8.10596975e-06  6.23492964e-02  1.50000000e+00  2.22044605e-16  9.27720888e-01  5.76811331e-01  3.50909557e-01 
 8.10850206e-06  6.38356628e-02  1.50000000e+00  2.22044605e-16  9.27051603e-01  5.77379979e-01  3.49671624e-01 
 8.11160714e-06  6.56578771e-02  1.50000000e+00  2.22044605e-16  9.26229371e-01  5.78079072e-01  3.48150298e-01 
 8.11166295e-06  6.56906218e-02  1.35000000e+00  1.50000000e-01  9.26214578e-01  5.78091656e-01  3.48122922e-01 
 8.11177455e-06  6.57561109e-02  1.05000000e+00  4.50000000e-01  9.26184991e-01  5.78116826e-01  3.48068165e-01 
 8.11199777e-06  6.58870877e-02  4.50000000e-01  1.05000000e+00  9.26125813e-01  5.78167174e-01  3.47958639e-01 
 8.11216518e-06  6.59853189e-02  4.55369076e-12  1.50000000e+00  9.26081426e-01  5.78204945e-01  3.47876481e-01 
 8.11220982e-06  6.60115137e-02 -0.00000000e+00  1.50000000e+00  9.26069590e-01  5.78215019e-01  3.47854570e-01 
 8.11229911e-06  6.60639030e-02 -0.00000000e+00  1.50000000e+00  9.26045916e-01  5.78235169e-01  3.47810747e-01 
 8.11247768e-06  6.61686808e-02 -0.00000000e+00  1.50000000e+00  9.25998568e-01  5.78275478e-01  3.47723090e-01 
 8.11283482e-06  6.63782323e-02 -0.00000000e+00  1.50000000e+00  9.25903863e-01  5.78356124e-01  3.47547739e-01 
 8.11341831e-06  6.67205770e-02 -0.00000000e+00  1.50000000e+00  9.25749098e-01  5.78487951e-01  3.47261148e-01 
 8.11415876e-06  6.71550027e-02 -0.00000000e+00  1.50000000e+00  9.25552594e-01  5.78655342e-01  3.46897252e-01 
 8.11545635e-06  6.79162409e-02 -0.00000000e+00  1.50000000e+00  9.25207902e-01  5.78948909e-01  3.46258993e-01 
 8.11798866e-06  6.94016276e-02 -0.00000000e+00  1.50000000e+00  9.24534069e-01  5.79522778e-01  3.45011290e-01 
 8.11997768e-06  7.05681449e-02 -0.00000000e+00  1.50000000e+00  9.24003885e-01  5.79974597e-01  3.44029288e-01 
 8.12003348e-06  7.06008700e-02  1.50000000e-01  1.35000000e+00  9.23988999e-01  5.79987288e-01  3.44001710e-01 
 8.12014509e-06  7.06663199e-02  4.50000000e-01  1.05000000e+00  9.23959225e-01  5.80012672e-01  3.43946553e-01 
 8.12036830e-06  7.07972179e-02  1.05000000e+00  4.50000000e-01  9.23899671e-01  5.80063449e-01  3.43836222e-01 
 8.12053571e-06  7.08953900e-02  1.50000000e+00  2.22044605e-16  9.23855002e-01  5.80101542e-01  3.43753460e-01 
