 frequency       v(adm_db)       v(adm_arg)      v(acm_db)       v(acm_arg)      v(cmrr_db)      v(cmrr_arg)    
 1.00000000e-01  2.74343795e+01 -1.45423594e-06 -4.09059607e+01 -8.90520477e-07  6.83403402e+01 -5.63715466e-07 
 1.02305973e-01  2.74343795e+01 -1.48777023e-06 -4.09059607e+01 -9.11055639e-07  6.83403402e+01 -5.76714592e-07 
 1.04665121e-01  2.74343795e+01 -1.52207781e-06 -4.09059607e+01 -9.32064336e-07  6.83403402e+01 -5.90013475e-07 
 1.07078670e-01  2.74343795e+01 -1.55717651e-06 -4.09059607e+01 -9.53557487e-07  6.83403402e+01 -6.03619026e-07 
 1.09547876e-01  2.74343795e+01 -1.59308458e-06 -4.09059607e+01 -9.75546265e-07  6.83403402e+01 -6.17538318e-07 
 1.12074020e-01  2.74343795e+01 -1.62982068e-06 -4.09059607e+01 -9.98042099e-07  6.83403402e+01 -6.31778585e-07 
 1.14658417e-01  2.74343795e+01 -1.66740391e-06 -4.09059607e+01 -1.02105668e-06  6.83403402e+01 -6.46347228e-07 
 1.17302409e-01  2.74343795e+01 -1.70585379e-06 -4.09059607e+01 -1.04460197e-06  6.83403402e+01 -6.61251821e-07 
 1.20007371e-01  2.74343795e+01 -1.74519032e-06 -4.09059607e+01 -1.06869021e-06  6.83403402e+01 -6.76500109e-07 
 1.22774708e-01  2.74343795e+01 -1.78543394e-06 -4.09059607e+01 -1.09333392e-06  6.83403402e+01 -6.92100019e-07 
 1.25605860e-01  2.74343795e+01 -1.82660556e-06 -4.09059607e+01 -1.11854590e-06  6.83403402e+01 -7.08059658e-07 
 1.28502297e-01  2.74343795e+01 -1.86872659e-06 -4.09059607e+01 -1.14433927e-06  6.83403402e+01 -7.24387323e-07 
 1.31465525e-01  2.74343795e+01 -1.91181892e-06 -4.09059607e+01 -1.17072742e-06  6.83403402e+01 -7.41091499e-07 
 1.34497085e-01  2.74343795e+01 -1.95590495e-06 -4.09059607e+01 -1.19772408e-06  6.83403402e+01 -7.58180868e-07 
 1.37598551e-01  2.74343795e+01 -2.00100759e-06 -4.09059607e+01 -1.22534328e-06  6.83403402e+01 -7.75664314e-07 
 1.40771537e-01  2.74343795e+01 -2.04715028e-06 -4.09059607e+01 -1.25359936e-06  6.83403402e+01 -7.93550924e-07 
 1.44017690e-01  2.74343795e+01 -2.09435702e-06 -4.09059607e+01 -1.28250702e-06  6.83403402e+01 -8.11849994e-07 
 1.47338699e-01  2.74343795e+01 -2.14265232e-06 -4.09059607e+01 -1.31208129e-06  6.83403402e+01 -8.30571035e-07 
 1.50736290e-01  2.74343795e+01 -2.19206131e-06 -4.09059607e+01 -1.34233753e-06  6.83403402e+01 -8.49723779e-07 
 1.54212228e-01  2.74343795e+01 -2.24260965e-06 -4.09059607e+01 -1.37329147e-06  6.83403402e+01 -8.69318180e-07 
 1.57768320e-01  2.74343795e+01 -2.29432362e-06 -4.09059607e+01 -1.40495920e-06  6.83403402e+01 -8.89364422e-07 
 1.61406415e-01  2.74343795e+01 -2.34723010e-06 -4.09059607e+01 -1.43735718e-06  6.83403402e+01 -9.09872926e-07 
 1.65128404e-01  2.74343795e+01 -2.40135660e-06 -4.09059607e+01 -1.47050225e-06  6.83403402e+01 -9.30854349e-07 
 1.68936220e-01  2.74343795e+01 -2.45673123e-06 -4.09059607e+01 -1.50441163e-06  6.83403402e+01 -9.52319599e-07 
 1.72831844e-01  2.74343795e+01 -2.51338279e-06 -4.09059607e+01 -1.53910296e-06  6.83403402e+01 -9.74279832e-07 
 1.76817299e-01  2.74343795e+01 -2.57134072e-06 -4.09059607e+01 -1.57459426e-06  6.83403402e+01 -9.96746462e-07 
 1.80894658e-01  2.74343795e+01 -2.63063514e-06 -4.09059607e+01 -1.61090397e-06  6.83403402e+01 -1.01973117e-06 
 1.85066040e-01  2.74343795e+01 -2.69129688e-06 -4.09059607e+01 -1.64805098e-06  6.83403402e+01 -1.04324589e-06 
 1.89333613e-01  2.74343795e+01 -2.75335745e-06 -4.09059607e+01 -1.68605459e-06  6.83403402e+01 -1.06730286e-06 
 1.93699595e-01  2.74343795e+01 -2.81684913e-06 -4.09059607e+01 -1.72493456e-06  6.83403402e+01 -1.09191458e-06 
 1.98166255e-01  2.74343795e+01 -2.88180491e-06 -4.09059607e+01 -1.76471108e-06  6.83403402e+01 -1.11709383e-06 
 2.02735916e-01  2.74343795e+01 -2.94825856e-06 -4.09059607e+01 -1.80540484e-06  6.83403402e+01 -1.14285371e-06 
 2.07410951e-01  2.74343795e+01 -3.01624460e-06 -4.09059607e+01 -1.84703699e-06  6.83403402e+01 -1.16920761e-06 
 2.12193792e-01  2.74343795e+01 -3.08579839e-06 -4.09059607e+01 -1.88962917e-06  6.83403402e+01 -1.19616922e-06 
 2.17086923e-01  2.74343795e+01 -3.15695606e-06 -4.09059607e+01 -1.93320350e-06  6.83403402e+01 -1.22375256e-06 
 2.22092889e-01  2.74343795e+01 -3.22975462e-06 -4.09059607e+01 -1.97778265e-06  6.83403402e+01 -1.25197196e-06 
 2.27214291e-01  2.74343795e+01 -3.30423189e-06 -4.09059607e+01 -2.02338979e-06  6.83403402e+01 -1.28084210e-06 
 2.32453791e-01  2.74343795e+01 -3.38042658e-06 -4.09059607e+01 -2.07004861e-06  6.83403402e+01 -1.31037797e-06 
 2.37814113e-01  2.74343795e+01 -3.45837831e-06 -4.09059607e+01 -2.11778337e-06  6.83403402e+01 -1.34059493e-06 
 2.43298042e-01  2.74343795e+01 -3.53812758e-06 -4.09059607e+01 -2.16661888e-06  6.83403402e+01 -1.37150869e-06 
 2.48908429e-01  2.74343795e+01 -3.61971584e-06 -4.09059607e+01 -2.21658053e-06  6.83403402e+01 -1.40313531e-06 
 2.54648190e-01  2.74343795e+01 -3.70318551e-06 -4.09059607e+01 -2.26769428e-06  6.83403402e+01 -1.43549123e-06 
 2.60520309e-01  2.74343795e+01 -3.78857997e-06 -4.09059607e+01 -2.31998670e-06  6.83403402e+01 -1.46859327e-06 
 2.66527837e-01  2.74343795e+01 -3.87594360e-06 -4.09059607e+01 -2.37348496e-06  6.83403402e+01 -1.50245864e-06 
 2.72673897e-01  2.74343795e+01 -3.96532181e-06 -4.09059607e+01 -2.42821688e-06  6.83403402e+01 -1.53710493e-06 
 2.78961683e-01  2.74343795e+01 -4.05676106e-06 -4.09059607e+01 -2.48421091e-06  6.83403402e+01 -1.57255015e-06 
 2.85394464e-01  2.74343795e+01 -4.15030887e-06 -4.09059607e+01 -2.54149614e-06  6.83403402e+01 -1.60881273e-06 
 2.91975583e-01  2.74343795e+01 -4.24601388e-06 -4.09059607e+01 -2.60010236e-06  6.83403402e+01 -1.64591152e-06 
 2.98708461e-01  2.74343795e+01 -4.34392581e-06 -4.09059607e+01 -2.66006001e-06  6.83403402e+01 -1.68386579e-06 
 3.05596598e-01  2.74343795e+01 -4.44409556e-06 -4.09059607e+01 -2.72140028e-06  6.83403402e+01 -1.72269528e-06 
 3.12643573e-01  2.74343795e+01 -4.54657521e-06 -4.09059607e+01 -2.78415504e-06  6.83403402e+01 -1.76242017e-06 
 3.19853049e-01  2.74343795e+01 -4.65141800e-06 -4.09059607e+01 -2.84835690e-06  6.83403402e+01 -1.80306111e-06 
 3.27228774e-01  2.74343795e+01 -4.75867845e-06 -4.09059607e+01 -2.91403924e-06  6.83403402e+01 -1.84463921e-06 
 3.34774581e-01  2.74343795e+01 -4.86841229e-06 -4.09059607e+01 -2.98123620e-06  6.83403402e+01 -1.88717609e-06 
 3.42494392e-01  2.74343795e+01 -4.98067656e-06 -4.09059607e+01 -3.04998270e-06  6.83403402e+01 -1.93069386e-06 
 3.50392221e-01  2.74343795e+01 -5.09552961e-06 -4.09059607e+01 -3.12031447e-06  6.83403402e+01 -1.97521514e-06 
 3.58472171e-01  2.74343795e+01 -5.21303115e-06 -4.09059607e+01 -3.19226808e-06  6.83403402e+01 -2.02076307e-06 
 3.66738442e-01  2.74343795e+01 -5.33324224e-06 -4.09059607e+01 -3.26588092e-06  6.83403402e+01 -2.06736132e-06 
 3.75195331e-01  2.74343795e+01 -5.45622537e-06 -4.09059607e+01 -3.34119125e-06  6.83403402e+01 -2.11503411e-06 
 3.83847234e-01  2.74343795e+01 -5.58204445e-06 -4.09059607e+01 -3.41823822e-06  6.83403402e+01 -2.16380623e-06 
 3.92698648e-01  2.74343795e+01 -5.71076489e-06 -4.09059607e+01 -3.49706187e-06  6.83403402e+01 -2.21370301e-06 
 4.01754173e-01  2.74343795e+01 -5.84245358e-06 -4.09059607e+01 -3.57770317e-06  6.83403402e+01 -2.26475041e-06 
 4.11018515e-01  2.74343795e+01 -5.97717898e-06 -4.09059607e+01 -3.66020404e-06  6.83403402e+01 -2.31697494e-06 
 4.20496491e-01  2.74343795e+01 -6.11501111e-06 -4.09059607e+01 -3.74460736e-06  6.83403402e+01 -2.37040375e-06 
 4.30193027e-01  2.74343795e+01 -6.25602162e-06 -4.09059607e+01 -3.83095699e-06  6.83403402e+01 -2.42506463e-06 
 4.40113162e-01  2.74343795e+01 -6.40028379e-06 -4.09059607e+01 -3.91929783e-06  6.83403402e+01 -2.48098596e-06 
 4.50262052e-01  2.74343795e+01 -6.54787260e-06 -4.09059607e+01 -4.00967578e-06  6.83403402e+01 -2.53819683e-06 
 4.60644974e-01  2.74343795e+01 -6.69886478e-06 -4.09059607e+01 -4.10213782e-06  6.83403402e+01 -2.59672696e-06 
 4.71267322e-01  2.74343795e+01 -6.85333879e-06 -4.09059607e+01 -4.19673201e-06  6.83403402e+01 -2.65660678e-06 
 4.82134619e-01  2.74343795e+01 -7.01137493e-06 -4.09059607e+01 -4.29350751e-06  6.83403402e+01 -2.71786742e-06 
 4.93252513e-01  2.74343795e+01 -7.17305534e-06 -4.09059607e+01 -4.39251464e-06  6.83403402e+01 -2.78054070e-06 
 5.04626783e-01  2.74343795e+01 -7.33846406e-06 -4.09059607e+01 -4.49380484e-06  6.83403402e+01 -2.84465922e-06 
 5.16263340e-01  2.74343795e+01 -7.50768706e-06 -4.09059607e+01 -4.59743076e-06  6.83403402e+01 -2.91025630e-06 
 5.28168234e-01  2.74343795e+01 -7.68081229e-06 -4.09059607e+01 -4.70344627e-06  6.83403402e+01 -2.97736602e-06 
 5.40347650e-01  2.74343795e+01 -7.85792975e-06 -4.09059607e+01 -4.81190647e-06  6.83403402e+01 -3.04602328e-06 
 5.52807921e-01  2.74343795e+01 -8.03913149e-06 -4.09059607e+01 -4.92286774e-06  6.83403402e+01 -3.11626375e-06 
 5.65555523e-01  2.74343795e+01 -8.22451169e-06 -4.09059607e+01 -5.03638774e-06  6.83403402e+01 -3.18812395e-06 
 5.78597080e-01  2.74343795e+01 -8.41416670e-06 -4.09059607e+01 -5.15252548e-06  6.83403402e+01 -3.26164123e-06 
 5.91939372e-01  2.74343795e+01 -8.60819511e-06 -4.09059607e+01 -5.27134132e-06  6.83403402e+01 -3.33685379e-06 
 6.05589334e-01  2.74343795e+01 -8.80669777e-06 -4.09059607e+01 -5.39289703e-06  6.83403402e+01 -3.41380074e-06 
 6.19554061e-01  2.74343795e+01 -9.00977784e-06 -4.09059607e+01 -5.51725578e-06  6.83403402e+01 -3.49252206e-06 
 6.33840810e-01  2.74343795e+01 -9.21754088e-06 -4.09059607e+01 -5.64448221e-06  6.83403402e+01 -3.57305868e-06 
 6.48457008e-01  2.74343795e+01 -9.43009489e-06 -4.09059607e+01 -5.77464244e-06  6.83403402e+01 -3.65545244e-06 
 6.63410251e-01  2.74343795e+01 -9.64755033e-06 -4.09059607e+01 -5.90780414e-06  6.83403402e+01 -3.73974619e-06 
 6.78708313e-01  2.74343795e+01 -9.87002023e-06 -4.09059607e+01 -6.04403650e-06  6.83403402e+01 -3.82598373e-06 
 6.94359143e-01  2.74343795e+01 -1.00976202e-05 -4.09059607e+01 -6.18341035e-06  6.83403402e+01 -3.91420988e-06 
 7.10370877e-01  2.74343795e+01 -1.03304686e-05 -4.09059607e+01 -6.32599812e-06  6.83403402e+01 -4.00447050e-06 
 7.26751838e-01  2.74343795e+01 -1.05686864e-05 -4.09059607e+01 -6.47187393e-06  6.83403402e+01 -4.09681251e-06 
 7.43510539e-01  2.74343795e+01 -1.08123975e-05 -4.09059607e+01 -6.62111360e-06  6.83403402e+01 -4.19128390e-06 
 7.60655691e-01  2.74343795e+01 -1.10617285e-05 -4.09059607e+01 -6.77379469e-06  6.83403402e+01 -4.28793377e-06 
 7.78196206e-01  2.74343795e+01 -1.13168089e-05 -4.09059607e+01 -6.92999656e-06  6.83403402e+01 -4.38681237e-06 
 7.96141200e-01  2.74343795e+01 -1.15777715e-05 -4.09059607e+01 -7.08980041e-06  6.83403402e+01 -4.48797107e-06 
 8.14500001e-01  2.74343795e+01 -1.18447518e-05 -4.09059607e+01 -7.25328929e-06  6.83403402e+01 -4.59146248e-06 
 8.33282151e-01  2.74343795e+01 -1.21178885e-05 -4.09059607e+01 -7.42054818e-06  6.83403402e+01 -4.69734036e-06 
 8.52497412e-01  2.74343795e+01 -1.23973238e-05 -4.09059607e+01 -7.59166402e-06  6.83403402e+01 -4.80565976e-06 
 8.72155772e-01  2.74343795e+01 -1.26832027e-05 -4.09059607e+01 -7.76672574e-06  6.83403402e+01 -4.91647697e-06 
 8.92267449e-01  2.74343795e+01 -1.29756739e-05 -4.09059607e+01 -7.94582434e-06  6.83403402e+01 -5.02984961e-06 
 9.12842895e-01  2.74343795e+01 -1.32748895e-05 -4.09059607e+01 -8.12905290e-06  6.83403402e+01 -5.14583658e-06 
 9.33892805e-01  2.74343795e+01 -1.35810048e-05 -4.09059607e+01 -8.31650667e-06  6.83403402e+01 -5.26449818e-06 
 9.55428121e-01  2.74343795e+01 -1.38941791e-05 -4.09059607e+01 -8.50828306e-06  6.83403402e+01 -5.38589609e-06 
 9.77460036e-01  2.74343795e+01 -1.42145752e-05 -4.09059607e+01 -8.70448177e-06  6.83403402e+01 -5.51009339e-06 
 1.00000000e+00  2.74343795e+01 -1.45423594e-05 -4.09059607e+01 -8.90520477e-06  6.83403402e+01 -5.63715466e-06 
 1.02305973e+00  2.74343795e+01 -1.48777023e-05 -4.09059607e+01 -9.11055639e-06  6.83403402e+01 -5.76714592e-06 
 1.04665121e+00  2.74343795e+01 -1.52207781e-05 -4.09059607e+01 -9.32064336e-06  6.83403402e+01 -5.90013475e-06 
 1.07078670e+00  2.74343795e+01 -1.55717651e-05 -4.09059607e+01 -9.53557487e-06  6.83403402e+01 -6.03619026e-06 
 1.09547876e+00  2.74343795e+01 -1.59308458e-05 -4.09059607e+01 -9.75546265e-06  6.83403402e+01 -6.17538318e-06 
 1.12074020e+00  2.74343795e+01 -1.62982068e-05 -4.09059607e+01 -9.98042099e-06  6.83403402e+01 -6.31778585e-06 
 1.14658417e+00  2.74343795e+01 -1.66740391e-05 -4.09059607e+01 -1.02105668e-05  6.83403402e+01 -6.46347228e-06 
 1.17302409e+00  2.74343795e+01 -1.70585379e-05 -4.09059607e+01 -1.04460197e-05  6.83403402e+01 -6.61251821e-06 
 1.20007371e+00  2.74343795e+01 -1.74519032e-05 -4.09059607e+01 -1.06869021e-05  6.83403402e+01 -6.76500109e-06 
 1.22774708e+00  2.74343795e+01 -1.78543394e-05 -4.09059607e+01 -1.09333392e-05  6.83403402e+01 -6.92100019e-06 
 1.25605860e+00  2.74343795e+01 -1.82660556e-05 -4.09059607e+01 -1.11854590e-05  6.83403402e+01 -7.08059658e-06 
 1.28502297e+00  2.74343795e+01 -1.86872659e-05 -4.09059607e+01 -1.14433927e-05  6.83403402e+01 -7.24387323e-06 
 1.31465525e+00  2.74343795e+01 -1.91181892e-05 -4.09059607e+01 -1.17072742e-05  6.83403402e+01 -7.41091499e-06 
 1.34497085e+00  2.74343795e+01 -1.95590495e-05 -4.09059607e+01 -1.19772408e-05  6.83403402e+01 -7.58180868e-06 
 1.37598551e+00  2.74343795e+01 -2.00100759e-05 -4.09059607e+01 -1.22534328e-05  6.83403402e+01 -7.75664314e-06 
 1.40771537e+00  2.74343795e+01 -2.04715028e-05 -4.09059607e+01 -1.25359936e-05  6.83403402e+01 -7.93550924e-06 
 1.44017690e+00  2.74343795e+01 -2.09435702e-05 -4.09059607e+01 -1.28250702e-05  6.83403402e+01 -8.11849994e-06 
 1.47338699e+00  2.74343795e+01 -2.14265232e-05 -4.09059607e+01 -1.31208129e-05  6.83403402e+01 -8.30571035e-06 
 1.50736290e+00  2.74343795e+01 -2.19206131e-05 -4.09059607e+01 -1.34233753e-05  6.83403402e+01 -8.49723779e-06 
 1.54212228e+00  2.74343795e+01 -2.24260965e-05 -4.09059607e+01 -1.37329147e-05  6.83403402e+01 -8.69318180e-06 
 1.57768320e+00  2.74343795e+01 -2.29432362e-05 -4.09059607e+01 -1.40495920e-05  6.83403402e+01 -8.89364422e-06 
 1.61406415e+00  2.74343795e+01 -2.34723010e-05 -4.09059607e+01 -1.43735718e-05  6.83403402e+01 -9.09872926e-06 
 1.65128404e+00  2.74343795e+01 -2.40135660e-05 -4.09059607e+01 -1.47050225e-05  6.83403402e+01 -9.30854349e-06 
 1.68936220e+00  2.74343795e+01 -2.45673123e-05 -4.09059607e+01 -1.50441163e-05  6.83403402e+01 -9.52319599e-06 
 1.72831844e+00  2.74343795e+01 -2.51338279e-05 -4.09059607e+01 -1.53910296e-05  6.83403402e+01 -9.74279832e-06 
 1.76817299e+00  2.74343795e+01 -2.57134072e-05 -4.09059607e+01 -1.57459426e-05  6.83403402e+01 -9.96746462e-06 
 1.80894658e+00  2.74343795e+01 -2.63063514e-05 -4.09059607e+01 -1.61090397e-05  6.83403402e+01 -1.01973117e-05 
 1.85066040e+00  2.74343795e+01 -2.69129688e-05 -4.09059607e+01 -1.64805098e-05  6.83403402e+01 -1.04324589e-05 
 1.89333613e+00  2.74343795e+01 -2.75335745e-05 -4.09059607e+01 -1.68605459e-05  6.83403402e+01 -1.06730286e-05 
 1.93699595e+00  2.74343795e+01 -2.81684913e-05 -4.09059607e+01 -1.72493456e-05  6.83403402e+01 -1.09191458e-05 
 1.98166255e+00  2.74343795e+01 -2.88180491e-05 -4.09059607e+01 -1.76471108e-05  6.83403402e+01 -1.11709383e-05 
 2.02735916e+00  2.74343795e+01 -2.94825856e-05 -4.09059607e+01 -1.80540484e-05  6.83403402e+01 -1.14285371e-05 
 2.07410951e+00  2.74343795e+01 -3.01624460e-05 -4.09059607e+01 -1.84703699e-05  6.83403402e+01 -1.16920761e-05 
 2.12193792e+00  2.74343795e+01 -3.08579839e-05 -4.09059607e+01 -1.88962917e-05  6.83403402e+01 -1.19616922e-05 
 2.17086923e+00  2.74343795e+01 -3.15695606e-05 -4.09059607e+01 -1.93320350e-05  6.83403402e+01 -1.22375256e-05 
 2.22092889e+00  2.74343795e+01 -3.22975462e-05 -4.09059607e+01 -1.97778265e-05  6.83403402e+01 -1.25197196e-05 
 2.27214291e+00  2.74343795e+01 -3.30423189e-05 -4.09059607e+01 -2.02338979e-05  6.83403402e+01 -1.28084210e-05 
 2.32453791e+00  2.74343795e+01 -3.38042658e-05 -4.09059607e+01 -2.07004861e-05  6.83403402e+01 -1.31037797e-05 
 2.37814113e+00  2.74343795e+01 -3.45837831e-05 -4.09059607e+01 -2.11778337e-05  6.83403402e+01 -1.34059493e-05 
 2.43298042e+00  2.74343795e+01 -3.53812758e-05 -4.09059607e+01 -2.16661888e-05  6.83403402e+01 -1.37150869e-05 
 2.48908429e+00  2.74343795e+01 -3.61971584e-05 -4.09059607e+01 -2.21658053e-05  6.83403402e+01 -1.40313531e-05 
 2.54648190e+00  2.74343795e+01 -3.70318551e-05 -4.09059607e+01 -2.26769428e-05  6.83403402e+01 -1.43549123e-05 
 2.60520309e+00  2.74343795e+01 -3.78857997e-05 -4.09059607e+01 -2.31998670e-05  6.83403402e+01 -1.46859327e-05 
 2.66527837e+00  2.74343795e+01 -3.87594360e-05 -4.09059607e+01 -2.37348496e-05  6.83403402e+01 -1.50245864e-05 
 2.72673897e+00  2.74343795e+01 -3.96532181e-05 -4.09059607e+01 -2.42821688e-05  6.83403402e+01 -1.53710493e-05 
 2.78961683e+00  2.74343795e+01 -4.05676106e-05 -4.09059607e+01 -2.48421091e-05  6.83403402e+01 -1.57255015e-05 
 2.85394464e+00  2.74343795e+01 -4.15030887e-05 -4.09059607e+01 -2.54149614e-05  6.83403402e+01 -1.60881273e-05 
 2.91975583e+00  2.74343795e+01 -4.24601388e-05 -4.09059607e+01 -2.60010236e-05  6.83403402e+01 -1.64591152e-05 
 2.98708461e+00  2.74343795e+01 -4.34392581e-05 -4.09059607e+01 -2.66006001e-05  6.83403402e+01 -1.68386579e-05 
 3.05596598e+00  2.74343795e+01 -4.44409556e-05 -4.09059607e+01 -2.72140028e-05  6.83403402e+01 -1.72269528e-05 
 3.12643573e+00  2.74343795e+01 -4.54657521e-05 -4.09059607e+01 -2.78415504e-05  6.83403402e+01 -1.76242017e-05 
 3.19853049e+00  2.74343795e+01 -4.65141800e-05 -4.09059607e+01 -2.84835690e-05  6.83403402e+01 -1.80306111e-05 
 3.27228774e+00  2.74343795e+01 -4.75867845e-05 -4.09059607e+01 -2.91403924e-05  6.83403402e+01 -1.84463921e-05 
 3.34774581e+00  2.74343795e+01 -4.86841229e-05 -4.09059607e+01 -2.98123620e-05  6.83403402e+01 -1.88717609e-05 
 3.42494392e+00  2.74343795e+01 -4.98067656e-05 -4.09059607e+01 -3.04998270e-05  6.83403402e+01 -1.93069386e-05 
 3.50392221e+00  2.74343795e+01 -5.09552961e-05 -4.09059607e+01 -3.12031447e-05  6.83403402e+01 -1.97521514e-05 
 3.58472171e+00  2.74343795e+01 -5.21303115e-05 -4.09059607e+01 -3.19226808e-05  6.83403402e+01 -2.02076307e-05 
 3.66738442e+00  2.74343795e+01 -5.33324224e-05 -4.09059607e+01 -3.26588092e-05  6.83403402e+01 -2.06736132e-05 
 3.75195331e+00  2.74343795e+01 -5.45622537e-05 -4.09059607e+01 -3.34119125e-05  6.83403402e+01 -2.11503411e-05 
 3.83847234e+00  2.74343795e+01 -5.58204445e-05 -4.09059607e+01 -3.41823822e-05  6.83403402e+01 -2.16380623e-05 
 3.92698648e+00  2.74343795e+01 -5.71076489e-05 -4.09059607e+01 -3.49706187e-05  6.83403402e+01 -2.21370301e-05 
 4.01754173e+00  2.74343795e+01 -5.84245358e-05 -4.09059607e+01 -3.57770317e-05  6.83403402e+01 -2.26475041e-05 
 4.11018515e+00  2.74343795e+01 -5.97717898e-05 -4.09059607e+01 -3.66020404e-05  6.83403402e+01 -2.31697494e-05 
 4.20496491e+00  2.74343795e+01 -6.11501111e-05 -4.09059607e+01 -3.74460736e-05  6.83403402e+01 -2.37040375e-05 
 4.30193027e+00  2.74343795e+01 -6.25602162e-05 -4.09059607e+01 -3.83095699e-05  6.83403402e+01 -2.42506463e-05 
 4.40113162e+00  2.74343795e+01 -6.40028379e-05 -4.09059607e+01 -3.91929783e-05  6.83403402e+01 -2.48098596e-05 
 4.50262052e+00  2.74343795e+01 -6.54787260e-05 -4.09059607e+01 -4.00967578e-05  6.83403402e+01 -2.53819683e-05 
 4.60644974e+00  2.74343795e+01 -6.69886478e-05 -4.09059607e+01 -4.10213782e-05  6.83403402e+01 -2.59672696e-05 
 4.71267322e+00  2.74343795e+01 -6.85333879e-05 -4.09059607e+01 -4.19673201e-05  6.83403402e+01 -2.65660678e-05 
 4.82134619e+00  2.74343795e+01 -7.01137493e-05 -4.09059607e+01 -4.29350751e-05  6.83403402e+01 -2.71786742e-05 
 4.93252513e+00  2.74343795e+01 -7.17305534e-05 -4.09059607e+01 -4.39251464e-05  6.83403402e+01 -2.78054070e-05 
 5.04626783e+00  2.74343795e+01 -7.33846406e-05 -4.09059607e+01 -4.49380484e-05  6.83403402e+01 -2.84465922e-05 
 5.16263340e+00  2.74343795e+01 -7.50768706e-05 -4.09059607e+01 -4.59743076e-05  6.83403402e+01 -2.91025630e-05 
 5.28168234e+00  2.74343795e+01 -7.68081229e-05 -4.09059607e+01 -4.70344627e-05  6.83403402e+01 -2.97736602e-05 
