 frequency       v(L_dB)         v(L_arg)        v(Tmb_dB)       v(Tmb_arg)      v(Ttian_dB)     v(Ttian_arg)   
 1.00000000e+00  2.12856233e+01  7.17179351e-03  2.12171015e+01 -1.02083303e-03  2.12170997e+01 -1.02090736e-03 
 1.02305973e+00  2.12856233e+01  7.00347661e-03  2.12171015e+01 -1.04437317e-03  2.12170997e+01 -1.04444921e-03 
 1.04665121e+00  2.12856233e+01  6.83879987e-03  2.12171015e+01 -1.06845613e-03  2.12170997e+01 -1.06853392e-03 
 1.07078670e+00  2.12856233e+01  6.67767770e-03  2.12171015e+01 -1.09309444e-03  2.12170997e+01 -1.09317403e-03 
 1.09547876e+00  2.12856233e+01  6.52002636e-03  2.12171015e+01 -1.11830090e-03  2.12170997e+01 -1.11838233e-03 
 1.12074020e+00  2.12856233e+01  6.36576391e-03  2.12171015e+01 -1.14408862e-03  2.12170997e+01 -1.14417192e-03 
 1.14658417e+00  2.12856233e+01  6.21481016e-03  2.12171015e+01 -1.17047100e-03  2.12170997e+01 -1.17055621e-03 
 1.17302409e+00  2.12856233e+01  6.06708665e-03  2.12171015e+01 -1.19746174e-03  2.12170997e+01 -1.19754892e-03 
 1.20007371e+00  2.12856233e+01  5.92251660e-03  2.12171015e+01 -1.22507488e-03  2.12170997e+01 -1.22516408e-03 
 1.22774708e+00  2.12856233e+01  5.78102488e-03  2.12171015e+01 -1.25332478e-03  2.12170997e+01 -1.25341603e-03 
 1.25605860e+00  2.12856233e+01  5.64253793e-03  2.12171015e+01 -1.28222611e-03  2.12170997e+01 -1.28231947e-03 
 1.28502297e+00  2.12856233e+01  5.50698378e-03  2.12171015e+01 -1.31179390e-03  2.12170997e+01 -1.31188941e-03 
 1.31465525e+00  2.12856233e+01  5.37429197e-03  2.12171015e+01 -1.34204351e-03  2.12170997e+01 -1.34214122e-03 
 1.34497085e+00  2.12856233e+01  5.24439353e-03  2.12171015e+01 -1.37299067e-03  2.12170997e+01 -1.37309064e-03 
 1.37598551e+00  2.12856233e+01  5.11722094e-03  2.12171015e+01 -1.40465147e-03  2.12170997e+01 -1.40475374e-03 
 1.40771537e+00  2.12856233e+01  4.99270811e-03  2.12171015e+01 -1.43704235e-03  2.12170997e+01 -1.43714698e-03 
 1.44017690e+00  2.12856233e+01  4.87079032e-03  2.12171015e+01 -1.47018016e-03  2.12170997e+01 -1.47028720e-03 
 1.47338699e+00  2.12856233e+01  4.75140419e-03  2.12171015e+01 -1.50408212e-03  2.12170997e+01 -1.50419162e-03 
 1.50736290e+00  2.12856233e+01  4.63448768e-03  2.12171015e+01 -1.53876584e-03  2.12170997e+01 -1.53887788e-03 
 1.54212228e+00  2.12856233e+01  4.51998002e-03  2.12171015e+01 -1.57424937e-03  2.12170997e+01 -1.57436399e-03 
 1.57768320e+00  2.12856233e+01  4.40782169e-03  2.12171015e+01 -1.61055113e-03  2.12170997e+01 -1.61066839e-03 
 1.61406415e+00  2.12856233e+01  4.29795439e-03  2.12171015e+01 -1.64769001e-03  2.12170997e+01 -1.64780997e-03 
 1.65128404e+00  2.12856233e+01  4.19032102e-03  2.12171015e+01 -1.68568529e-03  2.12170997e+01 -1.68580802e-03 
 1.68936220e+00  2.12856233e+01  4.08486563e-03  2.12171015e+01 -1.72455674e-03  2.12170997e+01 -1.72468230e-03 
 1.72831844e+00  2.12856233e+01  3.98153342e-03  2.12171015e+01 -1.76432455e-03  2.12170997e+01 -1.76445301e-03 
 1.76817299e+00  2.12856233e+01  3.88027066e-03  2.12171015e+01 -1.80500940e-03  2.12170997e+01 -1.80514082e-03 
 1.80894658e+00  2.12856233e+01  3.78102474e-03  2.12171015e+01 -1.84663243e-03  2.12170997e+01 -1.84676688e-03 
 1.85066040e+00  2.12856233e+01  3.68374407e-03  2.12171015e+01 -1.88921527e-03  2.12170997e+01 -1.88935282e-03 
 1.89333613e+00  2.12856233e+01  3.58837808e-03  2.12171015e+01 -1.93278007e-03  2.12170997e+01 -1.93292079e-03 
 1.93699595e+00  2.12856233e+01  3.49487720e-03  2.12171015e+01 -1.97734945e-03  2.12170997e+01 -1.97749342e-03 
 1.98166255e+00  2.12856233e+01  3.40319284e-03  2.12171015e+01 -2.02294660e-03  2.12170997e+01 -2.02309388e-03 
 2.02735916e+00  2.12856233e+01  3.31327735e-03  2.12171015e+01 -2.06959520e-03  2.12170997e+01 -2.06974588e-03 
 2.07410951e+00  2.12856233e+01  3.22508398e-03  2.12171015e+01 -2.11731951e-03  2.12170997e+01 -2.11747366e-03 
 2.12193792e+00  2.12856233e+01  3.13856689e-03  2.12171015e+01 -2.16614432e-03  2.12170997e+01 -2.16630203e-03 
 2.17086923e+00  2.12856233e+01  3.05368113e-03  2.12171015e+01 -2.21609502e-03  2.12170997e+01 -2.21625637e-03 
 2.22092889e+00  2.12856233e+01  2.97038256e-03  2.12171015e+01 -2.26719758e-03  2.12170997e+01 -2.26736265e-03 
 2.27214291e+00  2.12856233e+01  2.88862790e-03  2.12171015e+01 -2.31947854e-03  2.12170997e+01 -2.31964742e-03 
 2.32453791e+00  2.12856233e+01  2.80837465e-03  2.12171015e+01 -2.37296509e-03  2.12170997e+01 -2.37313786e-03 
 2.37814113e+00  2.12856233e+01  2.72958109e-03  2.12171015e+01 -2.42768502e-03  2.12170997e+01 -2.42786178e-03 
 2.43298042e+00  2.12856233e+01  2.65220627e-03  2.12171015e+01 -2.48366678e-03  2.12170997e+01 -2.48384762e-03 
 2.48908429e+00  2.12856233e+01  2.57620998e-03  2.12171015e+01 -2.54093947e-03  2.12170997e+01 -2.54112447e-03 
 2.54648190e+00  2.12856233e+01  2.50155272e-03  2.12171015e+01 -2.59953285e-03  2.12170997e+01 -2.59972211e-03 
 2.60520309e+00  2.12856233e+01  2.42819567e-03  2.12171015e+01 -2.65947737e-03  2.12170997e+01 -2.65967100e-03 
 2.66527837e+00  2.12856233e+01  2.35610072e-03  2.12171015e+01 -2.72080420e-03  2.12170997e+01 -2.72100230e-03 
 2.72673897e+00  2.12856233e+01  2.28523039e-03  2.12171015e+01 -2.78354521e-03  2.12170997e+01 -2.78374788e-03 
 2.78961683e+00  2.12856233e+01  2.21554784e-03  2.12171015e+01 -2.84773301e-03  2.12170997e+01 -2.84794035e-03 
 2.85394464e+00  2.12856233e+01  2.14701685e-03  2.12171015e+01 -2.91340097e-03  2.12170997e+01 -2.91361308e-03 
 2.91975583e+00  2.12856233e+01  2.07960181e-03  2.12171015e+01 -2.98058320e-03  2.12170997e+01 -2.98080022e-03 
 2.98708461e+00  2.12856233e+01  2.01326768e-03  2.12171015e+01 -3.04931465e-03  2.12170997e+01 -3.04953666e-03 
 3.05596598e+00  2.12856233e+01  1.94797997e-03  2.12171015e+01 -3.11963102e-03  2.12170997e+01 -3.11985815e-03 
 3.12643573e+00  2.12856233e+01  1.88370476e-03  2.12171015e+01 -3.19156887e-03  2.12170997e+01 -3.19180124e-03 
 3.19853049e+00  2.12856233e+01  1.82040863e-03  2.12171015e+01 -3.26516558e-03  2.12170997e+01 -3.26540331e-03 
 3.27228774e+00  2.12856233e+01  1.75805869e-03  2.12171015e+01 -3.34045942e-03  2.12170997e+01 -3.34070263e-03 
 3.34774581e+00  2.12856233e+01  1.69662252e-03  2.12171015e+01 -3.41748951e-03  2.12170997e+01 -3.41773833e-03 
 3.42494392e+00  2.12856233e+01  1.63606820e-03  2.12171015e+01 -3.49629590e-03  2.12170997e+01 -3.49655045e-03 
 3.50392221e+00  2.12856233e+01  1.57636426e-03  2.12171015e+01 -3.57691953e-03  2.12170997e+01 -3.57717996e-03 
 3.58472171e+00  2.12856233e+01  1.51747965e-03  2.12171015e+01 -3.65940233e-03  2.12170997e+01 -3.65966877e-03 
 3.66738442e+00  2.12856233e+01  1.45938378e-03  2.12171015e+01 -3.74378716e-03  2.12170997e+01 -3.74405974e-03 
 3.75195331e+00  2.12856233e+01  1.40204644e-03  2.12171015e+01 -3.83011788e-03  2.12170997e+01 -3.83039675e-03 
 3.83847234e+00  2.12856233e+01  1.34543784e-03  2.12171015e+01 -3.91843937e-03  2.12170997e+01 -3.91872466e-03 
 3.92698648e+00  2.12856233e+01  1.28952855e-03  2.12171015e+01 -4.00879752e-03  2.12170997e+01 -4.00908939e-03 
 4.01754173e+00  2.12856233e+01  1.23428951e-03  2.12171015e+01 -4.10123931e-03  2.12170997e+01 -4.10153791e-03 
 4.11018515e+00  2.12856233e+01  1.17969202e-03  2.12171015e+01 -4.19581278e-03  2.12170997e+01 -4.19611827e-03 
 4.20496491e+00  2.12856233e+01  1.12570768e-03  2.12171015e+01 -4.29256708e-03  2.12170997e+01 -4.29287962e-03 
 4.30193027e+00  2.12856233e+01  1.07230846e-03  2.12171015e+01 -4.39155252e-03  2.12170997e+01 -4.39187226e-03 
 4.40113162e+00  2.12856233e+01  1.01946658e-03  2.12171015e+01 -4.49282054e-03  2.12170997e+01 -4.49314765e-03 
 4.50262052e+00  2.12856233e+01  9.67154580e-04  2.12171015e+01 -4.59642376e-03  2.12170997e+01 -4.59675842e-03 
 4.60644974e+00  2.12856233e+01  9.15345277e-04  2.12171015e+01 -4.70241605e-03  2.12170997e+01 -4.70275843e-03 
 4.71267322e+00  2.12856233e+01  8.64011740e-04  2.12171015e+01 -4.81085250e-03  2.12170997e+01 -4.81120277e-03 
 4.82134619e+00  2.12856233e+01  8.13127286e-04  2.12171015e+01 -4.92178946e-03  2.12170997e+01 -4.92214780e-03 
 4.93252513e+00  2.12856233e+01  7.62665467e-04  2.12171015e+01 -5.03528459e-03  2.12170997e+01 -5.03565120e-03 
 5.04626783e+00  2.12856233e+01  7.12600056e-04  2.12171015e+01 -5.15139689e-03  2.12170997e+01 -5.15177196e-03 
 5.16263340e+00  2.12856233e+01  6.62905029e-04  2.12171015e+01 -5.27018671e-03  2.12170997e+01 -5.27057042e-03 
 5.28168234e+00  2.12856233e+01  6.13554558e-04  2.12171015e+01 -5.39171579e-03  2.12170997e+01 -5.39210835e-03 
 5.40347650e+00  2.12856233e+01  5.64522991e-04  2.12171015e+01 -5.51604730e-03  2.12170997e+01 -5.51644891e-03 
 5.52807921e+00  2.12856233e+01  5.15784844e-04  2.12171015e+01 -5.64324586e-03  2.12170997e+01 -5.64365674e-03 
 5.65555523e+00  2.12856233e+01  4.67314784e-04  2.12171015e+01 -5.77337759e-03  2.12170997e+01 -5.77379793e-03 
 5.78597080e+00  2.12856233e+01  4.19087618e-04  2.12171015e+01 -5.90651011e-03  2.12170997e+01 -5.90694015e-03 
 5.91939372e+00  2.12856233e+01  3.71078279e-04  2.12171015e+01 -6.04271264e-03  2.12170997e+01 -6.04315260e-03 
 6.05589334e+00  2.12856233e+01  3.23261814e-04  2.12171014e+01 -6.18205596e-03  2.12170997e+01 -6.18250606e-03 
 6.19554061e+00  2.12856233e+01  2.75613369e-04  2.12171014e+01 -6.32461250e-03  2.12170997e+01 -6.32507298e-03 
 6.33840810e+00  2.12856233e+01  2.28108179e-04  2.12171014e+01 -6.47045635e-03  2.12170997e+01 -6.47092745e-03 
 6.48457008e+00  2.12856233e+01  1.80721551e-04  2.12171014e+01 -6.61966333e-03  2.12170997e+01 -6.62014529e-03 
 6.63410251e+00  2.12856233e+01  1.33428856e-04  2.12171014e+01 -6.77231097e-03  2.12170997e+01 -6.77280405e-03 
 6.78708313e+00  2.12856233e+01  8.62055133e-05  2.12171014e+01 -6.92847863e-03  2.12170997e+01 -6.92898308e-03 
 6.94359143e+00  2.12856233e+01  3.90269769e-05  2.12171014e+01 -7.08824748e-03  2.12170997e+01 -7.08876356e-03 
 7.10370877e+00  2.12856233e+01 -8.13127469e-06  2.12171014e+01 -7.25170055e-03  2.12170997e+01 -7.25222853e-03 
 7.26751838e+00  2.12856233e+01 -5.52937526e-05  2.12171014e+01 -7.41892280e-03  2.12170997e+01 -7.41946296e-03 
 7.43510539e+00  2.12856233e+01 -1.02484970e-04  2.12171014e+01 -7.59000116e-03  2.12170996e+01 -7.59055377e-03 
 7.60655691e+00  2.12856233e+01 -1.49729456e-04  2.12171014e+01 -7.76502453e-03  2.12170996e+01 -7.76558989e-03 
 7.78196206e+00  2.12856233e+01 -1.97051766e-04  2.12171014e+01 -7.94408390e-03  2.12170996e+01 -7.94466229e-03 
 7.96141200e+00  2.12856233e+01 -2.44476497e-04  2.12171014e+01 -8.12727232e-03  2.12170996e+01 -8.12786405e-03 
 8.14500001e+00  2.12856233e+01 -2.92028298e-04  2.12171014e+01 -8.31468503e-03  2.12170996e+01 -8.31529040e-03 
 8.33282151e+00  2.12856233e+01 -3.39731886e-04  2.12171014e+01 -8.50641941e-03  2.12170996e+01 -8.50703875e-03 
 8.52497412e+00  2.12856233e+01 -3.87612054e-04  2.12171014e+01 -8.70257514e-03  2.12170996e+01 -8.70320876e-03 
 8.72155772e+00  2.12856233e+01 -4.35693690e-04  2.12171014e+01 -8.90325417e-03  2.12170996e+01 -8.90390240e-03 
 8.92267449e+00  2.12856233e+01 -4.84001784e-04  2.12171014e+01 -9.10856081e-03  2.12170996e+01 -9.10922398e-03 
 9.12842895e+00  2.12856233e+01 -5.32561446e-04  2.12171014e+01 -9.31860175e-03  2.12170996e+01 -9.31928022e-03 
 9.33892805e+00  2.12856233e+01 -5.81397914e-04  2.12171014e+01 -9.53348619e-03  2.12170996e+01 -9.53418031e-03 
 9.55428121e+00  2.12856233e+01 -6.30536574e-04  2.12171014e+01 -9.75332580e-03  2.12170996e+01 -9.75403592e-03 
 9.77460036e+00  2.12856233e+01 -6.80002964e-04  2.12171014e+01 -9.97823486e-03  2.12170996e+01 -9.97896135e-03 
 1.00000000e+01  2.12856233e+01 -7.29822796e-04  2.12171014e+01 -1.02083303e-02  2.12170996e+01 -1.02090735e-02 
 1.02305973e+01  2.12856233e+01 -7.80021966e-04  2.12171014e+01 -1.04437316e-02  2.12170996e+01 -1.04444920e-02 
 1.04665121e+01  2.12856233e+01 -8.30626563e-04  2.12171014e+01 -1.06845612e-02  2.12170996e+01 -1.06853391e-02 
 1.07078670e+01  2.12856233e+01 -8.81662892e-04  2.12171013e+01 -1.09309443e-02  2.12170996e+01 -1.09317402e-02 
 1.09547876e+01  2.12856233e+01 -9.33157479e-04  2.12171013e+01 -1.11830089e-02  2.12170996e+01 -1.11838231e-02 
 1.12074020e+01  2.12856233e+01 -9.85137088e-04  2.12171013e+01 -1.14408861e-02  2.12170996e+01 -1.14417191e-02 
 1.14658417e+01  2.12856233e+01 -1.03762874e-03  2.12171013e+01 -1.17047098e-02  2.12170996e+01 -1.17055620e-02 
 1.17302409e+01  2.12856233e+01 -1.09065971e-03  2.12171013e+01 -1.19746173e-02  2.12170995e+01 -1.19754891e-02 
 1.20007371e+01  2.12856233e+01 -1.14425757e-03  2.12171013e+01 -1.22507487e-02  2.12170995e+01 -1.22516406e-02 
 1.22774708e+01  2.12856233e+01 -1.19845018e-03  2.12171013e+01 -1.25332476e-02  2.12170995e+01 -1.25341602e-02 
 1.25605860e+01  2.12856233e+01 -1.25326570e-03  2.12171013e+01 -1.28222609e-02  2.12170995e+01 -1.28231945e-02 
 1.28502297e+01  2.12856233e+01 -1.30873262e-03  2.12171013e+01 -1.31179388e-02  2.12170995e+01 -1.31188939e-02 
 1.31465525e+01  2.12856233e+01 -1.36487978e-03  2.12171013e+01 -1.34204349e-02  2.12170995e+01 -1.34214120e-02 
 1.34497085e+01  2.12856233e+01 -1.42173636e-03  2.12171013e+01 -1.37299065e-02  2.12170995e+01 -1.37309061e-02 
 1.37598551e+01  2.12856233e+01 -1.47933190e-03  2.12171013e+01 -1.40465144e-02  2.12170995e+01 -1.40475371e-02 
 1.40771537e+01  2.12856233e+01 -1.53769635e-03  2.12171012e+01 -1.43704232e-02  2.12170995e+01 -1.43714695e-02 
 1.44017690e+01  2.12856233e+01 -1.59686004e-03  2.12171012e+01 -1.47018013e-02  2.12170995e+01 -1.47028717e-02 
 1.47338699e+01  2.12856233e+01 -1.65685373e-03  2.12171012e+01 -1.50408209e-02  2.12170994e+01 -1.50419159e-02 
 1.50736290e+01  2.12856233e+01 -1.71770859e-03  2.12171012e+01 -1.53876581e-02  2.12170994e+01 -1.53887785e-02 
 1.54212228e+01  2.12856233e+01 -1.77945625e-03  2.12171012e+01 -1.57424933e-02  2.12170994e+01 -1.57436395e-02 
 1.57768320e+01  2.12856233e+01 -1.84212882e-03  2.12171012e+01 -1.61055110e-02  2.12170994e+01 -1.61066836e-02 
 1.61406415e+01  2.12856233e+01 -1.90575886e-03  2.12171012e+01 -1.64768997e-02  2.12170994e+01 -1.64780993e-02 
 1.65128404e+01  2.12856233e+01 -1.97037945e-03  2.12171011e+01 -1.68568525e-02  2.12170994e+01 -1.68580798e-02 
 1.68936220e+01  2.12856233e+01 -2.03602417e-03  2.12171011e+01 -1.72455670e-02  2.12170994e+01 -1.72468226e-02 
 1.72831844e+01  2.12856233e+01 -2.10272715e-03  2.12171011e+01 -1.76432450e-02  2.12170993e+01 -1.76445296e-02 
 1.76817299e+01  2.12856233e+01 -2.17052305e-03  2.12171011e+01 -1.80500935e-02  2.12170993e+01 -1.80514077e-02 
 1.80894658e+01  2.12856233e+01 -2.23944712e-03  2.12171011e+01 -1.84663237e-02  2.12170993e+01 -1.84676682e-02 
 1.85066040e+01  2.12856233e+01 -2.30953517e-03  2.12171011e+01 -1.88921522e-02  2.12170993e+01 -1.88935277e-02 
 1.89333613e+01  2.12856233e+01 -2.38082364e-03  2.12171010e+01 -1.93278000e-02  2.12170993e+01 -1.93292073e-02 
 1.93699595e+01  2.12856233e+01 -2.45334958e-03  2.12171010e+01 -1.97734939e-02  2.12170992e+01 -1.97749335e-02 
 1.98166255e+01  2.12856233e+01 -2.52715069e-03  2.12171010e+01 -2.02294653e-02  2.12170992e+01 -2.02309381e-02 
 2.02735916e+01  2.12856233e+01 -2.60226532e-03  2.12171010e+01 -2.06959512e-02  2.12170992e+01 -2.06974581e-02 
 2.07410951e+01  2.12856233e+01 -2.67873252e-03  2.12171009e+01 -2.11731942e-02  2.12170992e+01 -2.11747358e-02 
 2.12193792e+01  2.12856233e+01 -2.75659203e-03  2.12171009e+01 -2.16614423e-02  2.12170991e+01 -2.16630195e-02 
 2.17086923e+01  2.12856233e+01 -2.83588433e-03  2.12171009e+01 -2.21609493e-02  2.12170991e+01 -2.21625628e-02 
 2.22092889e+01  2.12856233e+01 -2.91665062e-03  2.12171009e+01 -2.26719748e-02  2.12170991e+01 -2.26736255e-02 
 2.27214291e+01  2.12856233e+01 -2.99893288e-03  2.12171008e+01 -2.31947843e-02  2.12170991e+01 -2.31964731e-02 
 2.32453791e+01  2.12856233e+01 -3.08277388e-03  2.12171008e+01 -2.37296497e-02  2.12170990e+01 -2.37313774e-02 
 2.37814113e+01  2.12856233e+01 -3.16821721e-03  2.12171008e+01 -2.42768490e-02  2.12170990e+01 -2.42786165e-02 
 2.43298042e+01  2.12856233e+01 -3.25530726e-03  2.12171007e+01 -2.48366665e-02  2.12170990e+01 -2.48384748e-02 
 2.48908429e+01  2.12856233e+01 -3.34408931e-03  2.12171007e+01 -2.54093933e-02  2.12170989e+01 -2.54112433e-02 
 2.54648190e+01  2.12856233e+01 -3.43460951e-03  2.12171007e+01 -2.59953269e-02  2.12170989e+01 -2.59972196e-02 
 2.60520309e+01  2.12856233e+01 -3.52691489e-03  2.12171006e+01 -2.65947721e-02  2.12170989e+01 -2.65967084e-02 
 2.66527837e+01  2.12856233e+01 -3.62105344e-03  2.12171006e+01 -2.72080403e-02  2.12170988e+01 -2.72100212e-02 
 2.72673897e+01  2.12856233e+01 -3.71707409e-03  2.12171005e+01 -2.78354502e-02  2.12170988e+01 -2.78374769e-02 
 2.78961683e+01  2.12856233e+01 -3.81502675e-03  2.12171005e+01 -2.84773281e-02  2.12170987e+01 -2.84794015e-02 
 2.85394464e+01  2.12856233e+01 -3.91496233e-03  2.12171005e+01 -2.91340075e-02  2.12170987e+01 -2.91361287e-02 
 2.91975583e+01  2.12856233e+01 -4.01693277e-03  2.12171004e+01 -2.98058297e-02  2.12170986e+01 -2.98079998e-02 
 2.98708461e+01  2.12856233e+01 -4.12099107e-03  2.12171004e+01 -3.04931440e-02  2.12170986e+01 -3.04953642e-02 
 3.05596598e+01  2.12856233e+01 -4.22719132e-03  2.12171003e+01 -3.11963075e-02  2.12170985e+01 -3.11985789e-02 
 3.12643573e+01  2.12856233e+01 -4.33558872e-03  2.12171002e+01 -3.19156858e-02  2.12170985e+01 -3.19180096e-02 
 3.19853049e+01  2.12856233e+01 -4.44623961e-03  2.12171002e+01 -3.26516528e-02  2.12170984e+01 -3.26540301e-02 
 3.27228774e+01  2.12856233e+01 -4.55920150e-03  2.12171001e+01 -3.34045909e-02  2.12170984e+01 -3.34070231e-02 
 3.34774581e+01  2.12856233e+01 -4.67453311e-03  2.12171001e+01 -3.41748916e-02  2.12170983e+01 -3.41773799e-02 
 3.42494392e+01  2.12856233e+01 -4.79229437e-03  2.12171000e+01 -3.49629552e-02  2.12170982e+01 -3.49655008e-02 
 3.50392221e+01  2.12856233e+01 -4.91254651e-03  2.12170999e+01 -3.57691914e-02  2.12170982e+01 -3.57717957e-02 
 3.58472171e+01  2.12856233e+01 -5.03535202e-03  2.12170999e+01 -3.65940191e-02  2.12170981e+01 -3.65966834e-02 
 3.66738442e+01  2.12856233e+01 -5.16077473e-03  2.12170998e+01 -3.74378670e-02  2.12170980e+01 -3.74405928e-02 
 3.75195331e+01  2.12856233e+01 -5.28887983e-03  2.12170997e+01 -3.83011739e-02  2.12170979e+01 -3.83039626e-02 
 3.83847234e+01  2.12856233e+01 -5.41973391e-03  2.12170996e+01 -3.91843884e-02  2.12170978e+01 -3.91872414e-02 
 3.92698648e+01  2.12856233e+01 -5.55340498e-03  2.12170995e+01 -4.00879696e-02  2.12170978e+01 -4.00908883e-02 
 4.01754173e+01  2.12856233e+01 -5.68996251e-03  2.12170994e+01 -4.10123870e-02  2.12170977e+01 -4.10153731e-02 
 4.11018515e+01  2.12856233e+01 -5.82947750e-03  2.12170993e+01 -4.19581213e-02  2.12170976e+01 -4.19611762e-02 
 4.20496491e+01  2.12856232e+01 -5.97202244e-03  2.12170992e+01 -4.29256640e-02  2.12170975e+01 -4.29287893e-02 
 4.30193027e+01  2.12856232e+01 -6.11767144e-03  2.12170991e+01 -4.39155178e-02  2.12170974e+01 -4.39187153e-02 
 4.40113162e+01  2.12856232e+01 -6.26650019e-03  2.12170990e+01 -4.49281975e-02  2.12170972e+01 -4.49314686e-02 
 4.50262052e+01  2.12856232e+01 -6.41858605e-03  2.12170989e+01 -4.59642292e-02  2.12170971e+01 -4.59675758e-02 
 4.60644974e+01  2.12856232e+01 -6.57400807e-03  2.12170988e+01 -4.70241515e-02  2.12170970e+01 -4.70275752e-02 
 4.71267322e+01  2.12856232e+01 -6.73284703e-03  2.12170987e+01 -4.81085153e-02  2.12170969e+01 -4.81120180e-02 
 4.82134619e+01  2.12856232e+01 -6.89518549e-03  2.12170985e+01 -4.92178842e-02  2.12170968e+01 -4.92214677e-02 
 4.93252513e+01  2.12856232e+01 -7.06110783e-03  2.12170984e+01 -5.03528348e-02  2.12170966e+01 -5.03565009e-02 
 5.04626783e+01  2.12856232e+01 -7.23070029e-03  2.12170982e+01 -5.15139570e-02  2.12170965e+01 -5.15177077e-02 
 5.16263340e+01  2.12856232e+01 -7.40405102e-03  2.12170981e+01 -5.27018544e-02  2.12170963e+01 -5.27056915e-02 
 5.28168234e+01  2.12856232e+01 -7.58125012e-03  2.12170979e+01 -5.39171443e-02  2.12170962e+01 -5.39210699e-02 
