 frequency       v(amag_db)      v(aarg)        
 1.00000000e+00 -3.58925931e+00 -2.73468900e-04 
 1.02305973e+00 -3.58925931e+00 -2.79775019e-04 
 1.04665121e+00 -3.58925931e+00 -2.86226555e-04 
 1.07078670e+00 -3.58925931e+00 -2.92826862e-04 
 1.09547876e+00 -3.58925931e+00 -2.99579370e-04 
 1.12074020e+00 -3.58925931e+00 -3.06487589e-04 
 1.14658417e+00 -3.58925931e+00 -3.13555110e-04 
 1.17302409e+00 -3.58925931e+00 -3.20785607e-04 
 1.20007371e+00 -3.58925931e+00 -3.28182836e-04 
 1.22774708e+00 -3.58925931e+00 -3.35750644e-04 
 1.25605860e+00 -3.58925931e+00 -3.43492963e-04 
 1.28502297e+00 -3.58925931e+00 -3.51413818e-04 
 1.31465525e+00 -3.58925931e+00 -3.59517325e-04 
 1.34497085e+00 -3.58925931e+00 -3.67807698e-04 
 1.37598551e+00 -3.58925931e+00 -3.76289244e-04 
 1.40771537e+00 -3.58925931e+00 -3.84966372e-04 
 1.44017690e+00 -3.58925931e+00 -3.93843593e-04 
 1.47338699e+00 -3.58925931e+00 -4.02925519e-04 
 1.50736290e+00 -3.58925931e+00 -4.12216873e-04 
 1.54212228e+00 -3.58925931e+00 -4.21722483e-04 
 1.57768320e+00 -3.58925931e+00 -4.31447289e-04 
 1.61406415e+00 -3.58925931e+00 -4.41396347e-04 
 1.65128404e+00 -3.58925931e+00 -4.51574828e-04 
 1.68936220e+00 -3.58925931e+00 -4.61988022e-04 
 1.72831844e+00 -3.58925931e+00 -4.72641341e-04 
 1.76817299e+00 -3.58925931e+00 -4.83540322e-04 
 1.80894658e+00 -3.58925931e+00 -4.94690631e-04 
 1.85066040e+00 -3.58925931e+00 -5.06098064e-04 
 1.89333613e+00 -3.58925931e+00 -5.17768548e-04 
 1.93699595e+00 -3.58925931e+00 -5.29708151e-04 
 1.98166255e+00 -3.58925931e+00 -5.41923078e-04 
 2.02735916e+00 -3.58925931e+00 -5.54419678e-04 
 2.07410951e+00 -3.58925931e+00 -5.67204446e-04 
 2.12193792e+00 -3.58925931e+00 -5.80284027e-04 
 2.17086923e+00 -3.58925931e+00 -5.93665220e-04 
 2.22092889e+00 -3.58925931e+00 -6.07354979e-04 
 2.27214291e+00 -3.58925931e+00 -6.21360421e-04 
 2.32453791e+00 -3.58925931e+00 -6.35688825e-04 
 2.37814113e+00 -3.58925931e+00 -6.50347637e-04 
 2.43298042e+00 -3.58925931e+00 -6.65344478e-04 
 2.48908429e+00 -3.58925931e+00 -6.80687142e-04 
 2.54648190e+00 -3.58925931e+00 -6.96383604e-04 
 2.60520309e+00 -3.58925931e+00 -7.12442021e-04 
 2.66527837e+00 -3.58925931e+00 -7.28870742e-04 
 2.72673897e+00 -3.58925931e+00 -7.45678304e-04 
 2.78961683e+00 -3.58925931e+00 -7.62873444e-04 
 2.85394464e+00 -3.58925931e+00 -7.80465100e-04 
 2.91975583e+00 -3.58925931e+00 -7.98462414e-04 
 2.98708461e+00 -3.58925931e+00 -8.16874742e-04 
 3.05596598e+00 -3.58925931e+00 -8.35711653e-04 
 3.12643573e+00 -3.58925931e+00 -8.54982938e-04 
 3.19853049e+00 -3.58925931e+00 -8.74698614e-04 
 3.27228774e+00 -3.58925931e+00 -8.94868927e-04 
 3.34774581e+00 -3.58925931e+00 -9.15504362e-04 
 3.42494392e+00 -3.58925931e+00 -9.36615646e-04 
 3.50392221e+00 -3.58925931e+00 -9.58213749e-04 
 3.58472171e+00 -3.58925931e+00 -9.80309900e-04 
 3.66738442e+00 -3.58925931e+00 -1.00291558e-03 
 3.75195331e+00 -3.58925931e+00 -1.02604254e-03 
 3.83847234e+00 -3.58925931e+00 -1.04970281e-03 
 3.92698648e+00 -3.58925931e+00 -1.07390867e-03 
 4.01754173e+00 -3.58925931e+00 -1.09867271e-03 
 4.11018515e+00 -3.58925931e+00 -1.12400781e-03 
 4.20496491e+00 -3.58925931e+00 -1.14992713e-03 
 4.30193027e+00 -3.58925931e+00 -1.17644414e-03 
 4.40113162e+00 -3.58925931e+00 -1.20357262e-03 
 4.50262052e+00 -3.58925931e+00 -1.23132668e-03 
 4.60644974e+00 -3.58925931e+00 -1.25972074e-03 
 4.71267322e+00 -3.58925931e+00 -1.28876956e-03 
 4.82134619e+00 -3.58925931e+00 -1.31848824e-03 
 4.93252513e+00 -3.58925931e+00 -1.34889222e-03 
 5.04626783e+00 -3.58925931e+00 -1.37999731e-03 
 5.16263340e+00 -3.58925931e+00 -1.41181967e-03 
 5.28168234e+00 -3.58925931e+00 -1.44437586e-03 
 5.40347650e+00 -3.58925931e+00 -1.47768277e-03 
 5.52807921e+00 -3.58925931e+00 -1.51175774e-03 
 5.65555523e+00 -3.58925931e+00 -1.54661846e-03 
 5.78597080e+00 -3.58925931e+00 -1.58228307e-03 
 5.91939372e+00 -3.58925931e+00 -1.61877009e-03 
 6.05589334e+00 -3.58925931e+00 -1.65609849e-03 
 6.19554061e+00 -3.58925931e+00 -1.69428767e-03 
 6.33840810e+00 -3.58925931e+00 -1.73335749e-03 
 6.48457008e+00 -3.58925931e+00 -1.77332824e-03 
 6.63410251e+00 -3.58925931e+00 -1.81422071e-03 
 6.78708313e+00 -3.58925931e+00 -1.85605615e-03 
 6.94359143e+00 -3.58925931e+00 -1.89885631e-03 
 7.10370877e+00 -3.58925931e+00 -1.94264342e-03 
 7.26751838e+00 -3.58925931e+00 -1.98744025e-03 
 7.43510539e+00 -3.58925931e+00 -2.03327009e-03 
 7.60655691e+00 -3.58925931e+00 -2.08015675e-03 
 7.78196206e+00 -3.58925931e+00 -2.12812460e-03 
 7.96141200e+00 -3.58925931e+00 -2.17719858e-03 
 8.14500001e+00 -3.58925931e+00 -2.22740419e-03 
 8.33282151e+00 -3.58925931e+00 -2.27876753e-03 
 8.52497412e+00 -3.58925931e+00 -2.33131529e-03 
 8.72155772e+00 -3.58925931e+00 -2.38507479e-03 
 8.92267449e+00 -3.58925931e+00 -2.44007397e-03 
 9.12842895e+00 -3.58925931e+00 -2.49634142e-03 
 9.33892805e+00 -3.58925931e+00 -2.55390638e-03 
 9.55428121e+00 -3.58925931e+00 -2.61279877e-03 
 9.77460036e+00 -3.58925931e+00 -2.67304920e-03 
 1.00000000e+01 -3.58925931e+00 -2.73468899e-03 
 1.02305973e+01 -3.58925931e+00 -2.79775018e-03 
 1.04665121e+01 -3.58925931e+00 -2.86226555e-03 
 1.07078670e+01 -3.58925931e+00 -2.92826862e-03 
 1.09547876e+01 -3.58925931e+00 -2.99579370e-03 
 1.12074020e+01 -3.58925931e+00 -3.06487589e-03 
 1.14658417e+01 -3.58925931e+00 -3.13555110e-03 
 1.17302409e+01 -3.58925931e+00 -3.20785607e-03 
 1.20007371e+01 -3.58925931e+00 -3.28182836e-03 
 1.22774708e+01 -3.58925931e+00 -3.35750644e-03 
 1.25605860e+01 -3.58925931e+00 -3.43492963e-03 
 1.28502297e+01 -3.58925931e+00 -3.51413818e-03 
 1.31465525e+01 -3.58925931e+00 -3.59517325e-03 
 1.34497085e+01 -3.58925931e+00 -3.67807698e-03 
 1.37598551e+01 -3.58925931e+00 -3.76289244e-03 
 1.40771537e+01 -3.58925931e+00 -3.84966372e-03 
 1.44017690e+01 -3.58925931e+00 -3.93843593e-03 
 1.47338699e+01 -3.58925931e+00 -4.02925520e-03 
 1.50736290e+01 -3.58925931e+00 -4.12216873e-03 
 1.54212228e+01 -3.58925931e+00 -4.21722483e-03 
 1.57768320e+01 -3.58925931e+00 -4.31447290e-03 
 1.61406415e+01 -3.58925931e+00 -4.41396348e-03 
 1.65128404e+01 -3.58925931e+00 -4.51574828e-03 
 1.68936220e+01 -3.58925931e+00 -4.61988022e-03 
 1.72831844e+01 -3.58925931e+00 -4.72641341e-03 
 1.76817299e+01 -3.58925931e+00 -4.83540322e-03 
 1.80894658e+01 -3.58925931e+00 -4.94690632e-03 
 1.85066040e+01 -3.58925931e+00 -5.06098064e-03 
 1.89333613e+01 -3.58925931e+00 -5.17768548e-03 
 1.93699595e+01 -3.58925931e+00 -5.29708151e-03 
 1.98166255e+01 -3.58925931e+00 -5.41923079e-03 
 2.02735916e+01 -3.58925931e+00 -5.54419678e-03 
 2.07410951e+01 -3.58925931e+00 -5.67204446e-03 
 2.12193792e+01 -3.58925931e+00 -5.80284027e-03 
 2.17086923e+01 -3.58925931e+00 -5.93665220e-03 
 2.22092889e+01 -3.58925931e+00 -6.07354980e-03 
 2.27214291e+01 -3.58925931e+00 -6.21360422e-03 
 2.32453791e+01 -3.58925931e+00 -6.35688825e-03 
 2.37814113e+01 -3.58925931e+00 -6.50347637e-03 
 2.43298042e+01 -3.58925931e+00 -6.65344479e-03 
 2.48908429e+01 -3.58925931e+00 -6.80687143e-03 
 2.54648190e+01 -3.58925931e+00 -6.96383604e-03 
 2.60520309e+01 -3.58925931e+00 -7.12442021e-03 
 2.66527837e+01 -3.58925931e+00 -7.28870742e-03 
 2.72673897e+01 -3.58925931e+00 -7.45678305e-03 
 2.78961683e+01 -3.58925931e+00 -7.62873445e-03 
 2.85394464e+01 -3.58925931e+00 -7.80465100e-03 
 2.91975583e+01 -3.58925931e+00 -7.98462415e-03 
 2.98708461e+01 -3.58925931e+00 -8.16874743e-03 
 3.05596598e+01 -3.58925931e+00 -8.35711654e-03 
 3.12643573e+01 -3.58925931e+00 -8.54982939e-03 
 3.19853049e+01 -3.58925931e+00 -8.74698614e-03 
 3.27228774e+01 -3.58925931e+00 -8.94868928e-03 
 3.34774581e+01 -3.58925931e+00 -9.15504365e-03 
 3.42494392e+01 -3.58925931e+00 -9.36615648e-03 
 3.50392221e+01 -3.58925931e+00 -9.58213752e-03 
 3.58472171e+01 -3.58925931e+00 -9.80309903e-03 
 3.66738442e+01 -3.58925931e+00 -1.00291558e-02 
 3.75195331e+01 -3.58925931e+00 -1.02604255e-02 
 3.83847234e+01 -3.58925931e+00 -1.04970281e-02 
 3.92698648e+01 -3.58925931e+00 -1.07390867e-02 
 4.01754173e+01 -3.58925931e+00 -1.09867272e-02 
 4.11018515e+01 -3.58925931e+00 -1.12400781e-02 
 4.20496491e+01 -3.58925931e+00 -1.14992713e-02 
 4.30193027e+01 -3.58925931e+00 -1.17644414e-02 
 4.40113162e+01 -3.58925931e+00 -1.20357262e-02 
 4.50262052e+01 -3.58925931e+00 -1.23132668e-02 
 4.60644974e+01 -3.58925931e+00 -1.25972074e-02 
 4.71267322e+01 -3.58925931e+00 -1.28876956e-02 
 4.82134619e+01 -3.58925932e+00 -1.31848824e-02 
 4.93252513e+01 -3.58925932e+00 -1.34889222e-02 
 5.04626783e+01 -3.58925931e+00 -1.37999731e-02 
 5.16263340e+01 -3.58925932e+00 -1.41181968e-02 
 5.28168234e+01 -3.58925932e+00 -1.44437586e-02 
 5.40347650e+01 -3.58925932e+00 -1.47768278e-02 
 5.52807921e+01 -3.58925932e+00 -1.51175775e-02 
 5.65555523e+01 -3.58925932e+00 -1.54661847e-02 
 5.78597080e+01 -3.58925932e+00 -1.58228308e-02 
 5.91939372e+01 -3.58925932e+00 -1.61877010e-02 
 6.05589334e+01 -3.58925932e+00 -1.65609850e-02 
 6.19554061e+01 -3.58925932e+00 -1.69428768e-02 
 6.33840810e+01 -3.58925932e+00 -1.73335750e-02 
 6.48457008e+01 -3.58925932e+00 -1.77332825e-02 
 6.63410251e+01 -3.58925932e+00 -1.81422072e-02 
 6.78708313e+01 -3.58925932e+00 -1.85605617e-02 
 6.94359143e+01 -3.58925932e+00 -1.89885632e-02 
 7.10370877e+01 -3.58925932e+00 -1.94264343e-02 
 7.26751838e+01 -3.58925932e+00 -1.98744027e-02 
 7.43510539e+01 -3.58925933e+00 -2.03327011e-02 
 7.60655691e+01 -3.58925933e+00 -2.08015677e-02 
 7.78196206e+01 -3.58925933e+00 -2.12812462e-02 
 7.96141200e+01 -3.58925933e+00 -2.17719860e-02 
 8.14500001e+01 -3.58925933e+00 -2.22740421e-02 
 8.33282151e+01 -3.58925933e+00 -2.27876755e-02 
 8.52497412e+01 -3.58925933e+00 -2.33131532e-02 
 8.72155772e+01 -3.58925934e+00 -2.38507482e-02 
 8.92267449e+01 -3.58925934e+00 -2.44007400e-02 
 9.12842895e+01 -3.58925934e+00 -2.49634145e-02 
 9.33892805e+01 -3.58925934e+00 -2.55390641e-02 
 9.55428121e+01 -3.58925934e+00 -2.61279881e-02 
 9.77460036e+01 -3.58925934e+00 -2.67304924e-02 
 1.00000000e+02 -3.58925934e+00 -2.73468904e-02 
 1.02305973e+02 -3.58925934e+00 -2.79775023e-02 
 1.04665121e+02 -3.58925935e+00 -2.86226560e-02 
 1.07078670e+02 -3.58925935e+00 -2.92826867e-02 
 1.09547876e+02 -3.58925935e+00 -2.99579376e-02 
 1.12074020e+02 -3.58925935e+00 -3.06487595e-02 
 1.14658417e+02 -3.58925935e+00 -3.13555117e-02 
 1.17302409e+02 -3.58925936e+00 -3.20785613e-02 
 1.20007371e+02 -3.58925936e+00 -3.28182844e-02 
 1.22774708e+02 -3.58925936e+00 -3.35750651e-02 
 1.25605860e+02 -3.58925936e+00 -3.43492971e-02 
 1.28502297e+02 -3.58925937e+00 -3.51413827e-02 
 1.31465525e+02 -3.58925937e+00 -3.59517335e-02 
 1.34497085e+02 -3.58925937e+00 -3.67807708e-02 
 1.37598551e+02 -3.58925938e+00 -3.76289255e-02 
 1.40771537e+02 -3.58925938e+00 -3.84966384e-02 
 1.44017690e+02 -3.58925938e+00 -3.93843605e-02 
 1.47338699e+02 -3.58925938e+00 -4.02925533e-02 
 1.50736290e+02 -3.58925939e+00 -4.12216888e-02 
 1.54212228e+02 -3.58925939e+00 -4.21722498e-02 
 1.57768320e+02 -3.58925940e+00 -4.31447306e-02 
 1.61406415e+02 -3.58925940e+00 -4.41396365e-02 
 1.65128404e+02 -3.58925941e+00 -4.51574847e-02 
 1.68936220e+02 -3.58925941e+00 -4.61988042e-02 
 1.72831844e+02 -3.58925941e+00 -4.72641362e-02 
 1.76817299e+02 -3.58925942e+00 -4.83540346e-02 
 1.80894658e+02 -3.58925942e+00 -4.94690656e-02 
 1.85066040e+02 -3.58925943e+00 -5.06098090e-02 
 1.89333613e+02 -3.58925944e+00 -5.17768577e-02 
 1.93699595e+02 -3.58925944e+00 -5.29708182e-02 
 1.98166255e+02 -3.58925945e+00 -5.41923110e-02 
 2.02735916e+02 -3.58925945e+00 -5.54419712e-02 
 2.07410951e+02 -3.58925946e+00 -5.67204483e-02 
 2.12193792e+02 -3.58925947e+00 -5.80284067e-02 
 2.17086923e+02 -3.58925947e+00 -5.93665263e-02 
 2.22092889e+02 -3.58925948e+00 -6.07355025e-02 
 2.27214291e+02 -3.58925949e+00 -6.21360470e-02 
 2.32453791e+02 -3.58925950e+00 -6.35688877e-02 
 2.37814113e+02 -3.58925951e+00 -6.50347694e-02 
 2.43298042e+02 -3.58925952e+00 -6.65344539e-02 
 2.48908429e+02 -3.58925953e+00 -6.80687207e-02 
 2.54648190e+02 -3.58925954e+00 -6.96383673e-02 
 2.60520309e+02 -3.58925955e+00 -7.12442096e-02 
 2.66527837e+02 -3.58925956e+00 -7.28870822e-02 
 2.72673897e+02 -3.58925957e+00 -7.45678390e-02 
 2.78961683e+02 -3.58925958e+00 -7.62873536e-02 
 2.85394464e+02 -3.58925960e+00 -7.80465198e-02 
 2.91975583e+02 -3.58925961e+00 -7.98462520e-02 
 2.98708461e+02 -3.58925962e+00 -8.16874853e-02 
 3.05596598e+02 -3.58925964e+00 -8.35711773e-02 
 3.12643573e+02 -3.58925965e+00 -8.54983066e-02 
 3.19853049e+02 -3.58925967e+00 -8.74698752e-02 
 3.27228774e+02 -3.58925969e+00 -8.94869075e-02 
 3.34774581e+02 -3.58925970e+00 -9.15504521e-02 
 3.42494392e+02 -3.58925972e+00 -9.36615816e-02 
 3.50392221e+02 -3.58925974e+00 -9.58213931e-02 
 3.58472171e+02 -3.58925976e+00 -9.80310094e-02 
 3.66738442e+02 -3.58925978e+00 -1.00291579e-01 
 3.75195331e+02 -3.58925981e+00 -1.02604277e-01 
 3.83847234e+02 -3.58925983e+00 -1.04970305e-01 
 3.92698648e+02 -3.58925985e+00 -1.07390893e-01 
 4.01754173e+02 -3.58925988e+00 -1.09867299e-01 
 4.11018515e+02 -3.58925991e+00 -1.12400810e-01 
 4.20496491e+02 -3.58925994e+00 -1.14992744e-01 
 4.30193027e+02 -3.58925996e+00 -1.17644447e-01 
 4.40113162e+02 -3.58925999e+00 -1.20357298e-01 
 4.50262052e+02 -3.58926003e+00 -1.23132706e-01 
 4.60644974e+02 -3.58926006e+00 -1.25972115e-01 
 4.71267322e+02 -3.58926009e+00 -1.28877000e-01 
 4.82134619e+02 -3.58926013e+00 -1.31848871e-01 
 4.93252513e+02 -3.58926017e+00 -1.34889273e-01 
 5.04626783e+02 -3.58926021e+00 -1.37999785e-01 
 5.16263340e+02 -3.58926025e+00 -1.41182026e-01 
 5.28168234e+02 -3.58926030e+00 -1.44437648e-01 
 5.40347650e+02 -3.58926034e+00 -1.47768344e-01 
 5.52807921e+02 -3.58926039e+00 -1.51175845e-01 
 5.65555523e+02 -3.58926044e+00 -1.54661923e-01 
 5.78597080e+02 -3.58926050e+00 -1.58228388e-01 
 5.91939372e+02 -3.58926055e+00 -1.61877096e-01 
 6.05589334e+02 -3.58926061e+00 -1.65609942e-01 
 6.19554061e+02 -3.58926067e+00 -1.69428867e-01 
 6.33840810e+02 -3.58926073e+00 -1.73335856e-01 
 6.48457008e+02 -3.58926080e+00 -1.77332939e-01 
 6.63410251e+02 -3.58926087e+00 -1.81422194e-01 
 6.78708313e+02 -3.58926094e+00 -1.85605747e-01 
 6.94359143e+02 -3.58926102e+00 -1.89885772e-01 
 7.10370877e+02 -3.58926110e+00 -1.94264493e-01 
 7.26751838e+02 -3.58926118e+00 -1.98744187e-01 
 7.43510539e+02 -3.58926127e+00 -2.03327182e-01 
 7.60655691e+02 -3.58926136e+00 -2.08015860e-01 
 7.78196206e+02 -3.58926146e+00 -2.12812659e-01 
 7.96141200e+02 -3.58926155e+00 -2.17720070e-01 
 8.14500001e+02 -3.58926166e+00 -2.22740647e-01 
 8.33282151e+02 -3.58926177e+00 -2.27876997e-01 
 8.52497412e+02 -3.58926188e+00 -2.33131790e-01 
 8.72155772e+02 -3.58926201e+00 -2.38507759e-01 
 8.92267449e+02 -3.58926213e+00 -2.44007696e-01 
 9.12842895e+02 -3.58926226e+00 -2.49634463e-01 
 9.33892805e+02 -3.58926240e+00 -2.55390981e-01 
 9.55428121e+02 -3.58926254e+00 -2.61280244e-01 
 9.77460036e+02 -3.58926270e+00 -2.67305314e-01 
 1.00000000e+03 -3.58926285e+00 -2.73469321e-01 
 1.02305973e+03 -3.58926302e+00 -2.79775470e-01 
 1.04665121e+03 -3.58926319e+00 -2.86227038e-01 
 1.07078670e+03 -3.58926337e+00 -2.92827379e-01 
 1.09547876e+03 -3.58926356e+00 -2.99579924e-01 
 1.12074020e+03 -3.58926376e+00 -3.06488183e-01 
 1.14658417e+03 -3.58926397e+00 -3.13555746e-01 
 1.17302409e+03 -3.58926419e+00 -3.20786287e-01 
 1.20007371e+03 -3.58926442e+00 -3.28183564e-01 
 1.22774708e+03 -3.58926465e+00 -3.35751423e-01 
 1.25605860e+03 -3.58926490e+00 -3.43493798e-01 
 1.28502297e+03 -3.58926516e+00 -3.51414712e-01 
 1.31465525e+03 -3.58926544e+00 -3.59518283e-01 
 1.34497085e+03 -3.58926572e+00 -3.67808723e-01 
 1.37598551e+03 -3.58926602e+00 -3.76290341e-01 
 1.40771537e+03 -3.58926634e+00 -3.84967548e-01 
 1.44017690e+03 -3.58926666e+00 -3.93844851e-01 
 1.47338699e+03 -3.58926701e+00 -4.02926867e-01 
 1.50736290e+03 -3.58926736e+00 -4.12218316e-01 
 1.54212228e+03 -3.58926774e+00 -4.21724028e-01 
 1.57768320e+03 -3.58926814e+00 -4.31448944e-01 
 1.61406415e+03 -3.58926854e+00 -4.41398119e-01 
 1.65128404e+03 -3.58926898e+00 -4.51576725e-01 
 1.68936220e+03 -3.58926943e+00 -4.61990053e-01 
 1.72831844e+03 -3.58926990e+00 -4.72643516e-01 
 1.76817299e+03 -3.58927040e+00 -4.83542651e-01 
 1.80894658e+03 -3.58927091e+00 -4.94693125e-01 
 1.85066040e+03 -3.58927146e+00 -5.06100734e-01 
 1.89333613e+03 -3.58927202e+00 -5.17771408e-01 
 1.93699595e+03 -3.58927262e+00 -5.29711213e-01 
 1.98166255e+03 -3.58927324e+00 -5.41926357e-01 
 2.02735916e+03 -3.58927389e+00 -5.54423189e-01 
 2.07410951e+03 -3.58927457e+00 -5.67208205e-01 
 2.12193792e+03 -3.58927528e+00 -5.80288052e-01 
 2.17086923e+03 -3.58927602e+00 -5.93669531e-01 
 2.22092889e+03 -3.58927680e+00 -6.07359595e-01 
 2.27214291e+03 -3.58927762e+00 -6.21365364e-01 
 2.32453791e+03 -3.58927847e+00 -6.35694117e-01 
 2.37814113e+03 -3.58927937e+00 -6.50353304e-01 
 2.43298042e+03 -3.58928030e+00 -6.65350546e-01 
 2.48908429e+03 -3.58928128e+00 -6.80693639e-01 
 2.54648190e+03 -3.58928231e+00 -6.96390560e-01 
 2.60520309e+03 -3.58928338e+00 -7.12449471e-01 
 2.66527837e+03 -3.58928451e+00 -7.28878719e-01 
 2.72673897e+03 -3.58928568e+00 -7.45686846e-01 
 2.78961683e+03 -3.58928691e+00 -7.62882591e-01 
 2.85394464e+03 -3.58928820e+00 -7.80474894e-01 
 2.91975583e+03 -3.58928955e+00 -7.98472902e-01 
 2.98708461e+03 -3.58929096e+00 -8.16885972e-01 
 3.05596598e+03 -3.58929244e+00 -8.35723678e-01 
 3.12643573e+03 -3.58929398e+00 -8.54995813e-01 
 3.19853049e+03 -3.58929560e+00 -8.74712401e-01 
 3.27228774e+03 -3.58929730e+00 -8.94883690e-01 
 3.34774581e+03 -3.58929907e+00 -9.15520170e-01 
 3.42494392e+03 -3.58930093e+00 -9.36632573e-01 
 3.50392221e+03 -3.58930287e+00 -9.58231875e-01 
 3.58472171e+03 -3.58930490e+00 -9.80329308e-01 
 3.66738442e+03 -3.58930703e+00 -1.00293636e+00 
 3.75195331e+03 -3.58930926e+00 -1.02606480e+00 
 3.83847234e+03 -3.58931159e+00 -1.04972663e+00 
 3.92698648e+03 -3.58931403e+00 -1.07393419e+00 
 4.01754173e+03 -3.58931659e+00 -1.09870004e+00 
 4.11018515e+03 -3.58931926e+00 -1.12403707e+00 
 4.20496491e+03 -3.58932206e+00 -1.14995845e+00 
 4.30193027e+03 -3.58932499e+00 -1.17647768e+00 
 4.40113162e+03 -3.58932806e+00 -1.20360854e+00 
 4.50262052e+03 -3.58933126e+00 -1.23136514e+00 
 4.60644974e+03 -3.58933463e+00 -1.25976192e+00 
 4.71267322e+03 -3.58933814e+00 -1.28881366e+00 
 4.82134619e+03 -3.58934183e+00 -1.31853546e+00 
 4.93252513e+03 -3.58934568e+00 -1.34894278e+00 
 5.04626783e+03 -3.58934971e+00 -1.38005145e+00 
 5.16263340e+03 -3.58935394e+00 -1.41187765e+00 
 5.28168234e+03 -3.58935836e+00 -1.44443793e+00 
 5.40347650e+03 -3.58936298e+00 -1.47774924e+00 
 5.52807921e+03 -3.58936783e+00 -1.51182891e+00 
 5.65555523e+03 -3.58937290e+00 -1.54669467e+00 
 5.78597080e+03 -3.58937820e+00 -1.58236467e+00 
 5.91939372e+03 -3.58938376e+00 -1.61885747e+00 
 6.05589334e+03 -3.58938958e+00 -1.65619206e+00 
 6.19554061e+03 -3.58939567e+00 -1.69438786e+00 
 6.33840810e+03 -3.58940204e+00 -1.73346477e+00 
 6.48457008e+03 -3.58940871e+00 -1.77344312e+00 
 6.63410251e+03 -3.58941569e+00 -1.81434372e+00 
 6.78708313e+03 -3.58942300e+00 -1.85618787e+00 
 6.94359143e+03 -3.58943066e+00 -1.89899735e+00 
 7.10370877e+03 -3.58943868e+00 -1.94279444e+00 
 7.26751838e+03 -3.58944707e+00 -1.98760196e+00 
 7.43510539e+03 -3.58945585e+00 -2.03344324e+00 
 7.60655691e+03 -3.58946504e+00 -2.08034216e+00 
 7.78196206e+03 -3.58947466e+00 -2.12832313e+00 
 7.96141200e+03 -3.58948474e+00 -2.17741116e+00 
 8.14500001e+03 -3.58949528e+00 -2.22763182e+00 
 8.33282151e+03 -3.58950633e+00 -2.27901127e+00 
 8.52497412e+03 -3.58951789e+00 -2.33157628e+00 
 8.72155772e+03 -3.58953000e+00 -2.38535426e+00 
 8.92267449e+03 -3.58954267e+00 -2.44037321e+00 
 9.12842895e+03 -3.58955594e+00 -2.49666184e+00 
 9.33892805e+03 -3.58956984e+00 -2.55424948e+00 
 9.55428121e+03 -3.58958438e+00 -2.61316615e+00 
 9.77460036e+03 -3.58959961e+00 -2.67344258e+00 
 1.00000000e+04 -3.58961556e+00 -2.73511021e+00 
 1.02305973e+04 -3.58963226e+00 -2.79820121e+00 
 1.04665121e+04 -3.58964975e+00 -2.86274850e+00 
