 frequency       v(Amag_dB)      v(Aarg)        
 1.00000000e+00  2.44049607e+01 -3.05331981e-02 
 1.02305973e+00  2.44049606e+01 -3.12372853e-02 
 1.04665121e+00  2.44049605e+01 -3.19576085e-02 
 1.07078670e+00  2.44049605e+01 -3.26945421e-02 
 1.09547876e+00  2.44049604e+01 -3.34484693e-02 
 1.12074020e+00  2.44049603e+01 -3.42197818e-02 
 1.14658417e+00  2.44049603e+01 -3.50088805e-02 
 1.17302409e+00  2.44049602e+01 -3.58161756e-02 
 1.20007371e+00  2.44049601e+01 -3.66420867e-02 
 1.22774708e+00  2.44049600e+01 -3.74870431e-02 
 1.25605860e+00  2.44049599e+01 -3.83514839e-02 
 1.28502297e+00  2.44049599e+01 -3.92358585e-02 
 1.31465525e+00  2.44049598e+01 -4.01406265e-02 
 1.34497085e+00  2.44049597e+01 -4.10662582e-02 
 1.37598551e+00  2.44049596e+01 -4.20132347e-02 
 1.40771537e+00  2.44049594e+01 -4.29820482e-02 
 1.44017690e+00  2.44049593e+01 -4.39732022e-02 
 1.47338699e+00  2.44049592e+01 -4.49872120e-02 
 1.50736290e+00  2.44049591e+01 -4.60246045e-02 
 1.54212228e+00  2.44049590e+01 -4.70859190e-02 
 1.57768320e+00  2.44049588e+01 -4.81717070e-02 
 1.61406415e+00  2.44049587e+01 -4.92825330e-02 
 1.65128404e+00  2.44049585e+01 -5.04189743e-02 
 1.68936220e+00  2.44049584e+01 -5.15816216e-02 
 1.72831844e+00  2.44049582e+01 -5.27710792e-02 
 1.76817299e+00  2.44049580e+01 -5.39879654e-02 
 1.80894658e+00  2.44049579e+01 -5.52329125e-02 
 1.85066040e+00  2.44049577e+01 -5.65065677e-02 
 1.89333613e+00  2.44049575e+01 -5.78095930e-02 
 1.93699595e+00  2.44049573e+01 -5.91426657e-02 
 1.98166255e+00  2.44049571e+01 -6.05064786e-02 
 2.02735916e+00  2.44049568e+01 -6.19017406e-02 
 2.07410951e+00  2.44049566e+01 -6.33291768e-02 
 2.12193792e+00  2.44049563e+01 -6.47895293e-02 
 2.17086923e+00  2.44049561e+01 -6.62835570e-02 
 2.22092889e+00  2.44049558e+01 -6.78120365e-02 
 2.27214291e+00  2.44049555e+01 -6.93757623e-02 
 2.32453791e+00  2.44049552e+01 -7.09755470e-02 
 2.37814113e+00  2.44049549e+01 -7.26122222e-02 
 2.43298042e+00  2.44049546e+01 -7.42866386e-02 
 2.48908429e+00  2.44049543e+01 -7.59996664e-02 
 2.54648190e+00  2.44049539e+01 -7.77521961e-02 
 2.60520309e+00  2.44049535e+01 -7.95451384e-02 
 2.66527837e+00  2.44049531e+01 -8.13794254e-02 
 2.72673897e+00  2.44049527e+01 -8.32560103e-02 
 2.78961683e+00  2.44049523e+01 -8.51758686e-02 
 2.85394464e+00  2.44049519e+01 -8.71399982e-02 
 2.91975583e+00  2.44049514e+01 -8.91494198e-02 
 2.98708461e+00  2.44049509e+01 -9.12051779e-02 
 3.05596598e+00  2.44049504e+01 -9.33083410e-02 
 3.12643573e+00  2.44049498e+01 -9.54600022e-02 
 3.19853049e+00  2.44049493e+01 -9.76612798e-02 
 3.27228774e+00  2.44049487e+01 -9.99133181e-02 
 3.34774581e+00  2.44049481e+01 -1.02217287e-01 
 3.42494392e+00  2.44049474e+01 -1.04574385e-01 
 3.50392221e+00  2.44049468e+01 -1.06985837e-01 
 3.58472171e+00  2.44049461e+01 -1.09452895e-01 
 3.66738442e+00  2.44049453e+01 -1.11976843e-01 
 3.75195331e+00  2.44049445e+01 -1.14558992e-01 
 3.83847234e+00  2.44049437e+01 -1.17200684e-01 
 3.92698648e+00  2.44049429e+01 -1.19903293e-01 
 4.01754173e+00  2.44049420e+01 -1.22668222e-01 
 4.11018515e+00  2.44049411e+01 -1.25496909e-01 
 4.20496491e+00  2.44049401e+01 -1.28390824e-01 
 4.30193027e+00  2.44049391e+01 -1.31351472e-01 
 4.40113162e+00  2.44049380e+01 -1.34380390e-01 
 4.50262052e+00  2.44049369e+01 -1.37479154e-01 
 4.60644974e+00  2.44049357e+01 -1.40649373e-01 
 4.71267322e+00  2.44049345e+01 -1.43892696e-01 
 4.82134619e+00  2.44049332e+01 -1.47210809e-01 
 4.93252513e+00  2.44049319e+01 -1.50605435e-01 
 5.04626783e+00  2.44049305e+01 -1.54078339e-01 
 5.16263340e+00  2.44049290e+01 -1.57631326e-01 
 5.28168234e+00  2.44049275e+01 -1.61266243e-01 
 5.40347650e+00  2.44049259e+01 -1.64984978e-01 
 5.52807921e+00  2.44049242e+01 -1.68789466e-01 
 5.65555523e+00  2.44049225e+01 -1.72681682e-01 
 5.78597080e+00  2.44049206e+01 -1.76663650e-01 
 5.91939372e+00  2.44049187e+01 -1.80737439e-01 
 6.05589334e+00  2.44049167e+01 -1.84905167e-01 
 6.19554061e+00  2.44049146e+01 -1.89169000e-01 
 6.33840810e+00  2.44049124e+01 -1.93531153e-01 
 6.48457008e+00  2.44049101e+01 -1.97993894e-01 
 6.63410251e+00  2.44049076e+01 -2.02559542e-01 
 6.78708313e+00  2.44049051e+01 -2.07230470e-01 
 6.94359143e+00  2.44049025e+01 -2.12009106e-01 
 7.10370877e+00  2.44048997e+01 -2.16897932e-01 
 7.26751838e+00  2.44048968e+01 -2.21899491e-01 
 7.43510539e+00  2.44048937e+01 -2.27016380e-01 
 7.60655691e+00  2.44048906e+01 -2.32251260e-01 
 7.78196206e+00  2.44048872e+01 -2.37606851e-01 
 7.96141200e+00  2.44048838e+01 -2.43085935e-01 
 8.14500001e+00  2.44048801e+01 -2.48691362e-01 
 8.33282151e+00  2.44048763e+01 -2.54426043e-01 
 8.52497412e+00  2.44048723e+01 -2.60292959e-01 
 8.72155772e+00  2.44048681e+01 -2.66295159e-01 
 8.92267449e+00  2.44048638e+01 -2.72435762e-01 
 9.12842895e+00  2.44048592e+01 -2.78717959e-01 
 9.33892805e+00  2.44048544e+01 -2.85145015e-01 
 9.55428121e+00  2.44048494e+01 -2.91720270e-01 
 9.77460036e+00  2.44048441e+01 -2.98447140e-01 
 1.00000000e+01  2.44048386e+01 -3.05329122e-01 
 1.02305973e+01  2.44048329e+01 -3.12369791e-01 
 1.04665121e+01  2.44048269e+01 -3.19572807e-01 
 1.07078670e+01  2.44048206e+01 -3.26941911e-01 
 1.09547876e+01  2.44048140e+01 -3.34480934e-01 
 1.12074020e+01  2.44048071e+01 -3.42193793e-01 
 1.14658417e+01  2.44047998e+01 -3.50084495e-01 
 1.17302409e+01  2.44047923e+01 -3.58157141e-01 
 1.20007371e+01  2.44047844e+01 -3.66415926e-01 
 1.22774708e+01  2.44047761e+01 -3.74865140e-01 
 1.25605860e+01  2.44047674e+01 -3.83509174e-01 
 1.28502297e+01  2.44047583e+01 -3.92352518e-01 
 1.31465525e+01  2.44047489e+01 -4.01399769e-01 
 1.34497085e+01  2.44047389e+01 -4.10655626e-01 
 1.37598551e+01  2.44047285e+01 -4.20124899e-01 
 1.40771537e+01  2.44047176e+01 -4.29812506e-01 
 1.44017690e+01  2.44047062e+01 -4.39723482e-01 
 1.47338699e+01  2.44046943e+01 -4.49862975e-01 
 1.50736290e+01  2.44046818e+01 -4.60236253e-01 
 1.54212228e+01  2.44046688e+01 -4.70848704e-01 
 1.57768320e+01  2.44046551e+01 -4.81705843e-01 
 1.61406415e+01  2.44046408e+01 -4.92813308e-01 
 1.65128404e+01  2.44046258e+01 -5.04176870e-01 
 1.68936220e+01  2.44046101e+01 -5.15802432e-01 
 1.72831844e+01  2.44045937e+01 -5.27696033e-01 
 1.76817299e+01  2.44045765e+01 -5.39863849e-01 
 1.80894658e+01  2.44045585e+01 -5.52312202e-01 
 1.85066040e+01  2.44045397e+01 -5.65047556e-01 
 1.89333613e+01  2.44045200e+01 -5.78076526e-01 
 1.93699595e+01  2.44044994e+01 -5.91405880e-01 
 1.98166255e+01  2.44044778e+01 -6.05042538e-01 
 2.02735916e+01  2.44044553e+01 -6.18993583e-01 
 2.07410951e+01  2.44044316e+01 -6.33266259e-01 
 2.12193792e+01  2.44044069e+01 -6.47867978e-01 
 2.17086923e+01  2.44043810e+01 -6.62806322e-01 
 2.22092889e+01  2.44043539e+01 -6.78089047e-01 
 2.27214291e+01  2.44043256e+01 -6.93724088e-01 
 2.32453791e+01  2.44042959e+01 -7.09719561e-01 
 2.37814113e+01  2.44042648e+01 -7.26083771e-01 
 2.43298042e+01  2.44042323e+01 -7.42825214e-01 
 2.48908429e+01  2.44041983e+01 -7.59952578e-01 
 2.54648190e+01  2.44041626e+01 -7.77474754e-01 
 2.60520309e+01  2.44041253e+01 -7.95400836e-01 
 2.66527837e+01  2.44040863e+01 -8.13740128e-01 
 2.72673897e+01  2.44040455e+01 -8.32502146e-01 
 2.78961683e+01  2.44040027e+01 -8.51696627e-01 
 2.85394464e+01  2.44039580e+01 -8.71333530e-01 
 2.91975583e+01  2.44039112e+01 -8.91423042e-01 
 2.98708461e+01  2.44038622e+01 -9.11975587e-01 
 3.05596598e+01  2.44038109e+01 -9.33001825e-01 
 3.12643573e+01  2.44037572e+01 -9.54512663e-01 
 3.19853049e+01  2.44037010e+01 -9.76519256e-01 
 3.27228774e+01  2.44036422e+01 -9.99033017e-01 
 3.34774581e+01  2.44035806e+01 -1.02206562e+00 
 3.42494392e+01  2.44035162e+01 -1.04562901e+00 
 3.50392221e+01  2.44034487e+01 -1.06973540e+00 
 3.58472171e+01  2.44033782e+01 -1.09439728e+00 
 3.66738442e+01  2.44033043e+01 -1.11962744e+00 
 3.75195331e+01  2.44032270e+01 -1.14543895e+00 
 3.83847234e+01  2.44031461e+01 -1.17184518e+00 
 3.92698648e+01  2.44030614e+01 -1.19885983e+00 
 4.01754173e+01  2.44029727e+01 -1.22649687e+00 
 4.11018515e+01  2.44028800e+01 -1.25477062e+00 
 4.20496491e+01  2.44027829e+01 -1.28369573e+00 
 4.30193027e+01  2.44026812e+01 -1.31328716e+00 
 4.40113162e+01  2.44025749e+01 -1.34356024e+00 
 4.50262052e+01  2.44024635e+01 -1.37453064e+00 
 4.60644974e+01  2.44023470e+01 -1.40621437e+00 
 4.71267322e+01  2.44022251e+01 -1.43862783e+00 
 4.82134619e+01  2.44020974e+01 -1.47178778e+00 
 4.93252513e+01  2.44019639e+01 -1.50571137e+00 
 5.04626783e+01  2.44018240e+01 -1.54041615e+00 
 5.16263340e+01  2.44016777e+01 -1.57592003e+00 
 5.28168234e+01  2.44015246e+01 -1.61224137e+00 
 5.40347650e+01  2.44013643e+01 -1.64939893e+00 
 5.52807921e+01  2.44011965e+01 -1.68741190e+00 
 5.65555523e+01  2.44010209e+01 -1.72629990e+00 
 5.78597080e+01  2.44008372e+01 -1.76608301e+00 
 5.91939372e+01  2.44006448e+01 -1.80678174e+00 
 6.05589334e+01  2.44004436e+01 -1.84841708e+00 
 6.19554061e+01  2.44002329e+01 -1.89101051e+00 
 6.33840810e+01  2.44000124e+01 -1.93458396e+00 
 6.48457008e+01  2.43997816e+01 -1.97915990e+00 
 6.63410251e+01  2.43995401e+01 -2.02476126e+00 
 6.78708313e+01  2.43992873e+01 -2.07141152e+00 
 6.94359143e+01  2.43990228e+01 -2.11913469e+00 
 7.10370877e+01  2.43987459e+01 -2.16795530e+00 
 7.26751838e+01  2.43984562e+01 -2.21789844e+00 
 7.43510539e+01  2.43981529e+01 -2.26898976e+00 
 7.60655691e+01  2.43978355e+01 -2.32125551e+00 
 7.78196206e+01  2.43975034e+01 -2.37472250e+00 
 7.96141200e+01  2.43971557e+01 -2.42941813e+00 
 8.14500001e+01  2.43967919e+01 -2.48537046e+00 
 8.33282151e+01  2.43964111e+01 -2.54260812e+00 
 8.52497412e+01  2.43960126e+01 -2.60116042e+00 
 8.72155772e+01  2.43955956e+01 -2.66105730e+00 
 8.92267449e+01  2.43951591e+01 -2.72232936e+00 
 9.12842895e+01  2.43947024e+01 -2.78500789e+00 
 9.33892805e+01  2.43942243e+01 -2.84912488e+00 
 9.55428121e+01  2.43937241e+01 -2.91471300e+00 
 9.77460036e+01  2.43932005e+01 -2.98180567e+00 
 1.00000000e+02  2.43926526e+01 -3.05043700e+00 
 1.02305973e+02  2.43920792e+01 -3.12064190e+00 
 1.04665121e+02  2.43914791e+01 -3.19245600e+00 
 1.07078670e+02  2.43908512e+01 -3.26591574e+00 
 1.09547876e+02  2.43901940e+01 -3.34105832e+00 
 1.12074020e+02  2.43895063e+01 -3.41792177e+00 
 1.14658417e+02  2.43887866e+01 -3.49654493e+00 
 1.17302409e+02  2.43880335e+01 -3.57696750e+00 
 1.20007371e+02  2.43872454e+01 -3.65922999e+00 
 1.22774708e+02  2.43864206e+01 -3.74337381e+00 
 1.25605860e+02  2.43855576e+01 -3.82944124e+00 
 1.28502297e+02  2.43846545e+01 -3.91747547e+00 
 1.31465525e+02  2.43837094e+01 -4.00752060e+00 
 1.34497085e+02  2.43827205e+01 -4.09962163e+00 
 1.37598551e+02  2.43816857e+01 -4.19382455e+00 
 1.40771537e+02  2.43806029e+01 -4.29017628e+00 
 1.44017690e+02  2.43794698e+01 -4.38872472e+00 
 1.47338699e+02  2.43782842e+01 -4.48951875e+00 
 1.50736290e+02  2.43770437e+01 -4.59260828e+00 
 1.54212228e+02  2.43757456e+01 -4.69804422e+00 
 1.57768320e+02  2.43743874e+01 -4.80587852e+00 
 1.61406415e+02  2.43729664e+01 -4.91616416e+00 
 1.65128404e+02  2.43714795e+01 -5.02895520e+00 
 1.68936220e+02  2.43699237e+01 -5.14430678e+00 
 1.72831844e+02  2.43682961e+01 -5.26227510e+00 
 1.76817299e+02  2.43665931e+01 -5.38291749e+00 
 1.80894658e+02  2.43648114e+01 -5.50629237e+00 
 1.85066040e+02  2.43629473e+01 -5.63245929e+00 
 1.89333613e+02  2.43609972e+01 -5.76147894e+00 
 1.93699595e+02  2.43589570e+01 -5.89341314e+00 
 1.98166255e+02  2.43568227e+01 -6.02832488e+00 
 2.02735916e+02  2.43545899e+01 -6.16627830e+00 
 2.07410951e+02  2.43522542e+01 -6.30733870e+00 
 2.12193792e+02  2.43498109e+01 -6.45157256e+00 
 2.17086923e+02  2.43472550e+01 -6.59904754e+00 
 2.22092889e+02  2.43445816e+01 -6.74983248e+00 
 2.27214291e+02  2.43417851e+01 -6.90399740e+00 
 2.32453791e+02  2.43388602e+01 -7.06161350e+00 
 2.37814113e+02  2.43358009e+01 -7.22275317e+00 
 2.43298042e+02  2.43326012e+01 -7.38748997e+00 
 2.48908429e+02  2.43292547e+01 -7.55589862e+00 
 2.54648190e+02  2.43257549e+01 -7.72805504e+00 
 2.60520309e+02  2.43220948e+01 -7.90403627e+00 
 2.66527837e+02  2.43182673e+01 -8.08392050e+00 
 2.72673897e+02  2.43142649e+01 -8.26778704e+00 
 2.78961683e+02  2.43100796e+01 -8.45571633e+00 
 2.85394464e+02  2.43057035e+01 -8.64778987e+00 
 2.91975583e+02  2.43011279e+01 -8.84409024e+00 
 2.98708461e+02  2.42963440e+01 -9.04470103e+00 
 3.05596598e+02  2.42913425e+01 -9.24970685e+00 
 3.12643573e+02  2.42861139e+01 -9.45919326e+00 
 3.19853049e+02  2.42806482e+01 -9.67324675e+00 
 3.27228774e+02  2.42749348e+01 -9.89195469e+00 
 3.34774581e+02  2.42689628e+01 -1.01154053e+01 
 3.42494392e+02  2.42627211e+01 -1.03436875e+01 
 3.50392221e+02  2.42561978e+01 -1.05768909e+01 
 3.58472171e+02  2.42493807e+01 -1.08151059e+01 
 3.66738442e+02  2.42422569e+01 -1.10584235e+01 
 3.75195331e+02  2.42348133e+01 -1.13069348e+01 
 3.83847234e+02  2.42270361e+01 -1.15607318e+01 
 3.92698648e+02  2.42189110e+01 -1.18199066e+01 
 4.01754173e+02  2.42104231e+01 -1.20845513e+01 
 4.11018515e+02  2.42015570e+01 -1.23547585e+01 
 4.20496491e+02  2.41922966e+01 -1.26306205e+01 
 4.30193027e+02  2.41826252e+01 -1.29122295e+01 
 4.40113162e+02  2.41725257e+01 -1.31996776e+01 
 4.50262052e+02  2.41619802e+01 -1.34930563e+01 
 4.60644974e+02  2.41509700e+01 -1.37924565e+01 
 4.71267322e+02  2.41394761e+01 -1.40979685e+01 
 4.82134619e+02  2.41274784e+01 -1.44096817e+01 
 4.93252513e+02  2.41149564e+01 -1.47276842e+01 
 5.04626783e+02  2.41018888e+01 -1.50520631e+01 
 5.16263340e+02  2.40882535e+01 -1.53829038e+01 
 5.28168234e+02  2.40740279e+01 -1.57202900e+01 
 5.40347650e+02  2.40591883e+01 -1.60643035e+01 
 5.52807921e+02  2.40437106e+01 -1.64150241e+01 
 5.65555523e+02  2.40275697e+01 -1.67725289e+01 
 5.78597080e+02  2.40107399e+01 -1.71368925e+01 
 5.91939372e+02  2.39931944e+01 -1.75081864e+01 
 6.05589334e+02  2.39749061e+01 -1.78864789e+01 
 6.19554061e+02  2.39558467e+01 -1.82718348e+01 
 6.33840810e+02  2.39359873e+01 -1.86643150e+01 
 6.48457008e+02  2.39152983e+01 -1.90639763e+01 
 6.63410251e+02  2.38937492e+01 -1.94708709e+01 
 6.78708313e+02  2.38713087e+01 -1.98850462e+01 
 6.94359143e+02  2.38479449e+01 -2.03065446e+01 
 7.10370877e+02  2.38236250e+01 -2.07354026e+01 
 7.26751838e+02  2.37983156e+01 -2.11716511e+01 
 7.43510539e+02  2.37719825e+01 -2.16153147e+01 
 7.60655691e+02  2.37445909e+01 -2.20664112e+01 
 7.78196206e+02  2.37161053e+01 -2.25249517e+01 
 7.96141200e+02  2.36864895e+01 -2.29909397e+01 
 8.14500001e+02  2.36557070e+01 -2.34643708e+01 
 8.33282151e+02  2.36237204e+01 -2.39452330e+01 
 8.52497412e+02  2.35904920e+01 -2.44335052e+01 
 8.72155772e+02  2.35559837e+01 -2.49291579e+01 
 8.92267449e+02  2.35201568e+01 -2.54321521e+01 
 9.12842895e+02  2.34829724e+01 -2.59424394e+01 
 9.33892805e+02  2.34443913e+01 -2.64599616e+01 
 9.55428121e+02  2.34043742e+01 -2.69846500e+01 
 9.77460036e+02  2.33628814e+01 -2.75164258e+01 
 1.00000000e+03  2.33198734e+01 -2.80551992e+01 
 1.02305973e+03  2.32753106e+01 -2.86008695e+01 
 1.04665121e+03  2.32291535e+01 -2.91533246e+01 
 1.07078670e+03  2.31813628e+01 -2.97124413e+01 
 1.09547876e+03  2.31318996e+01 -3.02780846e+01 
 1.12074020e+03  2.30807253e+01 -3.08501079e+01 
 1.14658417e+03  2.30278018e+01 -3.14283530e+01 
 1.17302409e+03  2.29730915e+01 -3.20126496e+01 
 1.20007371e+03  2.29165576e+01 -3.26028159e+01 
 1.22774708e+03  2.28581642e+01 -3.31986583e+01 
 1.25605860e+03  2.27978761e+01 -3.37999714e+01 
 1.28502297e+03  2.27356592e+01 -3.44065388e+01 
 1.31465525e+03  2.26714806e+01 -3.50181323e+01 
 1.34497085e+03  2.26053086e+01 -3.56345130e+01 
 1.37598551e+03  2.25371128e+01 -3.62554315e+01 
 1.40771537e+03  2.24668642e+01 -3.68806277e+01 
 1.44017690e+03  2.23945356e+01 -3.75098319e+01 
 1.47338699e+03  2.23201012e+01 -3.81427648e+01 
 1.50736290e+03  2.22435371e+01 -3.87791384e+01 
 1.54212228e+03  2.21648211e+01 -3.94186563e+01 
 1.57768320e+03  2.20839331e+01 -4.00610143e+01 
 1.61406415e+03  2.20008547e+01 -4.07059014e+01 
 1.65128404e+03  2.19155700e+01 -4.13530002e+01 
 1.68936220e+03  2.18280649e+01 -4.20019876e+01 
 1.72831844e+03  2.17383276e+01 -4.26525359e+01 
 1.76817299e+03  2.16463486e+01 -4.33043132e+01 
 1.80894658e+03  2.15521207e+01 -4.39569848e+01 
 1.85066040e+03  2.14556387e+01 -4.46102134e+01 
 1.89333613e+03  2.13569003e+01 -4.52636605e+01 
 1.93699595e+03  2.12559049e+01 -4.59169867e+01 
 1.98166255e+03  2.11526548e+01 -4.65698535e+01 
 2.02735916e+03  2.10471543e+01 -4.72219231e+01 
 2.07410951e+03  2.09394101e+01 -4.78728600e+01 
 2.12193792e+03  2.08294312e+01 -4.85223318e+01 
 2.17086923e+03  2.07172289e+01 -4.91700096e+01 
 2.22092889e+03  2.06028167e+01 -4.98155692e+01 
 2.27214291e+03  2.04862101e+01 -5.04586919e+01 
 2.32453791e+03  2.03674269e+01 -5.10990651e+01 
 2.37814113e+03  2.02464868e+01 -5.17363830e+01 
 2.43298042e+03  2.01234114e+01 -5.23703473e+01 
 2.48908429e+03  1.99982244e+01 -5.30006680e+01 
 2.54648190e+03  1.98709509e+01 -5.36270639e+01 
 2.60520309e+03  1.97416180e+01 -5.42492628e+01 
 2.66527837e+03  1.96102542e+01 -5.48670027e+01 
 2.72673897e+03  1.94768895e+01 -5.54800315e+01 
 2.78961683e+03  1.93415554e+01 -5.60881079e+01 
 2.85394464e+03  1.92042845e+01 -5.66910013e+01 
 2.91975583e+03  1.90651106e+01 -5.72884926e+01 
 2.98708461e+03  1.89240686e+01 -5.78803738e+01 
 3.05596598e+03  1.87811943e+01 -5.84664487e+01 
 3.12643573e+03  1.86365243e+01 -5.90465328e+01 
 3.19853049e+03  1.84900961e+01 -5.96204534e+01 
 3.27228774e+03  1.83419474e+01 -6.01880493e+01 
 3.34774581e+03  1.81921169e+01 -6.07491715e+01 
 3.42494392e+03  1.80406435e+01 -6.13036825e+01 
 3.50392221e+03  1.78875663e+01 -6.18514563e+01 
 3.58472171e+03  1.77329248e+01 -6.23923785e+01 
 3.66738442e+03  1.75767585e+01 -6.29263460e+01 
 3.75195331e+03  1.74191071e+01 -6.34532666e+01 
 3.83847234e+03  1.72600101e+01 -6.39730590e+01 
 3.92698648e+03  1.70995069e+01 -6.44856526e+01 
 4.01754173e+03  1.69376369e+01 -6.49909870e+01 
 4.11018515e+03  1.67744389e+01 -6.54890115e+01 
 4.20496491e+03  1.66099518e+01 -6.59796855e+01 
 4.30193027e+03  1.64442137e+01 -6.64629773e+01 
 4.40113162e+03  1.62772625e+01 -6.69388644e+01 
 4.50262052e+03  1.61091356e+01 -6.74073329e+01 
 4.60644974e+03  1.59398698e+01 -6.78683768e+01 
 4.71267322e+03  1.57695014e+01 -6.83219984e+01 
 4.82134619e+03  1.55980659e+01 -6.87682071e+01 
 4.93252513e+03  1.54255985e+01 -6.92070197e+01 
 5.04626783e+03  1.52521334e+01 -6.96384596e+01 
 5.16263340e+03  1.50777042e+01 -7.00625565e+01 
 5.28168234e+03  1.49023439e+01 -7.04793462e+01 
 5.40347650e+03  1.47260846e+01 -7.08888700e+01 
 5.52807921e+03  1.45489577e+01 -7.12911747e+01 
 5.65555523e+03  1.43709940e+01 -7.16863118e+01 
 5.78597080e+03  1.41922231e+01 -7.20743375e+01 
 5.91939372e+03  1.40126744e+01 -7.24553123e+01 
 6.05589334e+03  1.38323760e+01 -7.28293005e+01 
 6.19554061e+03  1.36513556e+01 -7.31963702e+01 
 6.33840810e+03  1.34696399e+01 -7.35565926e+01 
 6.48457008e+03  1.32872548e+01 -7.39100423e+01 
 6.63410251e+03  1.31042256e+01 -7.42567964e+01 
 6.78708313e+03  1.29205767e+01 -7.45969345e+01 
 6.94359143e+03  1.27363318e+01 -7.49305386e+01 
 7.10370877e+03  1.25515139e+01 -7.52576926e+01 
 7.26751838e+03  1.23661452e+01 -7.55784822e+01 
 7.43510539e+03  1.21802470e+01 -7.58929947e+01 
 7.60655691e+03  1.19938403e+01 -7.62013187e+01 
 7.78196206e+03  1.18069450e+01 -7.65035440e+01 
 7.96141200e+03  1.16195805e+01 -7.67997614e+01 
 8.14500001e+03  1.14317655e+01 -7.70900623e+01 
 8.33282151e+03  1.12435181e+01 -7.73745389e+01 
 8.52497412e+03  1.10548557e+01 -7.76532840e+01 
 8.72155772e+03  1.08657951e+01 -7.79263904e+01 
 8.92267449e+03  1.06763525e+01 -7.81939514e+01 
 9.12842895e+03  1.04865433e+01 -7.84560602e+01 
 9.33892805e+03  1.02963827e+01 -7.87128099e+01 
 9.55428121e+03  1.01058851e+01 -7.89642936e+01 
 9.77460036e+03  9.91506432e+00 -7.92106041e+01 
 1.00000000e+04  9.72393382e+00 -7.94518336e+01 
 1.02305973e+04  9.53250645e+00 -7.96880743e+01 
 1.04665121e+04  9.34079456e+00 -7.99194174e+01 
