 frequency       v(Tmb_dB)       v(Tmb_arg)     
 1.00000000e+00  2.12118683e+01 -1.15909526e-03 
 1.02305973e+00  2.12118683e+01 -1.18582368e-03 
 1.04665121e+00  2.12118683e+01 -1.21316846e-03 
 1.07078670e+00  2.12118683e+01 -1.24114379e-03 
 1.09547876e+00  2.12118683e+01 -1.26976423e-03 
 1.12074020e+00  2.12118683e+01 -1.29904465e-03 
 1.14658417e+00  2.12118683e+01 -1.32900027e-03 
 1.17302409e+00  2.12118683e+01 -1.35964666e-03 
 1.20007371e+00  2.12118683e+01 -1.39099974e-03 
 1.22774708e+00  2.12118683e+01 -1.42307582e-03 
 1.25605860e+00  2.12118683e+01 -1.45589157e-03 
 1.28502297e+00  2.12118683e+01 -1.48946403e-03 
 1.31465525e+00  2.12118683e+01 -1.52381067e-03 
 1.34497085e+00  2.12118683e+01 -1.55894933e-03 
 1.37598551e+00  2.12118683e+01 -1.59489828e-03 
 1.40771537e+00  2.12118683e+01 -1.63167621e-03 
 1.44017690e+00  2.12118683e+01 -1.66930222e-03 
 1.47338699e+00  2.12118683e+01 -1.70779588e-03 
 1.50736290e+00  2.12118683e+01 -1.74717719e-03 
 1.54212228e+00  2.12118683e+01 -1.78746662e-03 
 1.57768320e+00  2.12118683e+01 -1.82868512e-03 
 1.61406415e+00  2.12118683e+01 -1.87085411e-03 
 1.65128404e+00  2.12118683e+01 -1.91399550e-03 
 1.68936220e+00  2.12118683e+01 -1.95813171e-03 
 1.72831844e+00  2.12118683e+01 -2.00328570e-03 
 1.76817299e+00  2.12118683e+01 -2.04948093e-03 
 1.80894658e+00  2.12118683e+01 -2.09674141e-03 
 1.85066040e+00  2.12118683e+01 -2.14509170e-03 
 1.89333613e+00  2.12118683e+01 -2.19455693e-03 
 1.93699595e+00  2.12118683e+01 -2.24516282e-03 
 1.98166255e+00  2.12118683e+01 -2.29693567e-03 
 2.02735916e+00  2.12118683e+01 -2.34990239e-03 
 2.07410951e+00  2.12118683e+01 -2.40409050e-03 
 2.12193792e+00  2.12118683e+01 -2.45952818e-03 
 2.17086923e+00  2.12118683e+01 -2.51624423e-03 
 2.22092889e+00  2.12118683e+01 -2.57426814e-03 
 2.27214291e+00  2.12118683e+01 -2.63363007e-03 
 2.32453791e+00  2.12118683e+01 -2.69436087e-03 
 2.37814113e+00  2.12118683e+01 -2.75649210e-03 
 2.43298042e+00  2.12118683e+01 -2.82005607e-03 
 2.48908429e+00  2.12118683e+01 -2.88508580e-03 
 2.54648190e+00  2.12118683e+01 -2.95161510e-03 
 2.60520309e+00  2.12118683e+01 -3.01967854e-03 
 2.66527837e+00  2.12118683e+01 -3.08931152e-03 
 2.72673897e+00  2.12118683e+01 -3.16055020e-03 
 2.78961683e+00  2.12118683e+01 -3.23343164e-03 
 2.85394464e+00  2.12118683e+01 -3.30799370e-03 
 2.91975583e+00  2.12118683e+01 -3.38427514e-03 
 2.98708461e+00  2.12118683e+01 -3.46231561e-03 
 3.05596598e+00  2.12118683e+01 -3.54215567e-03 
 3.12643573e+00  2.12118683e+01 -3.62383682e-03 
 3.19853049e+00  2.12118683e+01 -3.70740152e-03 
 3.27228774e+00  2.12118683e+01 -3.79289320e-03 
 3.34774581e+00  2.12118683e+01 -3.88035629e-03 
 3.42494392e+00  2.12118683e+01 -3.96983626e-03 
 3.50392221e+00  2.12118683e+01 -4.06137961e-03 
 3.58472171e+00  2.12118683e+01 -4.15503393e-03 
 3.66738442e+00  2.12118683e+01 -4.25084789e-03 
 3.75195331e+00  2.12118683e+01 -4.34887129e-03 
 3.83847234e+00  2.12118683e+01 -4.44915509e-03 
 3.92698648e+00  2.12118683e+01 -4.55175140e-03 
 4.01754173e+00  2.12118683e+01 -4.65671356e-03 
 4.11018515e+00  2.12118683e+01 -4.76409611e-03 
 4.20496491e+00  2.12118683e+01 -4.87395488e-03 
 4.30193027e+00  2.12118683e+01 -4.98634697e-03 
 4.40113162e+00  2.12118683e+01 -5.10133078e-03 
 4.50262052e+00  2.12118683e+01 -5.21896609e-03 
 4.60644974e+00  2.12118683e+01 -5.33931404e-03 
 4.71267322e+00  2.12118683e+01 -5.46243717e-03 
 4.82134619e+00  2.12118683e+01 -5.58839950e-03 
 4.93252513e+00  2.12118683e+01 -5.71726648e-03 
 5.04626783e+00  2.12118683e+01 -5.84910510e-03 
 5.16263340e+00  2.12118683e+01 -5.98398388e-03 
 5.28168234e+00  2.12118683e+01 -6.12197293e-03 
 5.40347650e+00  2.12118683e+01 -6.26314397e-03 
 5.52807921e+00  2.12118683e+01 -6.40757038e-03 
 5.65555523e+00  2.12118683e+01 -6.55532722e-03 
 5.78597080e+00  2.12118683e+01 -6.70649130e-03 
 5.91939372e+00  2.12118683e+01 -6.86114117e-03 
 6.05589334e+00  2.12118683e+01 -7.01935723e-03 
 6.19554061e+00  2.12118683e+01 -7.18122171e-03 
 6.33840810e+00  2.12118683e+01 -7.34681874e-03 
 6.48457008e+00  2.12118683e+01 -7.51623440e-03 
 6.63410251e+00  2.12118683e+01 -7.68955673e-03 
 6.78708313e+00  2.12118683e+01 -7.86687583e-03 
 6.94359143e+00  2.12118683e+01 -8.04828386e-03 
 7.10370877e+00  2.12118683e+01 -8.23387511e-03 
 7.26751838e+00  2.12118683e+01 -8.42374604e-03 
 7.43510539e+00  2.12118683e+01 -8.61799535e-03 
 7.60655691e+00  2.12118682e+01 -8.81672399e-03 
 7.78196206e+00  2.12118682e+01 -9.02003526e-03 
 7.96141200e+00  2.12118682e+01 -9.22803483e-03 
 8.14500001e+00  2.12118682e+01 -9.44083082e-03 
 8.33282151e+00  2.12118682e+01 -9.65853382e-03 
 8.52497412e+00  2.12118682e+01 -9.88125700e-03 
 8.72155772e+00  2.12118682e+01 -1.01091161e-02 
 8.92267449e+00  2.12118682e+01 -1.03422296e-02 
 9.12842895e+00  2.12118682e+01 -1.05807186e-02 
 9.33892805e+00  2.12118682e+01 -1.08247071e-02 
 9.55428121e+00  2.12118682e+01 -1.10743219e-02 
 9.77460036e+00  2.12118682e+01 -1.13296928e-02 
 1.00000000e+01  2.12118682e+01 -1.15909524e-02 
 1.02305973e+01  2.12118682e+01 -1.18582367e-02 
 1.04665121e+01  2.12118682e+01 -1.21316844e-02 
 1.07078670e+01  2.12118682e+01 -1.24114378e-02 
 1.09547876e+01  2.12118681e+01 -1.26976422e-02 
 1.12074020e+01  2.12118681e+01 -1.29904463e-02 
 1.14658417e+01  2.12118681e+01 -1.32900025e-02 
 1.17302409e+01  2.12118681e+01 -1.35964664e-02 
 1.20007371e+01  2.12118681e+01 -1.39099972e-02 
 1.22774708e+01  2.12118681e+01 -1.42307580e-02 
 1.25605860e+01  2.12118681e+01 -1.45589154e-02 
 1.28502297e+01  2.12118681e+01 -1.48946400e-02 
 1.31465525e+01  2.12118681e+01 -1.52381064e-02 
 1.34497085e+01  2.12118680e+01 -1.55894930e-02 
 1.37598551e+01  2.12118680e+01 -1.59489825e-02 
 1.40771537e+01  2.12118680e+01 -1.63167617e-02 
 1.44017690e+01  2.12118680e+01 -1.66930218e-02 
 1.47338699e+01  2.12118680e+01 -1.70779583e-02 
 1.50736290e+01  2.12118680e+01 -1.74717714e-02 
 1.54212228e+01  2.12118679e+01 -1.78746657e-02 
 1.57768320e+01  2.12118679e+01 -1.82868507e-02 
 1.61406415e+01  2.12118679e+01 -1.87085405e-02 
 1.65128404e+01  2.12118679e+01 -1.91399543e-02 
 1.68936220e+01  2.12118679e+01 -1.95813165e-02 
 1.72831844e+01  2.12118678e+01 -2.00328563e-02 
 1.76817299e+01  2.12118678e+01 -2.04948085e-02 
 1.80894658e+01  2.12118678e+01 -2.09674133e-02 
 1.85066040e+01  2.12118678e+01 -2.14509161e-02 
 1.89333613e+01  2.12118677e+01 -2.19455684e-02 
 1.93699595e+01  2.12118677e+01 -2.24516272e-02 
 1.98166255e+01  2.12118677e+01 -2.29693556e-02 
 2.02735916e+01  2.12118677e+01 -2.34990227e-02 
 2.07410951e+01  2.12118676e+01 -2.40409038e-02 
 2.12193792e+01  2.12118676e+01 -2.45952805e-02 
 2.17086923e+01  2.12118676e+01 -2.51624409e-02 
 2.22092889e+01  2.12118675e+01 -2.57426799e-02 
 2.27214291e+01  2.12118675e+01 -2.63362991e-02 
 2.32453791e+01  2.12118674e+01 -2.69436070e-02 
 2.37814113e+01  2.12118674e+01 -2.75649192e-02 
 2.43298042e+01  2.12118674e+01 -2.82005587e-02 
 2.48908429e+01  2.12118673e+01 -2.88508559e-02 
 2.54648190e+01  2.12118673e+01 -2.95161487e-02 
 2.60520309e+01  2.12118672e+01 -3.01967830e-02 
 2.66527837e+01  2.12118672e+01 -3.08931125e-02 
 2.72673897e+01  2.12118671e+01 -3.16054992e-02 
 2.78961683e+01  2.12118671e+01 -3.23343134e-02 
 2.85394464e+01  2.12118670e+01 -3.30799338e-02 
 2.91975583e+01  2.12118669e+01 -3.38427480e-02 
 2.98708461e+01  2.12118669e+01 -3.46231524e-02 
 3.05596598e+01  2.12118668e+01 -3.54215528e-02 
 3.12643573e+01  2.12118667e+01 -3.62383640e-02 
 3.19853049e+01  2.12118666e+01 -3.70740107e-02 
 3.27228774e+01  2.12118666e+01 -3.79289272e-02 
 3.34774581e+01  2.12118665e+01 -3.88035577e-02 
 3.42494392e+01  2.12118664e+01 -3.96983571e-02 
 3.50392221e+01  2.12118663e+01 -4.06137902e-02 
 3.58472171e+01  2.12118662e+01 -4.15503329e-02 
 3.66738442e+01  2.12118661e+01 -4.25084721e-02 
 3.75195331e+01  2.12118660e+01 -4.34887056e-02 
 3.83847234e+01  2.12118659e+01 -4.44915431e-02 
 3.92698648e+01  2.12118658e+01 -4.55175057e-02 
 4.01754173e+01  2.12118657e+01 -4.65671266e-02 
 4.11018515e+01  2.12118655e+01 -4.76409516e-02 
 4.20496491e+01  2.12118654e+01 -4.87395386e-02 
 4.30193027e+01  2.12118653e+01 -4.98634587e-02 
 4.40113162e+01  2.12118651e+01 -5.10132960e-02 
 4.50262052e+01  2.12118650e+01 -5.21896483e-02 
 4.60644974e+01  2.12118648e+01 -5.33931269e-02 
 4.71267322e+01  2.12118647e+01 -5.46243573e-02 
 4.82134619e+01  2.12118645e+01 -5.58839795e-02 
 4.93252513e+01  2.12118643e+01 -5.71726483e-02 
 5.04626783e+01  2.12118641e+01 -5.84910333e-02 
 5.16263340e+01  2.12118639e+01 -5.98398199e-02 
 5.28168234e+01  2.12118637e+01 -6.12197090e-02 
 5.40347650e+01  2.12118635e+01 -6.26314180e-02 
 5.52807921e+01  2.12118633e+01 -6.40756805e-02 
 5.65555523e+01  2.12118630e+01 -6.55532473e-02 
 5.78597080e+01  2.12118628e+01 -6.70648863e-02 
 5.91939372e+01  2.12118625e+01 -6.86113831e-02 
 6.05589334e+01  2.12118623e+01 -7.01935417e-02 
 6.19554061e+01  2.12118620e+01 -7.18121844e-02 
 6.33840810e+01  2.12118617e+01 -7.34681523e-02 
 6.48457008e+01  2.12118614e+01 -7.51623064e-02 
 6.63410251e+01  2.12118610e+01 -7.68955271e-02 
 6.78708313e+01  2.12118607e+01 -7.86687152e-02 
 6.94359143e+01  2.12118603e+01 -8.04827924e-02 
 7.10370877e+01  2.12118600e+01 -8.23387017e-02 
 7.26751838e+01  2.12118596e+01 -8.42374075e-02 
 7.43510539e+01  2.12118592e+01 -8.61798968e-02 
 7.60655691e+01  2.12118587e+01 -8.81671792e-02 
 7.78196206e+01  2.12118583e+01 -9.02002876e-02 
 7.96141200e+01  2.12118578e+01 -9.22802788e-02 
 8.14500001e+01  2.12118573e+01 -9.44082337e-02 
 8.33282151e+01  2.12118568e+01 -9.65852585e-02 
 8.52497412e+01  2.12118563e+01 -9.88124846e-02 
 8.72155772e+01  2.12118557e+01 -1.01091070e-01 
 8.92267449e+01  2.12118551e+01 -1.03422198e-01 
 9.12842895e+01  2.12118545e+01 -1.05807081e-01 
 9.33892805e+01  2.12118539e+01 -1.08246959e-01 
 9.55428121e+01  2.12118532e+01 -1.10743099e-01 
 9.77460036e+01  2.12118525e+01 -1.13296799e-01 
 1.00000000e+02  2.12118518e+01 -1.15909387e-01 
 1.02305973e+02  2.12118510e+01 -1.18582219e-01 
 1.04665121e+02  2.12118502e+01 -1.21316686e-01 
 1.07078670e+02  2.12118493e+01 -1.24114208e-01 
 1.09547876e+02  2.12118484e+01 -1.26976240e-01 
 1.12074020e+02  2.12118475e+01 -1.29904269e-01 
 1.14658417e+02  2.12118465e+01 -1.32899817e-01 
 1.17302409e+02  2.12118455e+01 -1.35964441e-01 
 1.20007371e+02  2.12118445e+01 -1.39099734e-01 
 1.22774708e+02  2.12118433e+01 -1.42307325e-01 
 1.25605860e+02  2.12118422e+01 -1.45588881e-01 
 1.28502297e+02  2.12118410e+01 -1.48946108e-01 
 1.31465525e+02  2.12118397e+01 -1.52380751e-01 
 1.34497085e+02  2.12118383e+01 -1.55894595e-01 
 1.37598551e+02  2.12118370e+01 -1.59489466e-01 
 1.40771537e+02  2.12118355e+01 -1.63167232e-01 
 1.44017690e+02  2.12118340e+01 -1.66929806e-01 
 1.47338699e+02  2.12118323e+01 -1.70779143e-01 
 1.50736290e+02  2.12118307e+01 -1.74717242e-01 
 1.54212228e+02  2.12118289e+01 -1.78746152e-01 
 1.57768320e+02  2.12118271e+01 -1.82867966e-01 
 1.61406415e+02  2.12118251e+01 -1.87084825e-01 
 1.65128404e+02  2.12118231e+01 -1.91398923e-01 
 1.68936220e+02  2.12118210e+01 -1.95812500e-01 
 1.72831844e+02  2.12118188e+01 -2.00327852e-01 
 1.76817299e+02  2.12118165e+01 -2.04947324e-01 
 1.80894658e+02  2.12118141e+01 -2.09673317e-01 
 1.85066040e+02  2.12118116e+01 -2.14508288e-01 
 1.89333613e+02  2.12118089e+01 -2.19454749e-01 
 1.93699595e+02  2.12118061e+01 -2.24515271e-01 
 1.98166255e+02  2.12118032e+01 -2.29692484e-01 
 2.02735916e+02  2.12118002e+01 -2.34989079e-01 
 2.07410951e+02  2.12117970e+01 -2.40407808e-01 
 2.12193792e+02  2.12117937e+01 -2.45951488e-01 
 2.17086923e+02  2.12117902e+01 -2.51622999e-01 
 2.22092889e+02  2.12117866e+01 -2.57425290e-01 
 2.27214291e+02  2.12117827e+01 -2.63361375e-01 
 2.32453791e+02  2.12117788e+01 -2.69434339e-01 
 2.37814113e+02  2.12117746e+01 -2.75647338e-01 
 2.43298042e+02  2.12117702e+01 -2.82003602e-01 
 2.48908429e+02  2.12117656e+01 -2.88506434e-01 
 2.54648190e+02  2.12117608e+01 -2.95159211e-01 
 2.60520309e+02  2.12117558e+01 -3.01965393e-01 
 2.66527837e+02  2.12117506e+01 -3.08928516e-01 
 2.72673897e+02  2.12117451e+01 -3.16052199e-01 
 2.78961683e+02  2.12117393e+01 -3.23340142e-01 
 2.85394464e+02  2.12117333e+01 -3.30796134e-01 
 2.91975583e+02  2.12117270e+01 -3.38424050e-01 
 2.98708461e+02  2.12117204e+01 -3.46227851e-01 
 3.05596598e+02  2.12117135e+01 -3.54211595e-01 
 3.12643573e+02  2.12117063e+01 -3.62379429e-01 
 3.19853049e+02  2.12116987e+01 -3.70735598e-01 
 3.27228774e+02  2.12116908e+01 -3.79284443e-01 
 3.34774581e+02  2.12116825e+01 -3.88030407e-01 
 3.42494392e+02  2.12116739e+01 -3.96978034e-01 
 3.50392221e+02  2.12116648e+01 -4.06131974e-01 
 3.58472171e+02  2.12116553e+01 -4.15496981e-01 
 3.66738442e+02  2.12116453e+01 -4.25077924e-01 
 3.75195331e+02  2.12116349e+01 -4.34879778e-01 
 3.83847234e+02  2.12116241e+01 -4.44907637e-01 
 3.92698648e+02  2.12116127e+01 -4.55166712e-01 
 4.01754173e+02  2.12116007e+01 -4.65662331e-01 
 4.11018515e+02  2.12115882e+01 -4.76399947e-01 
 4.20496491e+02  2.12115752e+01 -4.87385140e-01 
 4.30193027e+02  2.12115615e+01 -4.98623616e-01 
 4.40113162e+02  2.12115472e+01 -5.10121213e-01 
 4.50262052e+02  2.12115322e+01 -5.21883904e-01 
 4.60644974e+02  2.12115165e+01 -5.33917800e-01 
 4.71267322e+02  2.12115001e+01 -5.46229150e-01 
 4.82134619e+02  2.12114829e+01 -5.58824352e-01 
 4.93252513e+02  2.12114650e+01 -5.71709946e-01 
 5.04626783e+02  2.12114461e+01 -5.84892626e-01 
 5.16263340e+02  2.12114264e+01 -5.98379238e-01 
 5.28168234e+02  2.12114058e+01 -6.12176788e-01 
 5.40347650e+02  2.12113843e+01 -6.26292440e-01 
 5.52807921e+02  2.12113617e+01 -6.40733527e-01 
 5.65555523e+02  2.12113380e+01 -6.55507547e-01 
 5.78597080e+02  2.12113133e+01 -6.70622172e-01 
 5.91939372e+02  2.12112874e+01 -6.86085251e-01 
 6.05589334e+02  2.12112603e+01 -7.01904814e-01 
 6.19554061e+02  2.12112320e+01 -7.18089074e-01 
 6.33840810e+02  2.12112023e+01 -7.34646435e-01 
 6.48457008e+02  2.12111712e+01 -7.51585492e-01 
 6.63410251e+02  2.12111387e+01 -7.68915039e-01 
 6.78708313e+02  2.12111046e+01 -7.86644073e-01 
 6.94359143e+02  2.12110690e+01 -8.04781796e-01 
 7.10370877e+02  2.12110317e+01 -8.23337623e-01 
 7.26751838e+02  2.12109927e+01 -8.42321185e-01 
 7.43510539e+02  2.12109519e+01 -8.61742335e-01 
 7.60655691e+02  2.12109091e+01 -8.81611150e-01 
 7.78196206e+02  2.12108644e+01 -9.01937942e-01 
 7.96141200e+02  2.12108175e+01 -9.22733258e-01 
 8.14500001e+02  2.12107685e+01 -9.44007886e-01 
 8.33282151e+02  2.12107172e+01 -9.65772864e-01 
 8.52497412e+02  2.12106635e+01 -9.88039483e-01 
 8.72155772e+02  2.12106073e+01 -1.01081929e+00 
 8.92267449e+02  2.12105485e+01 -1.03412411e+00 
 9.12842895e+02  2.12104869e+01 -1.05796601e+00 
 9.33892805e+02  2.12104225e+01 -1.08235737e+00 
 9.55428121e+02  2.12103551e+01 -1.10731083e+00 
 9.77460036e+02  2.12102845e+01 -1.13283933e+00 
 1.00000000e+03  2.12102106e+01 -1.15895609e+00 
 1.02305973e+03  2.12101333e+01 -1.18567467e+00 
 1.04665121e+03  2.12100524e+01 -1.21300889e+00 
 1.07078670e+03  2.12099677e+01 -1.24097294e+00 
 1.09547876e+03  2.12098790e+01 -1.26958129e+00 
 1.12074020e+03  2.12097862e+01 -1.29884876e+00 
 1.14658417e+03  2.12096891e+01 -1.32879051e+00 
 1.17302409e+03  2.12095875e+01 -1.35942206e+00 
 1.20007371e+03  2.12094811e+01 -1.39075925e+00 
 1.22774708e+03  2.12093698e+01 -1.42281830e+00 
 1.25605860e+03  2.12092532e+01 -1.45561582e+00 
 1.28502297e+03  2.12091313e+01 -1.48916878e+00 
 1.31465525e+03  2.12090036e+01 -1.52349452e+00 
 1.34497085e+03  2.12088700e+01 -1.55861081e+00 
 1.37598551e+03  2.12087302e+01 -1.59453580e+00 
 1.40771537e+03  2.12085839e+01 -1.63128807e+00 
 1.44017690e+03  2.12084307e+01 -1.66888662e+00 
 1.47338699e+03  2.12082704e+01 -1.70735087e+00 
 1.50736290e+03  2.12081026e+01 -1.74670069e+00 
 1.54212228e+03  2.12079270e+01 -1.78695641e+00 
 1.57768320e+03  2.12077432e+01 -1.82813880e+00 
 1.61406415e+03  2.12075509e+01 -1.87026913e+00 
 1.65128404e+03  2.12073496e+01 -1.91336913e+00 
 1.68936220e+03  2.12071389e+01 -1.95746103e+00 
 1.72831844e+03  2.12069184e+01 -2.00256756e+00 
 1.76817299e+03  2.12066876e+01 -2.04871198e+00 
 1.80894658e+03  2.12064460e+01 -2.09591805e+00 
 1.85066040e+03  2.12061932e+01 -2.14421009e+00 
 1.89333613e+03  2.12059287e+01 -2.19361295e+00 
 1.93699595e+03  2.12056518e+01 -2.24415206e+00 
 1.98166255e+03  2.12053620e+01 -2.29585340e+00 
 2.02735916e+03  2.12050586e+01 -2.34874355e+00 
 2.07410951e+03  2.12047412e+01 -2.40284969e+00 
 2.12193792e+03  2.12044090e+01 -2.45819960e+00 
 2.17086923e+03  2.12040613e+01 -2.51482167e+00 
 2.22092889e+03  2.12036974e+01 -2.57274496e+00 
 2.27214291e+03  2.12033166e+01 -2.63199915e+00 
 2.32453791e+03  2.12029181e+01 -2.69261460e+00 
 2.37814113e+03  2.12025010e+01 -2.75462232e+00 
 2.43298042e+03  2.12020644e+01 -2.81805405e+00 
 2.48908429e+03  2.12016076e+01 -2.88294220e+00 
 2.54648190e+03  2.12011295e+01 -2.94931991e+00 
 2.60520309e+03  2.12006292e+01 -3.01722105e+00 
 2.66527837e+03  2.12001055e+01 -3.08668025e+00 
 2.72673897e+03  2.11995575e+01 -3.15773289e+00 
 2.78961683e+03  2.11989840e+01 -3.23041513e+00 
 2.85394464e+03  2.11983839e+01 -3.30476393e+00 
 2.91975583e+03  2.11977558e+01 -3.38081704e+00 
 2.98708461e+03  2.11970985e+01 -3.45861305e+00 
 3.05596598e+03  2.11964106e+01 -3.53819139e+00 
 3.12643573e+03  2.11956908e+01 -3.61959234e+00 
 3.19853049e+03  2.11949375e+01 -3.70285705e+00 
 3.27228774e+03  2.11941492e+01 -3.78802756e+00 
 3.34774581e+03  2.11933243e+01 -3.87514681e+00 
 3.42494392e+03  2.11924611e+01 -3.96425867e+00 
 3.50392221e+03  2.11915578e+01 -4.05540793e+00 
 3.58472171e+03  2.11906125e+01 -4.14864035e+00 
 3.66738442e+03  2.11896233e+01 -4.24400265e+00 
 3.75195331e+03  2.11885883e+01 -4.34154253e+00 
 3.83847234e+03  2.11875052e+01 -4.44130870e+00 
 3.92698648e+03  2.11863718e+01 -4.54335089e+00 
 4.01754173e+03  2.11851859e+01 -4.64771985e+00 
 4.11018515e+03  2.11839450e+01 -4.75446739e+00 
 4.20496491e+03  2.11826466e+01 -4.86364639e+00 
 4.30193027e+03  2.11812880e+01 -4.97531080e+00 
 4.40113162e+03  2.11798664e+01 -5.08951568e+00 
 4.50262052e+03  2.11783790e+01 -5.20631719e+00 
 4.60644974e+03  2.11768228e+01 -5.32577262e+00 
 4.71267322e+03  2.11751945e+01 -5.44794041e+00 
 4.82134619e+03  2.11734909e+01 -5.57288015e+00 
 4.93252513e+03  2.11717086e+01 -5.70065258e+00 
 5.04626783e+03  2.11698438e+01 -5.83131966e+00 
 5.16263340e+03  2.11678929e+01 -5.96494451e+00 
 5.28168234e+03  2.11658518e+01 -6.10159148e+00 
 5.40347650e+03  2.11637166e+01 -6.24132611e+00 
 5.52807921e+03  2.11614828e+01 -6.38421518e+00 
 5.65555523e+03  2.11591460e+01 -6.53032672e+00 
 5.78597080e+03  2.11567014e+01 -6.67972998e+00 
 5.91939372e+03  2.11541443e+01 -6.83249546e+00 
 6.05589334e+03  2.11514694e+01 -6.98869492e+00 
 6.19554061e+03  2.11486715e+01 -7.14840139e+00 
 6.33840810e+03  2.11457449e+01 -7.31168915e+00 
 6.48457008e+03  2.11426837e+01 -7.47863373e+00 
 6.63410251e+03  2.11394821e+01 -7.64931195e+00 
 6.78708313e+03  2.11361335e+01 -7.82380186e+00 
 6.94359143e+03  2.11326313e+01 -8.00218277e+00 
 7.10370877e+03  2.11289687e+01 -8.18453524e+00 
 7.26751838e+03  2.11251384e+01 -8.37094107e+00 
 7.43510539e+03  2.11211329e+01 -8.56148326e+00 
 7.60655691e+03  2.11169444e+01 -8.75624605e+00 
 7.78196206e+03  2.11125647e+01 -8.95531485e+00 
 7.96141200e+03  2.11079852e+01 -9.15877623e+00 
 8.14500001e+03  2.11031970e+01 -9.36671792e+00 
 8.33282151e+03  2.10981910e+01 -9.57922875e+00 
 8.52497412e+03  2.10929573e+01 -9.79639864e+00 
 8.72155772e+03  2.10874861e+01 -1.00183185e+01 
 8.92267449e+03  2.10817667e+01 -1.02450804e+01 
 9.12842895e+03  2.10757883e+01 -1.04767772e+01 
 9.33892805e+03  2.10695394e+01 -1.07135027e+01 
 9.55428121e+03  2.10630084e+01 -1.09553516e+01 
 9.77460036e+03  2.10561828e+01 -1.12024194e+01 
 1.00000000e+04  2.10490499e+01 -1.14548022e+01 
 1.02305973e+04  2.10415963e+01 -1.17125969e+01 
 1.04665121e+04  2.10338082e+01 -1.19759007e+01 
