 frequency       v(Zin_dm)       v(Zin_dm)       v(Zin_cm)       v(Zin_cm)      
 1.00000000e-01  1.86300764e+08 -3.62155288e+04  5.23749588e+07 -6.81193968e+03 
 1.02305973e-01  1.86300764e+08 -3.70506490e+04  5.23749588e+07 -6.96902116e+03 
 1.04665121e-01  1.86300764e+08 -3.79050269e+04  5.23749587e+07 -7.12972490e+03 
 1.07078670e-01  1.86300763e+08 -3.87791065e+04  5.23749587e+07 -7.29413442e+03 
 1.09547876e-01  1.86300763e+08 -3.96733421e+04  5.23749586e+07 -7.46233518e+03 
 1.12074020e-01  1.86300763e+08 -4.05881986e+04  5.23749586e+07 -7.63441461e+03 
 1.14658417e-01  1.86300762e+08 -4.15241514e+04  5.23749585e+07 -7.81046214e+03 
 1.17302409e-01  1.86300762e+08 -4.24816870e+04  5.23749585e+07 -7.99056928e+03 
 1.20007371e-01  1.86300761e+08 -4.34613031e+04  5.23749584e+07 -8.17482964e+03 
 1.22774708e-01  1.86300761e+08 -4.44635089e+04  5.23749584e+07 -8.36333899e+03 
 1.25605860e-01  1.86300760e+08 -4.54888253e+04  5.23749583e+07 -8.55619532e+03 
 1.28502297e-01  1.86300760e+08 -4.65377852e+04  5.23749582e+07 -8.75349886e+03 
 1.31465525e-01  1.86300759e+08 -4.76109338e+04  5.23749582e+07 -8.95535217e+03 
 1.34497085e-01  1.86300759e+08 -4.87088289e+04  5.23749581e+07 -9.16186016e+03 
 1.37598551e-01  1.86300758e+08 -4.98320412e+04  5.23749580e+07 -9.37313017e+03 
 1.40771537e-01  1.86300758e+08 -5.09811545e+04  5.23749580e+07 -9.58927200e+03 
 1.44017690e-01  1.86300757e+08 -5.21567659e+04  5.23749579e+07 -9.81039801e+03 
 1.47338699e-01  1.86300756e+08 -5.33594867e+04  5.23749578e+07 -1.00366231e+04 
 1.50736290e-01  1.86300756e+08 -5.45899418e+04  5.23749577e+07 -1.02680649e+04 
 1.54212228e-01  1.86300755e+08 -5.58487709e+04  5.23749576e+07 -1.05048437e+04 
 1.57768320e-01  1.86300754e+08 -5.71366282e+04  5.23749575e+07 -1.07470825e+04 
 1.61406415e-01  1.86300753e+08 -5.84541832e+04  5.23749574e+07 -1.09949073e+04 
 1.65128404e-01  1.86300752e+08 -5.98021206e+04  5.23749573e+07 -1.12484469e+04 
 1.68936220e-01  1.86300751e+08 -6.11811410e+04  5.23749572e+07 -1.15078330e+04 
 1.72831844e-01  1.86300750e+08 -6.25919613e+04  5.23749571e+07 -1.17732005e+04 
 1.76817299e-01  1.86300749e+08 -6.40353147e+04  5.23749569e+07 -1.20446873e+04 
 1.80894658e-01  1.86300748e+08 -6.55119514e+04  5.23749568e+07 -1.23224345e+04 
 1.85066040e-01  1.86300747e+08 -6.70226389e+04  5.23749567e+07 -1.26065865e+04 
 1.89333613e-01  1.86300746e+08 -6.85681624e+04  5.23749565e+07 -1.28972909e+04 
 1.93699595e-01  1.86300745e+08 -7.01493253e+04  5.23749564e+07 -1.31946990e+04 
 1.98166255e-01  1.86300744e+08 -7.17669493e+04  5.23749562e+07 -1.34989651e+04 
 2.02735916e-01  1.86300743e+08 -7.34218752e+04  5.23749561e+07 -1.38102476e+04 
 2.07410951e-01  1.86300741e+08 -7.51149633e+04  5.23749559e+07 -1.41287081e+04 
 2.12193792e-01  1.86300740e+08 -7.68470935e+04  5.23749557e+07 -1.44545122e+04 
 2.17086923e-01  1.86300738e+08 -7.86191661e+04  5.23749555e+07 -1.47878293e+04 
 2.22092889e-01  1.86300737e+08 -8.04321021e+04  5.23749553e+07 -1.51288326e+04 
 2.27214291e-01  1.86300735e+08 -8.22868440e+04  5.23749551e+07 -1.54776993e+04 
 2.32453791e-01  1.86300733e+08 -8.41843556e+04  5.23749549e+07 -1.58346109e+04 
 2.37814113e-01  1.86300732e+08 -8.61256233e+04  5.23749547e+07 -1.61997526e+04 
 2.43298042e-01  1.86300730e+08 -8.81116560e+04  5.23749545e+07 -1.65733145e+04 
 2.48908429e-01  1.86300728e+08 -9.01434860e+04  5.23749542e+07 -1.69554906e+04 
 2.54648190e-01  1.86300726e+08 -9.22221694e+04  5.23749540e+07 -1.73464795e+04 
 2.60520309e-01  1.86300724e+08 -9.43487867e+04  5.23749537e+07 -1.77464845e+04 
 2.66527837e-01  1.86300721e+08 -9.65244430e+04  5.23749534e+07 -1.81557136e+04 
 2.72673897e-01  1.86300719e+08 -9.87502694e+04  5.23749531e+07 -1.85743793e+04 
 2.78961683e-01  1.86300717e+08 -1.01027423e+05  5.23749528e+07 -1.90026994e+04 
 2.85394464e-01  1.86300714e+08 -1.03357086e+05  5.23749525e+07 -1.94408964e+04 
 2.91975583e-01  1.86300711e+08 -1.05740471e+05  5.23749522e+07 -1.98891981e+04 
 2.98708461e-01  1.86300709e+08 -1.08178816e+05  5.23749518e+07 -2.03478375e+04 
 3.05596598e-01  1.86300706e+08 -1.10673389e+05  5.23749514e+07 -2.08170530e+04 
 3.12643573e-01  1.86300703e+08 -1.13225485e+05  5.23749511e+07 -2.12970884e+04 
 3.19853049e-01  1.86300699e+08 -1.15836433e+05  5.23749506e+07 -2.17881934e+04 
 3.27228774e-01  1.86300696e+08 -1.18507587e+05  5.23749502e+07 -2.22906230e+04 
 3.34774581e-01  1.86300693e+08 -1.21240338e+05  5.23749498e+07 -2.28046386e+04 
 3.42494392e-01  1.86300689e+08 -1.24036105e+05  5.23749493e+07 -2.33305072e+04 
 3.50392221e-01  1.86300685e+08 -1.26896341e+05  5.23749488e+07 -2.38685021e+04 
 3.58472171e-01  1.86300681e+08 -1.29822534e+05  5.23749483e+07 -2.44189031e+04 
 3.66738442e-01  1.86300677e+08 -1.32816203e+05  5.23749478e+07 -2.49819962e+04 
 3.75195331e-01  1.86300672e+08 -1.35878906e+05  5.23749472e+07 -2.55580740e+04 
 3.83847234e-01  1.86300668e+08 -1.39012233e+05  5.23749467e+07 -2.61474360e+04 
 3.92698648e-01  1.86300663e+08 -1.42217814e+05  5.23749460e+07 -2.67503885e+04 
 4.01754173e-01  1.86300658e+08 -1.45497315e+05  5.23749454e+07 -2.73672449e+04 
 4.11018515e-01  1.86300653e+08 -1.48852439e+05  5.23749447e+07 -2.79983258e+04 
 4.20496491e-01  1.86300647e+08 -1.52284932e+05  5.23749440e+07 -2.86439592e+04 
 4.30193027e-01  1.86300641e+08 -1.55796576e+05  5.23749433e+07 -2.93044808e+04 
 4.40113162e-01  1.86300635e+08 -1.59389198e+05  5.23749426e+07 -2.99802338e+04 
 4.50262052e-01  1.86300629e+08 -1.63064664e+05  5.23749418e+07 -3.06715694e+04 
 4.60644974e-01  1.86300622e+08 -1.66824885e+05  5.23749409e+07 -3.13788470e+04 
 4.71267322e-01  1.86300615e+08 -1.70671816e+05  5.23749400e+07 -3.21024342e+04 
 4.82134619e-01  1.86300608e+08 -1.74607455e+05  5.23749391e+07 -3.28427071e+04 
 4.93252513e-01  1.86300600e+08 -1.78633848e+05  5.23749382e+07 -3.36000504e+04 
 5.04626783e-01  1.86300592e+08 -1.82753089e+05  5.23749372e+07 -3.43748578e+04 
 5.16263340e-01  1.86300584e+08 -1.86967317e+05  5.23749361e+07 -3.51675321e+04 
 5.28168234e-01  1.86300575e+08 -1.91278724e+05  5.23749350e+07 -3.59784851e+04 
 5.40347650e-01  1.86300566e+08 -1.95689550e+05  5.23749338e+07 -3.68081384e+04 
 5.52807921e-01  1.86300556e+08 -2.00202088e+05  5.23749326e+07 -3.76569233e+04 
 5.65555523e-01  1.86300546e+08 -2.04818683e+05  5.23749314e+07 -3.85252808e+04 
 5.78597080e-01  1.86300536e+08 -2.09541735e+05  5.23749301e+07 -3.94136624e+04 
 5.91939372e-01  1.86300525e+08 -2.14373698e+05  5.23749287e+07 -4.03225298e+04 
 6.05589334e-01  1.86300513e+08 -2.19317084e+05  5.23749272e+07 -4.12523553e+04 
 6.19554061e-01  1.86300501e+08 -2.24374462e+05  5.23749257e+07 -4.22036222e+04 
 6.33840810e-01  1.86300489e+08 -2.29548461e+05  5.23749241e+07 -4.31768250e+04 
 6.48457008e-01  1.86300475e+08 -2.34841770e+05  5.23749225e+07 -4.41724695e+04 
 6.63410251e-01  1.86300462e+08 -2.40257140e+05  5.23749207e+07 -4.51910733e+04 
 6.78708313e-01  1.86300447e+08 -2.45797385e+05  5.23749189e+07 -4.62331656e+04 
 6.94359143e-01  1.86300432e+08 -2.51465386e+05  5.23749170e+07 -4.72992882e+04 
 7.10370877e-01  1.86300416e+08 -2.57264088e+05  5.23749150e+07 -4.83899951e+04 
 7.26751838e-01  1.86300400e+08 -2.63196505e+05  5.23749129e+07 -4.95058534e+04 
 7.43510539e-01  1.86300382e+08 -2.69265721e+05  5.23749107e+07 -5.06474429e+04 
 7.60655691e-01  1.86300364e+08 -2.75474888e+05  5.23749085e+07 -5.18153570e+04 
 7.78196206e-01  1.86300345e+08 -2.81827236e+05  5.23749061e+07 -5.30102027e+04 
 7.96141200e-01  1.86300325e+08 -2.88326065e+05  5.23749036e+07 -5.42326010e+04 
 8.14500001e-01  1.86300304e+08 -2.94974754e+05  5.23749009e+07 -5.54831874e+04 
 8.33282151e-01  1.86300283e+08 -3.01776756e+05  5.23748982e+07 -5.67626117e+04 
 8.52497412e-01  1.86300260e+08 -3.08735609e+05  5.23748953e+07 -5.80715390e+04 
 8.72155772e-01  1.86300236e+08 -3.15854928e+05  5.23748923e+07 -5.94106496e+04 
 8.92267449e-01  1.86300211e+08 -3.23138414e+05  5.23748892e+07 -6.07806395e+04 
 9.12842895e-01  1.86300185e+08 -3.30589852e+05  5.23748859e+07 -6.21822207e+04 
 9.33892805e-01  1.86300157e+08 -3.38213115e+05  5.23748824e+07 -6.36161218e+04 
 9.55428121e-01  1.86300129e+08 -3.46012165e+05  5.23748788e+07 -6.50830879e+04 
 9.77460036e-01  1.86300099e+08 -3.53991055e+05  5.23748751e+07 -6.65838815e+04 
 1.00000000e+00  1.86300067e+08 -3.62153933e+05  5.23748711e+07 -6.81192827e+04 
 1.02305973e+00  1.86300035e+08 -3.70505039e+05  5.23748670e+07 -6.96900894e+04 
 1.04665121e+00  1.86300000e+08 -3.79048715e+05  5.23748627e+07 -7.12971182e+04 
 1.07078670e+00  1.86299964e+08 -3.87789401e+05  5.23748581e+07 -7.29412042e+04 
 1.09547876e+00  1.86299927e+08 -3.96731640e+05  5.23748534e+07 -7.46232019e+04 
 1.12074020e+00  1.86299887e+08 -4.05880078e+05  5.23748484e+07 -7.63439855e+04 
 1.14658417e+00  1.86299846e+08 -4.15239471e+05  5.23748432e+07 -7.81044495e+04 
 1.17302409e+00  1.86299803e+08 -4.24814683e+05  5.23748378e+07 -7.99055087e+04 
 1.20007371e+00  1.86299758e+08 -4.34610689e+05  5.23748321e+07 -8.17480992e+04 
 1.22774708e+00  1.86299710e+08 -4.44632582e+05  5.23748262e+07 -8.36331788e+04 
 1.25605860e+00  1.86299661e+08 -4.54885568e+05  5.23748199e+07 -8.55617271e+04 
 1.28502297e+00  1.86299609e+08 -4.65374977e+05  5.23748134e+07 -8.75347466e+04 
 1.31465525e+00  1.86299555e+08 -4.76106259e+05  5.23748066e+07 -8.95532625e+04 
 1.34497085e+00  1.86299498e+08 -4.87084993e+05  5.23747994e+07 -9.16183240e+04 
 1.37598551e+00  1.86299439e+08 -4.98316882e+05  5.23747920e+07 -9.37310045e+04 
 1.40771537e+00  1.86299376e+08 -5.09807765e+05  5.23747841e+07 -9.58924018e+04 
 1.44017690e+00  1.86299311e+08 -5.21563612e+05  5.23747760e+07 -9.81036393e+04 
 1.47338699e+00  1.86299243e+08 -5.33590533e+05  5.23747674e+07 -1.00365866e+05 
 1.50736290e+00  1.86299172e+08 -5.45894777e+05  5.23747584e+07 -1.02680258e+05 
 1.54212228e+00  1.86299097e+08 -5.58482740e+05  5.23747490e+07 -1.05048019e+05 
 1.57768320e+00  1.86299019e+08 -5.71360961e+05  5.23747392e+07 -1.07470377e+05 
 1.61406415e+00  1.86298937e+08 -5.84536134e+05  5.23747289e+07 -1.09948594e+05 
 1.65128404e+00  1.86298852e+08 -5.98015105e+05  5.23747181e+07 -1.12483955e+05 
 1.68936220e+00  1.86298762e+08 -6.11804877e+05  5.23747069e+07 -1.15077780e+05 
 1.72831844e+00  1.86298668e+08 -6.25912618e+05  5.23746951e+07 -1.17731416e+05 
 1.76817299e+00  1.86298570e+08 -6.40345656e+05  5.23746827e+07 -1.20446243e+05 
 1.80894658e+00  1.86298468e+08 -6.55111493e+05  5.23746698e+07 -1.23223670e+05 
 1.85066040e+00  1.86298360e+08 -6.70217800e+05  5.23746563e+07 -1.26065142e+05 
 1.89333613e+00  1.86298248e+08 -6.85672428e+05  5.23746421e+07 -1.28972135e+05 
 1.93699595e+00  1.86298130e+08 -7.01483405e+05  5.23746273e+07 -1.31946161e+05 
 1.98166255e+00  1.86298007e+08 -7.17658948e+05  5.23746118e+07 -1.34988763e+05 
 2.02735916e+00  1.86297878e+08 -7.34207461e+05  5.23745956e+07 -1.38101525e+05 
 2.07410951e+00  1.86297743e+08 -7.51137543e+05  5.23745786e+07 -1.41286063e+05 
 2.12193792e+00  1.86297602e+08 -7.68457989e+05  5.23745608e+07 -1.44544032e+05 
 2.17086923e+00  1.86297454e+08 -7.86177798e+05  5.23745422e+07 -1.47877126e+05 
 2.22092889e+00  1.86297299e+08 -8.04306178e+05  5.23745227e+07 -1.51287076e+05 
 2.27214291e+00  1.86297137e+08 -8.22852545e+05  5.23745023e+07 -1.54775655e+05 
 2.32453791e+00  1.86296967e+08 -8.41826537e+05  5.23744810e+07 -1.58344676e+05 
 2.37814113e+00  1.86296790e+08 -8.61238009e+05  5.23744587e+07 -1.61995992e+05 
 2.43298042e+00  1.86296604e+08 -8.81097046e+05  5.23744353e+07 -1.65731502e+05 
 2.48908429e+00  1.86296410e+08 -9.01413965e+05  5.23744108e+07 -1.69553146e+05 
 2.54648190e+00  1.86296206e+08 -9.22199320e+05  5.23743852e+07 -1.73462911e+05 
 2.60520309e+00  1.86295993e+08 -9.43463909e+05  5.23743584e+07 -1.77462828e+05 
 2.66527837e+00  1.86295770e+08 -9.65218777e+05  5.23743304e+07 -1.81554976e+05 
 2.72673897e+00  1.86295537e+08 -9.87475224e+05  5.23743010e+07 -1.85741481e+05 
 2.78961683e+00  1.86295293e+08 -1.01024481e+06  5.23742703e+07 -1.90024517e+05 
 2.85394464e+00  1.86295037e+08 -1.03353937e+06  5.23742381e+07 -1.94406312e+05 
 2.91975583e+00  1.86294770e+08 -1.05737099e+06  5.23742044e+07 -1.98889141e+05 
 2.98708461e+00  1.86294490e+08 -1.08175205e+06  5.23741692e+07 -2.03475334e+05 
 3.05596598e+00  1.86294197e+08 -1.10669522e+06  5.23741323e+07 -2.08167274e+05 
 3.12643573e+00  1.86293890e+08 -1.13221345e+06  5.23740937e+07 -2.12967398e+05 
 3.19853049e+00  1.86293569e+08 -1.15831999e+06  5.23740533e+07 -2.17878201e+05 
 3.27228774e+00  1.86293233e+08 -1.18502840e+06  5.23740110e+07 -2.22902233e+05 
 3.34774581e+00  1.86292881e+08 -1.21235254e+06  5.23739668e+07 -2.28042106e+05 
 3.42494392e+00  1.86292513e+08 -1.24030661e+06  5.23739205e+07 -2.33300489e+05 
 3.50392221e+00  1.86292128e+08 -1.26890512e+06  5.23738720e+07 -2.38680114e+05 
 3.58472171e+00  1.86291725e+08 -1.29816292e+06  5.23738212e+07 -2.44183776e+05 
 3.66738442e+00  1.86291303e+08 -1.32809520e+06  5.23737681e+07 -2.49814335e+05 
 3.75195331e+00  1.86290861e+08 -1.35871750e+06  5.23737125e+07 -2.55574715e+05 
 3.83847234e+00  1.86290399e+08 -1.39004571e+06  5.23736544e+07 -2.61467908e+05 
 3.92698648e+00  1.86289915e+08 -1.42209609e+06  5.23735935e+07 -2.67496976e+05 
 4.01754173e+00  1.86289408e+08 -1.45488529e+06  5.23735297e+07 -2.73665051e+05 
 4.11018515e+00  1.86288878e+08 -1.48843031e+06  5.23734630e+07 -2.79975337e+05 
 4.20496491e+00  1.86288324e+08 -1.52274858e+06  5.23733932e+07 -2.86431111e+05 
 4.30193027e+00  1.86287743e+08 -1.55785789e+06  5.23733201e+07 -2.93035726e+05 
 4.40113162e+00  1.86287135e+08 -1.59377647e+06  5.23732436e+07 -2.99792613e+05 
 4.50262052e+00  1.86286499e+08 -1.63052296e+06  5.23731636e+07 -3.06705281e+05 
 4.60644974e+00  1.86285833e+08 -1.66811642e+06  5.23730798e+07 -3.13777320e+05 
 4.71267322e+00  1.86285136e+08 -1.70657635e+06  5.23729921e+07 -3.21012402e+05 
 4.82134619e+00  1.86284407e+08 -1.74592270e+06  5.23729003e+07 -3.28414286e+05 
 4.93252513e+00  1.86283644e+08 -1.78617589e+06  5.23728043e+07 -3.35986814e+05 
 5.04626783e+00  1.86282845e+08 -1.82735678e+06  5.23727037e+07 -3.43733920e+05 
 5.16263340e+00  1.86282009e+08 -1.86948675e+06  5.23725985e+07 -3.51659624e+05 
 5.28168234e+00  1.86281133e+08 -1.91258762e+06  5.23724883e+07 -3.59768044e+05 
 5.40347650e+00  1.86280217e+08 -1.95668175e+06  5.23723730e+07 -3.68063387e+05 
 5.52807921e+00  1.86279259e+08 -2.00179200e+06  5.23722524e+07 -3.76549962e+05 
 5.65555523e+00  1.86278255e+08 -2.04794175e+06  5.23721261e+07 -3.85232173e+05 
 5.78597080e+00  1.86277205e+08 -2.09515492e+06  5.23719939e+07 -3.94114528e+05 
 5.91939372e+00  1.86276106e+08 -2.14345597e+06  5.23718555e+07 -4.03201638e+05 
 6.05589334e+00  1.86274955e+08 -2.19286994e+06  5.23717107e+07 -4.12498218e+05 
 6.19554061e+00  1.86273751e+08 -2.24342243e+06  5.23715592e+07 -4.22009094e+05 
 6.33840810e+00  1.86272491e+08 -2.29513961e+06  5.23714005e+07 -4.31739202e+05 
 6.48457008e+00  1.86271171e+08 -2.34804828e+06  5.23712345e+07 -4.41693592e+05 
 6.63410251e+00  1.86269791e+08 -2.40217584e+06  5.23710607e+07 -4.51877427e+05 
 6.78708313e+00  1.86268346e+08 -2.45755030e+06  5.23708789e+07 -4.62295993e+05 
 6.94359143e+00  1.86266833e+08 -2.51420033e+06  5.23706885e+07 -4.72954694e+05 
 7.10370877e+00  1.86265250e+08 -2.57215525e+06  5.23704892e+07 -4.83859061e+05 
 7.26751838e+00  1.86263594e+08 -2.63144505e+06  5.23702807e+07 -4.95014749e+05 
 7.43510539e+00  1.86261860e+08 -2.69210039e+06  5.23700625e+07 -5.06427545e+05 
 7.60655691e+00  1.86260045e+08 -2.75415266e+06  5.23698340e+07 -5.18103367e+05 
 7.78196206e+00  1.86258145e+08 -2.81763394e+06  5.23695949e+07 -5.30048271e+05 
 7.96141200e+00  1.86256157e+08 -2.88257705e+06  5.23693447e+07 -5.42268450e+05 
 8.14500001e+00  1.86254076e+08 -2.94901555e+06  5.23690828e+07 -5.54770239e+05 
 8.33282151e+00  1.86251898e+08 -3.01698377e+06  5.23688086e+07 -5.67560120e+05 
 8.52497412e+00  1.86249619e+08 -3.08651683e+06  5.23685217e+07 -5.80644722e+05 
 8.72155772e+00  1.86247233e+08 -3.15765062e+06  5.23682214e+07 -5.94030826e+05 
 8.92267449e+00  1.86244737e+08 -3.23042188e+06  5.23679071e+07 -6.07725369e+05 
 9.12842895e+00  1.86242123e+08 -3.30486816e+06  5.23675781e+07 -6.21735446e+05 
 9.33892805e+00  1.86239388e+08 -3.38102788e+06  5.23672338e+07 -6.36068315e+05 
 9.55428121e+00  1.86236526e+08 -3.45894030e+06  5.23668734e+07 -6.50731400e+05 
 9.77460036e+00  1.86233530e+08 -3.53864559e+06  5.23664963e+07 -6.65732296e+05 
 1.00000000e+01  1.86230394e+08 -3.62018484e+06  5.23661015e+07 -6.81078768e+05 
 1.02305973e+01  1.86227112e+08 -3.70360006e+06  5.23656883e+07 -6.96778763e+05 
 1.04665121e+01  1.86223677e+08 -3.78893418e+06  5.23652559e+07 -7.12840406e+05 
 1.07078670e+01  1.86220082e+08 -3.87623114e+06  5.23648033e+07 -7.29272010e+05 
 1.09547876e+01  1.86216319e+08 -3.96553586e+06  5.23643296e+07 -7.46082076e+05 
 1.12074020e+01  1.86212382e+08 -4.05689425e+06  5.23638338e+07 -7.63279300e+05 
 1.14658417e+01  1.86208260e+08 -4.15035326e+06  5.23633149e+07 -7.80872576e+05 
 1.17302409e+01  1.86203947e+08 -4.24596092e+06  5.23627717e+07 -7.98871001e+05 
 1.20007371e+01  1.86199432e+08 -4.34376631e+06  5.23622033e+07 -8.17283878e+05 
 1.22774708e+01  1.86194707e+08 -4.44381962e+06  5.23616083e+07 -8.36120723e+05 
 1.25605860e+01  1.86189762e+08 -4.54617215e+06  5.23609856e+07 -8.55391268e+05 
 1.28502297e+01  1.86184587e+08 -4.65087636e+06  5.23603339e+07 -8.75105467e+05 
 1.31465525e+01  1.86179170e+08 -4.75798587e+06  5.23596518e+07 -8.95273500e+05 
 1.34497085e+01  1.86173501e+08 -4.86755552e+06  5.23589379e+07 -9.15905777e+05 
 1.37598551e+01  1.86167568e+08 -4.97964132e+06  5.23581907e+07 -9.37012944e+05 
 1.40771537e+01  1.86161358e+08 -5.09430058e+06  5.23574087e+07 -9.58605891e+05 
 1.44017690e+01  1.86154860e+08 -5.21159182e+06  5.23565902e+07 -9.80695753e+05 
 1.47338699e+01  1.86148058e+08 -5.33157491e+06  5.23557335e+07 -1.00329392e+06 
 1.50736290e+01  1.86140940e+08 -5.45431100e+06  5.23548369e+07 -1.02641203e+06 
 1.54212228e+01  1.86133490e+08 -5.57986260e+06  5.23538986e+07 -1.05006199e+06 
 1.57768320e+01  1.86125694e+08 -5.70829360e+06  5.23529165e+07 -1.07425598e+06 
 1.61406415e+01  1.86117534e+08 -5.83966928e+06  5.23518886e+07 -1.09900646e+06 
 1.65128404e+01  1.86108995e+08 -5.97405634e+06  5.23508128e+07 -1.12432614e+06 
 1.68936220e+01  1.86100058e+08 -6.11152296e+06  5.23496868e+07 -1.15022806e+06 
 1.72831844e+01  1.86090705e+08 -6.25213878e+06  5.23485084e+07 -1.17672552e+06 
 1.76817299e+01  1.86080917e+08 -6.39597495e+06  5.23472751e+07 -1.20383213e+06 
 1.80894658e+01  1.86070673e+08 -6.54310416e+06  5.23459843e+07 -1.23156180e+06 
 1.85066040e+01  1.86059952e+08 -6.69360068e+06  5.23446333e+07 -1.25992877e+06 
 1.89333613e+01  1.86048733e+08 -6.84754035e+06  5.23432194e+07 -1.28894757e+06 
 1.93699595e+01  1.86036992e+08 -7.00500066e+06  5.23417396e+07 -1.31863307e+06 
 1.98166255e+01  1.86024704e+08 -7.16606072e+06  5.23401909e+07 -1.34900048e+06 
 2.02735916e+01  1.86011846e+08 -7.33080134e+06  5.23385700e+07 -1.38006532e+06 
 2.07410951e+01  1.85998389e+08 -7.49930504e+06  5.23368736e+07 -1.41184350e+06 
 2.12193792e+01  1.85984306e+08 -7.67165606e+06  5.23350982e+07 -1.44435123e+06 
 2.17086923e+01  1.85969569e+08 -7.84794043e+06  5.23332401e+07 -1.47760511e+06 
 2.22092889e+01  1.85954147e+08 -8.02824595e+06  5.23312955e+07 -1.51162212e+06 
 2.27214291e+01  1.85938008e+08 -8.21266225e+06  5.23292603e+07 -1.54641957e+06 
 2.32453791e+01  1.85921119e+08 -8.40128082e+06  5.23271303e+07 -1.58201519e+06 
 2.37814113e+01  1.85903445e+08 -8.59419501e+06  5.23249011e+07 -1.61842708e+06 
 2.43298042e+01  1.85884951e+08 -8.79150007e+06  5.23225681e+07 -1.65567375e+06 
 2.48908429e+01  1.85865598e+08 -8.99329321e+06  5.23201266e+07 -1.69377410e+06 
 2.54648190e+01  1.85845346e+08 -9.19967357e+06  5.23175713e+07 -1.73274744e+06 
 2.60520309e+01  1.85824154e+08 -9.41074227e+06  5.23148972e+07 -1.77261352e+06 
