 frequency       v(inoise_spectrum) v(onoise_spectrum)
 1.00000000e+00  9.89509751e-06  9.28900269e-06 
 1.02305973e+00  9.78307006e-06  9.18383715e-06 
 1.04665121e+00  9.67231378e-06  9.07986492e-06 
 1.07078670e+00  9.56281430e-06  8.97707250e-06 
 1.09547876e+00  9.45455738e-06  8.87544653e-06 
 1.12074020e+00  9.34752895e-06  8.77497382e-06 
 1.14658417e+00  9.24171511e-06  8.67564129e-06 
 1.17302409e+00  9.13710211e-06  8.57743605e-06 
 1.20007371e+00  9.03367636e-06  8.48034533e-06 
 1.22774708e+00  8.93142441e-06  8.38435652e-06 
 1.25605860e+00  8.83033298e-06  8.28945715e-06 
 1.28502297e+00  8.73038894e-06  8.19563489e-06 
 1.31465525e+00  8.63157930e-06  8.10287753e-06 
 1.34497085e+00  8.53389121e-06  8.01117304e-06 
 1.37598551e+00  8.43731200e-06  7.92050950e-06 
 1.40771537e+00  8.34182910e-06  7.83087512e-06 
 1.44017690e+00  8.24743010e-06  7.74225826e-06 
 1.47338699e+00  8.15410276e-06  7.65464740e-06 
 1.50736290e+00  8.06183493e-06  7.56803116e-06 
 1.54212228e+00  7.97061462e-06  7.48239829e-06 
 1.57768320e+00  7.88043000e-06  7.39773765e-06 
 1.61406415e+00  7.79126933e-06  7.31403826e-06 
 1.65128404e+00  7.70312103e-06  7.23128922e-06 
 1.68936220e+00  7.61597364e-06  7.14947979e-06 
 1.72831844e+00  7.52981586e-06  7.06859934e-06 
 1.76817299e+00  7.44463647e-06  6.98863736e-06 
 1.80894658e+00  7.36042440e-06  6.90958346e-06 
 1.85066040e+00  7.27716873e-06  6.83142737e-06 
 1.89333613e+00  7.19485863e-06  6.75415892e-06 
 1.93699595e+00  7.11348340e-06  6.67776809e-06 
 1.98166255e+00  7.03303247e-06  6.60224495e-06 
 2.02735916e+00  6.95349539e-06  6.52757968e-06 
 2.07410951e+00  6.87486182e-06  6.45376257e-06 
 2.12193792e+00  6.79712155e-06  6.38078405e-06 
 2.17086923e+00  6.72026447e-06  6.30863462e-06 
 2.22092889e+00  6.64428059e-06  6.23730491e-06 
 2.27214291e+00  6.56916005e-06  6.16678565e-06 
 2.32453791e+00  6.49489307e-06  6.09706768e-06 
 2.37814113e+00  6.42147002e-06  6.02814194e-06 
 2.43298042e+00  6.34888136e-06  5.95999948e-06 
 2.48908429e+00  6.27711763e-06  5.89263143e-06 
 2.54648190e+00  6.20616954e-06  5.82602905e-06 
 2.60520309e+00  6.13602785e-06  5.76018368e-06 
 2.66527837e+00  6.06668344e-06  5.69508676e-06 
 2.72673897e+00  5.99812732e-06  5.63072984e-06 
 2.78961683e+00  5.93035057e-06  5.56710456e-06 
 2.85394464e+00  5.86334439e-06  5.50420264e-06 
 2.91975583e+00  5.79710006e-06  5.44201591e-06 
 2.98708461e+00  5.73160898e-06  5.38053629e-06 
 3.05596598e+00  5.66686265e-06  5.31975580e-06 
 3.12643573e+00  5.60285263e-06  5.25966653e-06 
 3.19853049e+00  5.53957063e-06  5.20026068e-06 
 3.27228774e+00  5.47700842e-06  5.14153053e-06 
 3.34774581e+00  5.41515786e-06  5.08346844e-06 
 3.42494392e+00  5.35401092e-06  5.02606688e-06 
 3.50392221e+00  5.29355966e-06  4.96931838e-06 
 3.58472171e+00  5.23379621e-06  4.91321556e-06 
 3.66738442e+00  5.17471282e-06  4.85775115e-06 
 3.75195331e+00  5.11630180e-06  4.80291792e-06 
 3.83847234e+00  5.05855557e-06  4.74870877e-06 
 3.92698648e+00  5.00146662e-06  4.69511663e-06 
 4.01754173e+00  4.94502753e-06  4.64213455e-06 
 4.11018515e+00  4.88923098e-06  4.58975565e-06 
 4.20496491e+00  4.83406970e-06  4.53797311e-06 
 4.30193027e+00  4.77953653e-06  4.48678021e-06 
 4.40113162e+00  4.72562439e-06  4.43617030e-06 
 4.50262052e+00  4.67232626e-06  4.38613679e-06 
 4.60644974e+00  4.61963523e-06  4.33667319e-06 
 4.71267322e+00  4.56754445e-06  4.28777307e-06 
 4.82134619e+00  4.51604714e-06  4.23943008e-06 
 4.93252513e+00  4.46513662e-06  4.19163793e-06 
 5.04626783e+00  4.41480626e-06  4.14439041e-06 
 5.16263340e+00  4.36504954e-06  4.09768139e-06 
 5.28168234e+00  4.31585997e-06  4.05150479e-06 
 5.40347650e+00  4.26723118e-06  4.00585461e-06 
 5.52807921e+00  4.21915684e-06  3.96072492e-06 
 5.65555523e+00  4.17163071e-06  3.91610985e-06 
 5.78597080e+00  4.12464660e-06  3.87200362e-06 
 5.91939372e+00  4.07819841e-06  3.82840048e-06 
 6.05589334e+00  4.03228011e-06  3.78529477e-06 
 6.19554061e+00  3.98688573e-06  3.74268088e-06 
 6.33840810e+00  3.94200937e-06  3.70055329e-06 
 6.48457008e+00  3.89764520e-06  3.65890651e-06 
 6.63410251e+00  3.85378745e-06  3.61773514e-06 
 6.78708313e+00  3.81043042e-06  3.57703382e-06 
 6.94359143e+00  3.76756848e-06  3.53679726e-06 
 7.10370877e+00  3.72519605e-06  3.49702023e-06 
 7.26751838e+00  3.68330764e-06  3.45769757e-06 
 7.43510539e+00  3.64189780e-06  3.41882416e-06 
 7.60655691e+00  3.60096114e-06  3.38039495e-06 
 7.78196206e+00  3.56049234e-06  3.34240496e-06 
 7.96141200e+00  3.52048615e-06  3.30484923e-06 
 8.14500001e+00  3.48093737e-06  3.26772289e-06 
 8.33282151e+00  3.44184085e-06  3.23102111e-06 
 8.52497412e+00  3.40319152e-06  3.19473913e-06 
 8.72155772e+00  3.36498435e-06  3.15887222e-06 
 8.92267449e+00  3.32721437e-06  3.12341574e-06 
 9.12842895e+00  3.28987669e-06  3.08836506e-06 
 9.33892805e+00  3.25296643e-06  3.05371563e-06 
 9.55428121e+00  3.21647881e-06  3.01946295e-06 
 9.77460036e+00  3.18040908e-06  2.98560257e-06 
 1.00000000e+01  3.14475256e-06  2.95213008e-06 
 1.02305973e+01  3.10950461e-06  2.91904113e-06 
 1.04665121e+01  3.07466064e-06  2.88633143e-06 
 1.07078670e+01  3.04021614e-06  2.85399673e-06 
 1.09547876e+01  3.00616662e-06  2.82203280e-06 
 1.12074020e+01  2.97250765e-06  2.79043552e-06 
 1.14658417e+01  2.93923486e-06  2.75920076e-06 
 1.17302409e+01  2.90634393e-06  2.72832446e-06 
 1.20007371e+01  2.87383057e-06  2.69780261e-06 
 1.22774708e+01  2.84169057e-06  2.66763125e-06 
 1.25605860e+01  2.80991974e-06  2.63780645e-06 
 1.28502297e+01  2.77851395e-06  2.60832433e-06 
 1.31465525e+01  2.74746913e-06  2.57918106e-06 
 1.34497085e+01  2.71678122e-06  2.55037286e-06 
 1.37598551e+01  2.68644625e-06  2.52189596e-06 
 1.40771537e+01  2.65646027e-06  2.49374669e-06 
 1.44017690e+01  2.62681938e-06  2.46592136e-06 
 1.47338699e+01  2.59751973e-06  2.43841637e-06 
 1.50736290e+01  2.56855750e-06  2.41122813e-06 
 1.54212228e+01  2.53992893e-06  2.38435312e-06 
 1.57768320e+01  2.51163029e-06  2.35778784e-06 
 1.61406415e+01  2.48365792e-06  2.33152883e-06 
 1.65128404e+01  2.45600816e-06  2.30557267e-06 
 1.68936220e+01  2.42867742e-06  2.27991600e-06 
 1.72831844e+01  2.40166215e-06  2.25455547e-06 
 1.76817299e+01  2.37495883e-06  2.22948778e-06 
 1.80894658e+01  2.34856400e-06  2.20470968e-06 
 1.85066040e+01  2.32247421e-06  2.18021794e-06 
 1.89333613e+01  2.29668607e-06  2.15600938e-06 
 1.93699595e+01  2.27119623e-06  2.13208084e-06 
 1.98166255e+01  2.24600137e-06  2.10842922e-06 
 2.02735916e+01  2.22109821e-06  2.08505143e-06 
 2.07410951e+01  2.19648351e-06  2.06194443e-06 
 2.12193792e+01  2.17215407e-06  2.03910522e-06 
 2.17086923e+01  2.14810672e-06  2.01653082e-06 
 2.22092889e+01  2.12433834e-06  1.99421830e-06 
 2.27214291e+01  2.10084583e-06  1.97216475e-06 
 2.32453791e+01  2.07762612e-06  1.95036730e-06 
 2.37814113e+01  2.05467621e-06  1.92882312e-06 
 2.43298042e+01  2.03199309e-06  1.90752939e-06 
 2.48908429e+01  2.00957382e-06  1.88648335e-06 
 2.54648190e+01  1.98741548e-06  1.86568225e-06 
 2.60520309e+01  1.96551519e-06  1.84512339e-06 
 2.66527837e+01  1.94387008e-06  1.82480409e-06 
 2.72673897e+01  1.92247734e-06  1.80472170e-06 
 2.78961683e+01  1.90133418e-06  1.78487360e-06 
 2.85394464e+01  1.88043786e-06  1.76525722e-06 
 2.91975583e+01  1.85978564e-06  1.74586999e-06 
 2.98708461e+01  1.83937483e-06  1.72670939e-06 
 3.05596598e+01  1.81920278e-06  1.70777291e-06 
 3.12643573e+01  1.79926685e-06  1.68905810e-06 
 3.19853049e+01  1.77956445e-06  1.67056252e-06 
 3.27228774e+01  1.76009301e-06  1.65228374e-06 
 3.34774581e+01  1.74084999e-06  1.63421939e-06 
 3.42494392e+01  1.72183287e-06  1.61636711e-06 
 3.50392221e+01  1.70303918e-06  1.59872457e-06 
 3.58472171e+01  1.68446646e-06  1.58128947e-06 
 3.66738442e+01  1.66611230e-06  1.56405954e-06 
 3.75195331e+01  1.64797429e-06  1.54703252e-06 
 3.83847234e+01  1.63005007e-06  1.53020619e-06 
 3.92698648e+01  1.61233730e-06  1.51357836e-06 
 4.01754173e+01  1.59483366e-06  1.49714686e-06 
 4.11018515e+01  1.57753687e-06  1.48090953e-06 
 4.20496491e+01  1.56044466e-06  1.46486425e-06 
 4.30193027e+01  1.54355481e-06  1.44900894e-06 
 4.40113162e+01  1.52686510e-06  1.43334151e-06 
 4.50262052e+01  1.51037335e-06  1.41785992e-06 
 4.60644974e+01  1.49407741e-06  1.40256213e-06 
 4.71267322e+01  1.47797514e-06  1.38744616e-06 
 4.82134619e+01  1.46206444e-06  1.37251002e-06 
 4.93252513e+01  1.44634322e-06  1.35775175e-06 
 5.04626783e+01  1.43080942e-06  1.34316943e-06 
 5.16263340e+01  1.41546100e-06  1.32876114e-06 
 5.28168234e+01  1.40029597e-06  1.31452500e-06 
 5.40347650e+01  1.38531232e-06  1.30045913e-06 
 5.52807921e+01  1.37050809e-06  1.28656169e-06 
 5.65555523e+01  1.35588135e-06  1.27283086e-06 
 5.78597080e+01  1.34143016e-06  1.25926484e-06 
 5.91939372e+01  1.32715263e-06  1.24586184e-06 
 6.05589334e+01  1.31304689e-06  1.23262010e-06 
 6.19554061e+01  1.29911108e-06  1.21953789e-06 
 6.33840810e+01  1.28534337e-06  1.20661348e-06 
 6.48457008e+01  1.27174195e-06  1.19384517e-06 
 6.63410251e+01  1.25830501e-06  1.18123127e-06 
 6.78708313e+01  1.24503081e-06  1.16877014e-06 
 6.94359143e+01  1.23191758e-06  1.15646012e-06 
 7.10370877e+01  1.21896359e-06  1.14429959e-06 
 7.26751838e+01  1.20616714e-06  1.13228695e-06 
 7.43510539e+01  1.19352653e-06  1.12042061e-06 
 7.60655691e+01  1.18104010e-06  1.10869900e-06 
 7.78196206e+01  1.16870619e-06  1.09712056e-06 
 7.96141200e+01  1.15652318e-06  1.08568378e-06 
 8.14500001e+01  1.14448944e-06  1.07438713e-06 
 8.33282151e+01  1.13260337e-06  1.06322911e-06 
 8.52497412e+01  1.12086342e-06  1.05220825e-06 
 8.72155772e+01  1.10926800e-06  1.04132308e-06 
 8.92267449e+01  1.09781559e-06  1.03057216e-06 
 9.12842895e+01  1.08650466e-06  1.01995404e-06 
 9.33892805e+01  1.07533370e-06  1.00946733e-06 
 9.55428121e+01  1.06430123e-06  9.99110614e-07 
 9.77460036e+01  1.05340576e-06  9.88882519e-07 
 1.00000000e+02  1.04264585e-06  9.78781674e-07 
 1.02305973e+02  1.03202006e-06  9.68806731e-07 
 1.04665121e+02  1.02152695e-06  9.58956351e-07 
 1.07078670e+02  1.01116514e-06  9.49229214e-07 
 1.09547876e+02  1.00093321e-06  9.39624015e-07 
 1.12074020e+02  9.90829802e-07  9.30139461e-07 
 1.14658417e+02  9.80853551e-07  9.20774275e-07 
 1.17302409e+02  9.71003112e-07  9.11527196e-07 
 1.20007371e+02  9.61277154e-07  9.02396972e-07 
 1.22774708e+02  9.51674363e-07  8.93382371e-07 
 1.25605860e+02  9.42193436e-07  8.84482170e-07 
 1.28502297e+02  9.32833088e-07  8.75695162e-07 
 1.31465525e+02  9.23592046e-07  8.67020153e-07 
 1.34497085e+02  9.14469051e-07  8.58455960e-07 
 1.37598551e+02  9.05462860e-07  8.50001416e-07 
 1.40771537e+02  8.96572240e-07  8.41655364e-07 
 1.44017690e+02  8.87795974e-07  8.33416663e-07 
 1.47338699e+02  8.79132858e-07  8.25284180e-07 
 1.50736290e+02  8.70581700e-07  8.17256797e-07 
 1.54212228e+02  8.62141321e-07  8.09333408e-07 
 1.57768320e+02  8.53810554e-07  8.01512918e-07 
 1.61406415e+02  8.45588247e-07  7.93794244e-07 
 1.65128404e+02  8.37473258e-07  7.86176314e-07 
 1.68936220e+02  8.29464457e-07  7.78658068e-07 
 1.72831844e+02  8.21560727e-07  7.71238457e-07 
 1.76817299e+02  8.13760961e-07  7.63916442e-07 
 1.80894658e+02  8.06064066e-07  7.56690997e-07 
 1.85066040e+02  7.98468958e-07  7.49561105e-07 
 1.89333613e+02  7.90974566e-07  7.42525760e-07 
 1.93699595e+02  7.83579829e-07  7.35583965e-07 
 1.98166255e+02  7.76283696e-07  7.28734734e-07 
 2.02735916e+02  7.69085129e-07  7.21977093e-07 
 2.07410951e+02  7.61983097e-07  7.15310076e-07 
 2.12193792e+02  7.54976583e-07  7.08732725e-07 
 2.17086923e+02  7.48064578e-07  7.02244094e-07 
 2.22092889e+02  7.41246084e-07  6.95843246e-07 
 2.27214291e+02  7.34520111e-07  6.89529252e-07 
 2.32453791e+02  7.27885681e-07  6.83301194e-07 
 2.37814113e+02  7.21341824e-07  6.77158160e-07 
 2.43298042e+02  7.14887579e-07  6.71099251e-07 
 2.48908429e+02  7.08521996e-07  6.65123572e-07 
 2.54648190e+02  7.02244132e-07  6.59230240e-07 
 2.60520309e+02  6.96053054e-07  6.53418378e-07 
 2.66527837e+02  6.89947838e-07  6.47687118e-07 
 2.72673897e+02  6.83927567e-07  6.42035601e-07 
 2.78961683e+02  6.77991335e-07  6.36462974e-07 
 2.85394464e+02  6.72138241e-07  6.30968393e-07 
 2.91975583e+02  6.66367394e-07  6.25551022e-07 
 2.98708461e+02  6.60677912e-07  6.20210032e-07 
 3.05596598e+02  6.55068919e-07  6.14944600e-07 
 3.12643573e+02  6.49539547e-07  6.09753913e-07 
 3.19853049e+02  6.44088937e-07  6.04637163e-07 
 3.27228774e+02  6.38716236e-07  5.99593550e-07 
 3.34774581e+02  6.33420598e-07  5.94622280e-07 
 3.42494392e+02  6.28201185e-07  5.89722566e-07 
 3.50392221e+02  6.23057167e-07  5.84893629e-07 
 3.58472171e+02  6.17987720e-07  5.80134695e-07 
 3.66738442e+02  6.12992026e-07  5.75444996e-07 
 3.75195331e+02  6.08069275e-07  5.70823773e-07 
 3.83847234e+02  6.03218663e-07  5.66270270e-07 
 3.92698648e+02  5.98439393e-07  5.61783738e-07 
 4.01754173e+02  5.93730673e-07  5.57363436e-07 
 4.11018515e+02  5.89091719e-07  5.53008627e-07 
 4.20496491e+02  5.84521753e-07  5.48718579e-07 
 4.30193027e+02  5.80020002e-07  5.44492568e-07 
 4.40113162e+02  5.75585699e-07  5.40329875e-07 
 4.50262052e+02  5.71218085e-07  5.36229784e-07 
 4.60644974e+02  5.66916403e-07  5.32191588e-07 
 4.71267322e+02  5.62679906e-07  5.28214584e-07 
 4.82134619e+02  5.58507850e-07  5.24298073e-07 
 4.93252513e+02  5.54399497e-07  5.20441363e-07 
 5.04626783e+02  5.50354114e-07  5.16643767e-07 
 5.16263340e+02  5.46370974e-07  5.12904601e-07 
 5.28168234e+02  5.42449357e-07  5.09223189e-07 
 5.40347650e+02  5.38588544e-07  5.05598858e-07 
 5.52807921e+02  5.34787826e-07  5.02030939e-07 
 5.65555523e+02  5.31046496e-07  4.98518771e-07 
 5.78597080e+02  5.27363852e-07  4.95061695e-07 
 5.91939372e+02  5.23739199e-07  4.91659058e-07 
 6.05589334e+02  5.20171846e-07  4.88310210e-07 
 6.19554061e+02  5.16661106e-07  4.85014508e-07 
 6.33840810e+02  5.13206297e-07  4.81771311e-07 
 6.48457008e+02  5.09806744e-07  4.78579985e-07 
 6.63410251e+02  5.06461775e-07  4.75439900e-07 
 6.78708313e+02  5.03170721e-07  4.72350427e-07 
 6.94359143e+02  4.99932922e-07  4.69310947e-07 
 7.10370877e+02  4.96747718e-07  4.66320841e-07 
 7.26751838e+02  4.93614457e-07  4.63379496e-07 
 7.43510539e+02  4.90532491e-07  4.60486303e-07 
 7.60655691e+02  4.87501174e-07  4.57640658e-07 
 7.78196206e+02  4.84519868e-07  4.54841960e-07 
 7.96141200e+02  4.81587938e-07  4.52089613e-07 
 8.14500001e+02  4.78704754e-07  4.49383026e-07 
 8.33282151e+02  4.75869688e-07  4.46721610e-07 
 8.52497412e+02  4.73082120e-07  4.44104783e-07 
 8.72155772e+02  4.70341433e-07  4.41531964e-07 
 8.92267449e+02  4.67647014e-07  4.39002580e-07 
 9.12842895e+02  4.64998255e-07  4.36516058e-07 
 9.33892805e+02  4.62394552e-07  4.34071833e-07 
 9.55428121e+02  4.59835307e-07  4.31669342e-07 
 9.77460036e+02  4.57319923e-07  4.29308026e-07 
 1.00000000e+03  4.54847812e-07  4.26987331e-07 
 1.02305973e+03  4.52418386e-07  4.24706708e-07 
 1.04665121e+03  4.50031065e-07  4.22465610e-07 
 1.07078670e+03  4.47685272e-07  4.20263495e-07 
 1.09547876e+03  4.45380434e-07  4.18099827e-07 
 1.12074020e+03  4.43115983e-07  4.15974072e-07 
 1.14658417e+03  4.40891355e-07  4.13885701e-07 
 1.17302409e+03  4.38705992e-07  4.11834189e-07 
 1.20007371e+03  4.36559339e-07  4.09819016e-07 
 1.22774708e+03  4.34450845e-07  4.07839665e-07 
 1.25605860e+03  4.32379967e-07  4.05895624e-07 
 1.28502297e+03  4.30346162e-07  4.03986385e-07 
 1.31465525e+03  4.28348894e-07  4.02111446e-07 
 1.34497085e+03  4.26387632e-07  4.00270307e-07 
 1.37598551e+03  4.24461849e-07  3.98462472e-07 
 1.40771537e+03  4.22571022e-07  3.96687453e-07 
 1.44017690e+03  4.20714632e-07  3.94944761e-07 
 1.47338699e+03  4.18892168e-07  3.93233916e-07 
 1.50736290e+03  4.17103121e-07  3.91554441e-07 
 1.54212228e+03  4.15346986e-07  3.89905862e-07 
 1.57768320e+03  4.13623265e-07  3.88287710e-07 
 1.61406415e+03  4.11931463e-07  3.86699523e-07 
 1.65128404e+03  4.10271092e-07  3.85140839e-07 
 1.68936220e+03  4.08641665e-07  3.83611205e-07 
 1.72831844e+03  4.07042703e-07  3.82110168e-07 
 1.76817299e+03  4.05473731e-07  3.80637284e-07 
 1.80894658e+03  4.03934278e-07  3.79192111e-07 
 1.85066040e+03  4.02423878e-07  3.77774210e-07 
 1.89333613e+03  4.00942072e-07  3.76383151e-07 
 1.93699595e+03  3.99488402e-07  3.75018505e-07 
 1.98166255e+03  3.98062419e-07  3.73679848e-07 
 2.02735916e+03  3.96663676e-07  3.72366761e-07 
 2.07410951e+03  3.95291731e-07  3.71078831e-07 
 2.12193792e+03  3.93946148e-07  3.69815648e-07 
 2.17086923e+03  3.92626497e-07  3.68576806e-07 
 2.22092889e+03  3.91332349e-07  3.67361905e-07 
 2.27214291e+03  3.90063285e-07  3.66170550e-07 
 2.32453791e+03  3.88818886e-07  3.65002349e-07 
 2.37814113e+03  3.87598742e-07  3.63856915e-07 
 2.43298042e+03  3.86402445e-07  3.62733867e-07 
 2.48908429e+03  3.85229594e-07  3.61632827e-07 
 2.54648190e+03  3.84079792e-07  3.60553424e-07 
 2.60520309e+03  3.82952646e-07  3.59495287e-07 
 2.66527837e+03  3.81847770e-07  3.58458055e-07 
 2.72673897e+03  3.80764782e-07  3.57441368e-07 
 2.78961683e+03  3.79703303e-07  3.56444873e-07 
 2.85394464e+03  3.78662963e-07  3.55468219e-07 
 2.91975583e+03  3.77643393e-07  3.54511062e-07 
 2.98708461e+03  3.76644232e-07  3.53573061e-07 
 3.05596598e+03  3.75665120e-07  3.52653881e-07 
 3.12643573e+03  3.74705707e-07  3.51753190e-07 
 3.19853049e+03  3.73765644e-07  3.50870662e-07 
 3.27228774e+03  3.72844587e-07  3.50005975e-07 
 3.34774581e+03  3.71942200e-07  3.49158811e-07 
 3.42494392e+03  3.71058148e-07  3.48328857e-07 
 3.50392221e+03  3.70192103e-07  3.47515805e-07 
 3.58472171e+03  3.69343741e-07  3.46719351e-07 
 3.66738442e+03  3.68512744e-07  3.45939194e-07 
 3.75195331e+03  3.67698797e-07  3.45175041e-07 
 3.83847234e+03  3.66901590e-07  3.44426601e-07 
 3.92698648e+03  3.66120820e-07  3.43693586e-07 
 4.01754173e+03  3.65356185e-07  3.42975717e-07 
 4.11018515e+03  3.64607391e-07  3.42272714e-07 
 4.20496491e+03  3.63874147e-07  3.41584305e-07 
 4.30193027e+03  3.63156167e-07  3.40910222e-07 
 4.40113162e+03  3.62453169e-07  3.40250199e-07 
 4.50262052e+03  3.61764876e-07  3.39603977e-07 
 4.60644974e+03  3.61091015e-07  3.38971299e-07 
 4.71267322e+03  3.60431320e-07  3.38351915e-07 
 4.82134619e+03  3.59785526e-07  3.37745576e-07 
 4.93252513e+03  3.59153374e-07  3.37152039e-07 
 5.04626783e+03  3.58534610e-07  3.36571065e-07 
 5.16263340e+03  3.57928983e-07  3.36002419e-07 
 5.28168234e+03  3.57336249e-07  3.35445870e-07 
 5.40347650e+03  3.56756165e-07  3.34901190e-07 
 5.52807921e+03  3.56188493e-07  3.34368158e-07 
 5.65555523e+03  3.55633003e-07  3.33846554e-07 
 5.78597080e+03  3.55089463e-07  3.33336163e-07 
 5.91939372e+03  3.54557651e-07  3.32836774e-07 
 6.05589334e+03  3.54037346e-07  3.32348181e-07 
 6.19554061e+03  3.53528332e-07  3.31870179e-07 
 6.33840810e+03  3.53030396e-07  3.31402570e-07 
 6.48457008e+03  3.52543332e-07  3.30945158e-07 
 6.63410251e+03  3.52066935e-07  3.30497752e-07 
 6.78708313e+03  3.51601005e-07  3.30060163e-07 
 6.94359143e+03  3.51145347e-07  3.29632208e-07 
 7.10370877e+03  3.50699768e-07  3.29213705e-07 
 7.26751838e+03  3.50264082e-07  3.28804479e-07 
 7.43510539e+03  3.49838104e-07  3.28404355e-07 
 7.60655691e+03  3.49421653e-07  3.28013165e-07 
 7.78196206e+03  3.49014555e-07  3.27630743e-07 
 7.96141200e+03  3.48616637e-07  3.27256926e-07 
 8.14500001e+03  3.48227729e-07  3.26891556e-07 
 8.33282151e+03  3.47847669e-07  3.26534477e-07 
 8.52497412e+03  3.47476293e-07  3.26185538e-07 
 8.72155772e+03  3.47113447e-07  3.25844591e-07 
 8.92267449e+03  3.46758975e-07  3.25511491e-07 
 9.12842895e+03  3.46412729e-07  3.25186096e-07 
 9.33892805e+03  3.46074563e-07  3.24868270e-07 
 9.55428121e+03  3.45744334e-07  3.24557877e-07 
 9.77460036e+03  3.45421903e-07  3.24254787e-07 
 1.00000000e+04  3.45107136e-07  3.23958873e-07 
 1.02305973e+04  3.44799902e-07  3.23670010e-07 
 1.04665121e+04  3.44500072e-07  3.23388076e-07 
