 frequency       v(Adm_dB)       v(Adm_arg)      v(Acm_dB)       v(Acm_arg)      v(CMRR_dB)      v(CMRR_arg)    
 1.00000000e-01 -4.51932670e-01 -2.73975075e-05 -4.63717096e+01 -7.39883502e-05  4.59197770e+01  4.65908426e-05 
 1.02305973e-01 -4.51932670e-01 -2.80292866e-05 -4.63717096e+01 -7.56945015e-05  4.59197770e+01  4.76652149e-05 
 1.04665121e-01 -4.51932670e-01 -2.86756344e-05 -4.63717096e+01 -7.74399963e-05  4.59197770e+01  4.87643619e-05 
 1.07078670e-01 -4.51932670e-01 -2.93368868e-05 -4.63717096e+01 -7.92257417e-05  4.59197770e+01  4.98888549e-05 
 1.09547876e-01 -4.51932670e-01 -3.00133875e-05 -4.63717096e+01 -8.10526659e-05  4.59197770e+01  5.10392784e-05 
 1.12074020e-01 -4.51932670e-01 -3.07054881e-05 -4.63717096e+01 -8.29217184e-05  4.59197770e+01  5.22162304e-05 
 1.14658417e-01 -4.51932670e-01 -3.14135483e-05 -4.63717096e+01 -8.48338709e-05  4.59197770e+01  5.34203225e-05 
 1.17302409e-01 -4.51932670e-01 -3.21379363e-05 -4.63717096e+01 -8.67901170e-05  4.59197770e+01  5.46521807e-05 
 1.20007371e-01 -4.51932670e-01 -3.28790284e-05 -4.63717096e+01 -8.87914737e-05  4.59197770e+01  5.59124453e-05 
 1.22774708e-01 -4.51932670e-01 -3.36372099e-05 -4.63717096e+01 -9.08389811e-05  4.59197770e+01  5.72017711e-05 
 1.25605860e-01 -4.51932670e-01 -3.44128749e-05 -4.63717096e+01 -9.29337034e-05  4.59197770e+01  5.85208285e-05 
 1.28502297e-01 -4.51932670e-01 -3.52064265e-05 -4.63717096e+01 -9.50767295e-05  4.59197770e+01  5.98703030e-05 
 1.31465525e-01 -4.51932670e-01 -3.60182772e-05 -4.63717096e+01 -9.72691732e-05  4.59197770e+01  6.12508960e-05 
 1.34497085e-01 -4.51932670e-01 -3.68488489e-05 -4.63717096e+01 -9.95121741e-05  4.59197770e+01  6.26633252e-05 
 1.37598551e-01 -4.51932670e-01 -3.76985734e-05 -4.63717096e+01 -1.01806898e-04  4.59197770e+01  6.41083245e-05 
 1.40771537e-01 -4.51932670e-01 -3.85678923e-05 -4.63717096e+01 -1.04154537e-04  4.59197770e+01  6.55866451e-05 
 1.44017690e-01 -4.51932670e-01 -3.94572575e-05 -4.63717096e+01 -1.06556313e-04  4.59197770e+01  6.70990555e-05 
 1.47338699e-01 -4.51932670e-01 -4.03671312e-05 -4.63717096e+01 -1.09013473e-04  4.59197770e+01  6.86463416e-05 
 1.50736290e-01 -4.51932670e-01 -4.12979864e-05 -4.63717096e+01 -1.11527294e-04  4.59197770e+01  7.02293076e-05 
 1.54212228e-01 -4.51932670e-01 -4.22503068e-05 -4.63717096e+01 -1.14099083e-04  4.59197770e+01  7.18487765e-05 
 1.57768320e-01 -4.51932670e-01 -4.32245874e-05 -4.63717096e+01 -1.16730177e-04  4.59197770e+01  7.35055899e-05 
 1.61406415e-01 -4.51932670e-01 -4.42213347e-05 -4.63717096e+01 -1.19421944e-04  4.59197770e+01  7.52006089e-05 
 1.65128404e-01 -4.51932670e-01 -4.52410668e-05 -4.63717096e+01 -1.22175781e-04  4.59197770e+01  7.69347147e-05 
 1.68936220e-01 -4.51932670e-01 -4.62843135e-05 -4.63717096e+01 -1.24993122e-04  4.59197770e+01  7.87088084e-05 
 1.72831844e-01 -4.51932670e-01 -4.73516173e-05 -4.63717096e+01 -1.27875430e-04  4.59197770e+01  8.05238122e-05 
 1.76817299e-01 -4.51932670e-01 -4.84435328e-05 -4.63717096e+01 -1.30824202e-04  4.59197770e+01  8.23806696e-05 
 1.80894658e-01 -4.51932670e-01 -4.95606276e-05 -4.63717096e+01 -1.33840973e-04  4.59197770e+01  8.42803456e-05 
 1.85066040e-01 -4.51932670e-01 -5.07034823e-05 -4.63717096e+01 -1.36927310e-04  4.59197770e+01  8.62238276e-05 
 1.89333613e-01 -4.51932670e-01 -5.18726909e-05 -4.63717096e+01 -1.40084817e-04  4.59197770e+01  8.82121258e-05 
 1.93699595e-01 -4.51932670e-01 -5.30688611e-05 -4.63717096e+01 -1.43315135e-04  4.59197770e+01  9.02462735e-05 
 1.98166255e-01 -4.51932670e-01 -5.42926147e-05 -4.63717096e+01 -1.46619943e-04  4.59197770e+01  9.23273282e-05 
 2.02735916e-01 -4.51932670e-01 -5.55445877e-05 -4.63717096e+01 -1.50000959e-04  4.59197770e+01  9.44563715e-05 
 2.07410951e-01 -4.51932670e-01 -5.68254309e-05 -4.63717096e+01 -1.53459941e-04  4.59197770e+01  9.66345099e-05 
 2.12193792e-01 -4.51932670e-01 -5.81358100e-05 -4.63717096e+01 -1.56998686e-04  4.59197770e+01  9.88628756e-05 
 2.17086923e-01 -4.51932670e-01 -5.94764061e-05 -4.63717096e+01 -1.60619033e-04  4.59197770e+01  1.01142627e-04 
 2.22092889e-01 -4.51932670e-01 -6.08479159e-05 -4.63717096e+01 -1.64322864e-04  4.59197770e+01  1.03474948e-04 
 2.27214291e-01 -4.51932670e-01 -6.22510524e-05 -4.63717096e+01 -1.68112105e-04  4.59197770e+01  1.05861053e-04 
 2.32453791e-01 -4.51932670e-01 -6.36865449e-05 -4.63717096e+01 -1.71988725e-04  4.59197770e+01  1.08302180e-04 
 2.37814113e-01 -4.51932670e-01 -6.51551394e-05 -4.63717096e+01 -1.75954738e-04  4.59197770e+01  1.10799599e-04 
 2.43298042e-01 -4.51932670e-01 -6.66575993e-05 -4.63717096e+01 -1.80012207e-04  4.59197770e+01  1.13354608e-04 
 2.48908429e-01 -4.51932670e-01 -6.81947056e-05 -4.63717096e+01 -1.84163240e-04  4.59197770e+01  1.15968535e-04 
 2.54648190e-01 -4.51932670e-01 -6.97672570e-05 -4.63717096e+01 -1.88409995e-04  4.59197770e+01  1.18642738e-04 
 2.60520309e-01 -4.51932670e-01 -7.13760711e-05 -4.63717096e+01 -1.92754678e-04  4.59197770e+01  1.21378607e-04 
 2.66527837e-01 -4.51932670e-01 -7.30219841e-05 -4.63717096e+01 -1.97199549e-04  4.59197770e+01  1.24177565e-04 
 2.72673897e-01 -4.51932670e-01 -7.47058513e-05 -4.63717096e+01 -2.01746917e-04  4.59197770e+01  1.27041066e-04 
 2.78961683e-01 -4.51932670e-01 -7.64285480e-05 -4.63717096e+01 -2.06399147e-04  4.59197770e+01  1.29970599e-04 
 2.85394464e-01 -4.51932670e-01 -7.81909697e-05 -4.63717096e+01 -2.11158655e-04  4.59197770e+01  1.32967686e-04 
 2.91975583e-01 -4.51932670e-01 -7.99940323e-05 -4.63717096e+01 -2.16027917e-04  4.59197770e+01  1.36033885e-04 
 2.98708461e-01 -4.51932670e-01 -8.18386731e-05 -4.63717096e+01 -2.21009462e-04  4.59197770e+01  1.39170789e-04 
 3.05596598e-01 -4.51932670e-01 -8.37258508e-05 -4.63717096e+01 -2.26105881e-04  4.59197770e+01  1.42380030e-04 
 3.12643573e-01 -4.51932670e-01 -8.56565463e-05 -4.63717096e+01 -2.31319821e-04  4.59197770e+01  1.45663275e-04 
 3.19853049e-01 -4.51932670e-01 -8.76317631e-05 -4.63717096e+01 -2.36653994e-04  4.59197770e+01  1.49022231e-04 
 3.27228774e-01 -4.51932670e-01 -8.96525279e-05 -4.63717096e+01 -2.42111171e-04  4.59197770e+01  1.52458643e-04 
 3.34774581e-01 -4.51932670e-01 -9.17198910e-05 -4.63717096e+01 -2.47694189e-04  4.59197770e+01  1.55974298e-04 
 3.42494392e-01 -4.51932670e-01 -9.38349269e-05 -4.63717096e+01 -2.53405950e-04  4.59197770e+01  1.59571023e-04 
 3.50392221e-01 -4.51932670e-01 -9.59987350e-05 -4.63717096e+01 -2.59249423e-04  4.59197770e+01  1.63250688e-04 
 3.58472171e-01 -4.51932670e-01 -9.82124399e-05 -4.63717096e+01 -2.65227645e-04  4.59197770e+01  1.67015205e-04 
 3.66738442e-01 -4.51932670e-01 -1.00477192e-04 -4.63717096e+01 -2.71343723e-04  4.59197770e+01  1.70866530e-04 
 3.75195331e-01 -4.51932670e-01 -1.02794169e-04 -4.63717096e+01 -2.77600836e-04  4.59197770e+01  1.74806666e-04 
 3.83847234e-01 -4.51932670e-01 -1.05164575e-04 -4.63717096e+01 -2.84002236e-04  4.59197770e+01  1.78837661e-04 
 3.92698648e-01 -4.51932670e-01 -1.07589642e-04 -4.63717096e+01 -2.90551251e-04  4.59197770e+01  1.82961609e-04 
 4.01754173e-01 -4.51932670e-01 -1.10070630e-04 -4.63717096e+01 -2.97251284e-04  4.59197770e+01  1.87180654e-04 
 4.11018515e-01 -4.51932670e-01 -1.12608829e-04 -4.63717096e+01 -3.04105818e-04  4.59197770e+01  1.91496990e-04 
 4.20496491e-01 -4.51932670e-01 -1.15205558e-04 -4.63717096e+01 -3.11118416e-04  4.59197770e+01  1.95912859e-04 
 4.30193027e-01 -4.51932670e-01 -1.17862167e-04 -4.63717096e+01 -3.18292723e-04  4.59197770e+01  2.00430556e-04 
 4.40113162e-01 -4.51932670e-01 -1.20580037e-04 -4.63717096e+01 -3.25632467e-04  4.59197770e+01  2.05052431e-04 
 4.50262052e-01 -4.51932670e-01 -1.23360580e-04 -4.63717096e+01 -3.33141464e-04  4.59197770e+01  2.09780884e-04 
 4.60644974e-01 -4.51932670e-01 -1.26205241e-04 -4.63717096e+01 -3.40823616e-04  4.59197770e+01  2.14618375e-04 
 4.71267322e-01 -4.51932670e-01 -1.29115500e-04 -4.63717096e+01 -3.48682917e-04  4.59197770e+01  2.19567417e-04 
 4.82134619e-01 -4.51932670e-01 -1.32092869e-04 -4.63717096e+01 -3.56723450e-04  4.59197770e+01  2.24630582e-04 
 4.93252513e-01 -4.51932670e-01 -1.35138894e-04 -4.63717096e+01 -3.64949397e-04  4.59197770e+01  2.29810502e-04 
 5.04626783e-01 -4.51932670e-01 -1.38255161e-04 -4.63717096e+01 -3.73365031e-04  4.59197770e+01  2.35109870e-04 
 5.16263340e-01 -4.51932670e-01 -1.41443287e-04 -4.63717096e+01 -3.81974728e-04  4.59197770e+01  2.40531441e-04 
 5.28168234e-01 -4.51932670e-01 -1.44704931e-04 -4.63717096e+01 -3.90782962e-04  4.59197770e+01  2.46078031e-04 
 5.40347650e-01 -4.51932670e-01 -1.48041788e-04 -4.63717096e+01 -3.99794312e-04  4.59197770e+01  2.51752523e-04 
 5.52807921e-01 -4.51932670e-01 -1.51455592e-04 -4.63717096e+01 -4.09013460e-04  4.59197770e+01  2.57557869e-04 
 5.65555523e-01 -4.51932670e-01 -1.54948117e-04 -4.63717096e+01 -4.18445200e-04  4.59197770e+01  2.63497084e-04 
 5.78597080e-01 -4.51932670e-01 -1.58521178e-04 -4.63717096e+01 -4.28094434e-04  4.59197770e+01  2.69573255e-04 
 5.91939372e-01 -4.51932670e-01 -1.62176634e-04 -4.63717096e+01 -4.37966176e-04  4.59197770e+01  2.75789542e-04 
 6.05589334e-01 -4.51932670e-01 -1.65916383e-04 -4.63717096e+01 -4.48065557e-04  4.59197770e+01  2.82149174e-04 
 6.19554061e-01 -4.51932670e-01 -1.69742370e-04 -4.63717096e+01 -4.58397828e-04  4.59197770e+01  2.88655458e-04 
 6.33840810e-01 -4.51932670e-01 -1.73656584e-04 -4.63717096e+01 -4.68968358e-04  4.59197770e+01  2.95311774e-04 
 6.48457008e-01 -4.51932670e-01 -1.77661057e-04 -4.63717096e+01 -4.79782642e-04  4.59197770e+01  3.02121584e-04 
 6.63410251e-01 -4.51932670e-01 -1.81757873e-04 -4.63717096e+01 -4.90846300e-04  4.59197770e+01  3.09088426e-04 
 6.78708313e-01 -4.51932670e-01 -1.85949161e-04 -4.63717096e+01 -5.02165083e-04  4.59197770e+01  3.16215922e-04 
 6.94359143e-01 -4.51932670e-01 -1.90237098e-04 -4.63717096e+01 -5.13744874e-04  4.59197770e+01  3.23507776e-04 
 7.10370877e-01 -4.51932670e-01 -1.94623914e-04 -4.63717096e+01 -5.25591692e-04  4.59197770e+01  3.30967778e-04 
 7.26751838e-01 -4.51932670e-01 -1.99111889e-04 -4.63717096e+01 -5.37711694e-04  4.59197770e+01  3.38599805e-04 
 7.43510539e-01 -4.51932670e-01 -2.03703356e-04 -4.63717096e+01 -5.50111181e-04  4.59197770e+01  3.46407825e-04 
 7.60655691e-01 -4.51932670e-01 -2.08400700e-04 -4.63717096e+01 -5.62796596e-04  4.59197770e+01  3.54395896e-04 
 7.78196206e-01 -4.51932670e-01 -2.13206364e-04 -4.63717096e+01 -5.75774533e-04  4.59197770e+01  3.62568170e-04 
 7.96141200e-01 -4.51932670e-01 -2.18122845e-04 -4.63717096e+01 -5.89051739e-04  4.59197770e+01  3.70928894e-04 
 8.14500001e-01 -4.51932670e-01 -2.23152699e-04 -4.63717096e+01 -6.02635113e-04  4.59197770e+01  3.79482414e-04 
 8.33282151e-01 -4.51932670e-01 -2.28298540e-04 -4.63717096e+01 -6.16531715e-04  4.59197770e+01  3.88233176e-04 
 8.52497412e-01 -4.51932670e-01 -2.33563043e-04 -4.63717096e+01 -6.30748770e-04  4.59197770e+01  3.97185728e-04 
 8.72155772e-01 -4.51932670e-01 -2.38948943e-04 -4.63717096e+01 -6.45293667e-04  4.59197770e+01  4.06344723e-04 
 8.92267449e-01 -4.51932670e-01 -2.44459041e-04 -4.63717096e+01 -6.60173964e-04  4.59197770e+01  4.15714923e-04 
 9.12842895e-01 -4.51932670e-01 -2.50096201e-04 -4.63717096e+01 -6.75397397e-04  4.59197770e+01  4.25301197e-04 
 9.33892805e-01 -4.51932670e-01 -2.55863352e-04 -4.63717096e+01 -6.90971879e-04  4.59197770e+01  4.35108527e-04 
 9.55428121e-01 -4.51932670e-01 -2.61763491e-04 -4.63717096e+01 -7.06905504e-04  4.59197770e+01  4.45142013e-04 
 9.77460036e-01 -4.51932670e-01 -2.67799687e-04 -4.63717096e+01 -7.23206554e-04  4.59197770e+01  4.55406867e-04 
 1.00000000e+00 -4.51932670e-01 -2.73975075e-04 -4.63717096e+01 -7.39883501e-04  4.59197770e+01  4.65908426e-04 
 1.02305973e+00 -4.51932670e-01 -2.80292866e-04 -4.63717096e+01 -7.56945015e-04  4.59197770e+01  4.76652149e-04 
 1.04665121e+00 -4.51932670e-01 -2.86756344e-04 -4.63717096e+01 -7.74399963e-04  4.59197770e+01  4.87643619e-04 
 1.07078670e+00 -4.51932670e-01 -2.93368868e-04 -4.63717096e+01 -7.92257417e-04  4.59197770e+01  4.98888549e-04 
 1.09547876e+00 -4.51932670e-01 -3.00133875e-04 -4.63717096e+01 -8.10526659e-04  4.59197770e+01  5.10392784e-04 
 1.12074020e+00 -4.51932670e-01 -3.07054881e-04 -4.63717096e+01 -8.29217184e-04  4.59197770e+01  5.22162304e-04 
 1.14658417e+00 -4.51932670e-01 -3.14135483e-04 -4.63717096e+01 -8.48338709e-04  4.59197770e+01  5.34203225e-04 
 1.17302409e+00 -4.51932670e-01 -3.21379363e-04 -4.63717096e+01 -8.67901170e-04  4.59197770e+01  5.46521807e-04 
 1.20007371e+00 -4.51932670e-01 -3.28790284e-04 -4.63717096e+01 -8.87914737e-04  4.59197770e+01  5.59124452e-04 
 1.22774708e+00 -4.51932670e-01 -3.36372099e-04 -4.63717096e+01 -9.08389810e-04  4.59197770e+01  5.72017711e-04 
 1.25605860e+00 -4.51932670e-01 -3.44128749e-04 -4.63717096e+01 -9.29337034e-04  4.59197770e+01  5.85208285e-04 
 1.28502297e+00 -4.51932670e-01 -3.52064265e-04 -4.63717096e+01 -9.50767295e-04  4.59197770e+01  5.98703030e-04 
 1.31465525e+00 -4.51932670e-01 -3.60182772e-04 -4.63717096e+01 -9.72691732e-04  4.59197770e+01  6.12508960e-04 
 1.34497085e+00 -4.51932670e-01 -3.68488489e-04 -4.63717096e+01 -9.95121741e-04  4.59197770e+01  6.26633251e-04 
 1.37598551e+00 -4.51932670e-01 -3.76985734e-04 -4.63717096e+01 -1.01806898e-03  4.59197770e+01  6.41083245e-04 
 1.40771537e+00 -4.51932670e-01 -3.85678923e-04 -4.63717096e+01 -1.04154537e-03  4.59197770e+01  6.55866451e-04 
 1.44017690e+00 -4.51932670e-01 -3.94572575e-04 -4.63717096e+01 -1.06556313e-03  4.59197770e+01  6.70990555e-04 
 1.47338699e+00 -4.51932670e-01 -4.03671312e-04 -4.63717096e+01 -1.09013473e-03  4.59197770e+01  6.86463415e-04 
 1.50736290e+00 -4.51932670e-01 -4.12979864e-04 -4.63717096e+01 -1.11527294e-03  4.59197770e+01  7.02293076e-04 
 1.54212228e+00 -4.51932670e-01 -4.22503068e-04 -4.63717096e+01 -1.14099083e-03  4.59197770e+01  7.18487765e-04 
 1.57768320e+00 -4.51932670e-01 -4.32245874e-04 -4.63717096e+01 -1.16730177e-03  4.59197770e+01  7.35055899e-04 
 1.61406415e+00 -4.51932670e-01 -4.42213347e-04 -4.63717096e+01 -1.19421944e-03  4.59197770e+01  7.52006089e-04 
 1.65128404e+00 -4.51932670e-01 -4.52410668e-04 -4.63717096e+01 -1.22175781e-03  4.59197770e+01  7.69347146e-04 
 1.68936220e+00 -4.51932670e-01 -4.62843135e-04 -4.63717096e+01 -1.24993122e-03  4.59197770e+01  7.87088084e-04 
 1.72831844e+00 -4.51932670e-01 -4.73516173e-04 -4.63717096e+01 -1.27875430e-03  4.59197770e+01  8.05238122e-04 
 1.76817299e+00 -4.51932670e-01 -4.84435328e-04 -4.63717096e+01 -1.30824202e-03  4.59197770e+01  8.23806696e-04 
 1.80894658e+00 -4.51932670e-01 -4.95606276e-04 -4.63717096e+01 -1.33840973e-03  4.59197770e+01  8.42803456e-04 
 1.85066040e+00 -4.51932670e-01 -5.07034823e-04 -4.63717096e+01 -1.36927310e-03  4.59197770e+01  8.62238276e-04 
 1.89333613e+00 -4.51932670e-01 -5.18726909e-04 -4.63717096e+01 -1.40084817e-03  4.59197770e+01  8.82121257e-04 
 1.93699595e+00 -4.51932670e-01 -5.30688611e-04 -4.63717096e+01 -1.43315135e-03  4.59197770e+01  9.02462735e-04 
 1.98166255e+00 -4.51932670e-01 -5.42926147e-04 -4.63717096e+01 -1.46619943e-03  4.59197770e+01  9.23273282e-04 
 2.02735916e+00 -4.51932670e-01 -5.55445877e-04 -4.63717096e+01 -1.50000959e-03  4.59197770e+01  9.44563714e-04 
 2.07410951e+00 -4.51932670e-01 -5.68254309e-04 -4.63717096e+01 -1.53459941e-03  4.59197770e+01  9.66345099e-04 
 2.12193792e+00 -4.51932670e-01 -5.81358100e-04 -4.63717096e+01 -1.56998686e-03  4.59197770e+01  9.88628755e-04 
 2.17086923e+00 -4.51932670e-01 -5.94764061e-04 -4.63717096e+01 -1.60619033e-03  4.59197770e+01  1.01142627e-03 
 2.22092889e+00 -4.51932670e-01 -6.08479159e-04 -4.63717096e+01 -1.64322864e-03  4.59197770e+01  1.03474948e-03 
 2.27214291e+00 -4.51932670e-01 -6.22510524e-04 -4.63717096e+01 -1.68112105e-03  4.59197770e+01  1.05861053e-03 
 2.32453791e+00 -4.51932670e-01 -6.36865449e-04 -4.63717096e+01 -1.71988725e-03  4.59197770e+01  1.08302180e-03 
 2.37814113e+00 -4.51932670e-01 -6.51551394e-04 -4.63717096e+01 -1.75954738e-03  4.59197770e+01  1.10799599e-03 
 2.43298042e+00 -4.51932670e-01 -6.66575993e-04 -4.63717096e+01 -1.80012207e-03  4.59197770e+01  1.13354608e-03 
 2.48908429e+00 -4.51932670e-01 -6.81947056e-04 -4.63717096e+01 -1.84163240e-03  4.59197770e+01  1.15968534e-03 
 2.54648190e+00 -4.51932670e-01 -6.97672571e-04 -4.63717096e+01 -1.88409995e-03  4.59197770e+01  1.18642738e-03 
 2.60520309e+00 -4.51932670e-01 -7.13760711e-04 -4.63717096e+01 -1.92754678e-03  4.59197770e+01  1.21378607e-03 
 2.66527837e+00 -4.51932670e-01 -7.30219841e-04 -4.63717096e+01 -1.97199549e-03  4.59197770e+01  1.24177565e-03 
 2.72673897e+00 -4.51932670e-01 -7.47058513e-04 -4.63717096e+01 -2.01746917e-03  4.59197770e+01  1.27041066e-03 
 2.78961683e+00 -4.51932670e-01 -7.64285480e-04 -4.63717096e+01 -2.06399147e-03  4.59197770e+01  1.29970599e-03 
 2.85394464e+00 -4.51932670e-01 -7.81909697e-04 -4.63717096e+01 -2.11158655e-03  4.59197770e+01  1.32967686e-03 
 2.91975583e+00 -4.51932670e-01 -7.99940323e-04 -4.63717096e+01 -2.16027917e-03  4.59197770e+01  1.36033884e-03 
 2.98708461e+00 -4.51932670e-01 -8.18386731e-04 -4.63717096e+01 -2.21009462e-03  4.59197770e+01  1.39170789e-03 
 3.05596598e+00 -4.51932670e-01 -8.37258508e-04 -4.63717096e+01 -2.26105881e-03  4.59197770e+01  1.42380030e-03 
 3.12643573e+00 -4.51932670e-01 -8.56565463e-04 -4.63717096e+01 -2.31319821e-03  4.59197770e+01  1.45663275e-03 
 3.19853049e+00 -4.51932670e-01 -8.76317631e-04 -4.63717096e+01 -2.36653994e-03  4.59197770e+01  1.49022231e-03 
 3.27228774e+00 -4.51932670e-01 -8.96525279e-04 -4.63717096e+01 -2.42111171e-03  4.59197770e+01  1.52458643e-03 
 3.34774581e+00 -4.51932670e-01 -9.17198910e-04 -4.63717096e+01 -2.47694189e-03  4.59197770e+01  1.55974298e-03 
 3.42494392e+00 -4.51932670e-01 -9.38349269e-04 -4.63717096e+01 -2.53405950e-03  4.59197770e+01  1.59571023e-03 
 3.50392221e+00 -4.51932670e-01 -9.59987350e-04 -4.63717096e+01 -2.59249423e-03  4.59197770e+01  1.63250688e-03 
 3.58472171e+00 -4.51932670e-01 -9.82124399e-04 -4.63717096e+01 -2.65227645e-03  4.59197770e+01  1.67015205e-03 
 3.66738442e+00 -4.51932670e-01 -1.00477192e-03 -4.63717096e+01 -2.71343722e-03  4.59197770e+01  1.70866530e-03 
 3.75195331e+00 -4.51932670e-01 -1.02794169e-03 -4.63717096e+01 -2.77600835e-03  4.59197770e+01  1.74806666e-03 
 3.83847234e+00 -4.51932670e-01 -1.05164575e-03 -4.63717096e+01 -2.84002236e-03  4.59197770e+01  1.78837661e-03 
 3.92698648e+00 -4.51932670e-01 -1.07589642e-03 -4.63717096e+01 -2.90551250e-03  4.59197770e+01  1.82961609e-03 
 4.01754173e+00 -4.51932670e-01 -1.10070630e-03 -4.63717096e+01 -2.97251284e-03  4.59197770e+01  1.87180654e-03 
 4.11018515e+00 -4.51932670e-01 -1.12608829e-03 -4.63717096e+01 -3.04105818e-03  4.59197770e+01  1.91496989e-03 
 4.20496491e+00 -4.51932670e-01 -1.15205558e-03 -4.63717096e+01 -3.11118416e-03  4.59197770e+01  1.95912858e-03 
 4.30193027e+00 -4.51932670e-01 -1.17862167e-03 -4.63717096e+01 -3.18292723e-03  4.59197770e+01  2.00430556e-03 
 4.40113162e+00 -4.51932670e-01 -1.20580037e-03 -4.63717096e+01 -3.25632467e-03  4.59197770e+01  2.05052430e-03 
 4.50262052e+00 -4.51932670e-01 -1.23360580e-03 -4.63717096e+01 -3.33141464e-03  4.59197770e+01  2.09780884e-03 
 4.60644974e+00 -4.51932670e-01 -1.26205241e-03 -4.63717097e+01 -3.40823616e-03  4.59197770e+01  2.14618374e-03 
 4.71267322e+00 -4.51932670e-01 -1.29115500e-03 -4.63717097e+01 -3.48682916e-03  4.59197770e+01  2.19567416e-03 
 4.82134619e+00 -4.51932670e-01 -1.32092869e-03 -4.63717097e+01 -3.56723450e-03  4.59197770e+01  2.24630581e-03 
 4.93252513e+00 -4.51932670e-01 -1.35138894e-03 -4.63717097e+01 -3.64949396e-03  4.59197770e+01  2.29810502e-03 
 5.04626783e+00 -4.51932670e-01 -1.38255161e-03 -4.63717097e+01 -3.73365031e-03  4.59197770e+01  2.35109870e-03 
 5.16263340e+00 -4.51932670e-01 -1.41443287e-03 -4.63717097e+01 -3.81974727e-03  4.59197770e+01  2.40531440e-03 
 5.28168234e+00 -4.51932670e-01 -1.44704931e-03 -4.63717097e+01 -3.90782961e-03  4.59197770e+01  2.46078030e-03 
