 frequency       v(Zin_cm)       v(Zin_cm)      
 1.00000000e-02  5.80906133e+05 -2.33593953e-02 
 1.02305973e-02  5.80906133e+05 -2.38980567e-02 
 1.04665121e-02  5.80906133e+05 -2.44491394e-02 
 1.07078670e-02  5.80906133e+05 -2.50129300e-02 
 1.09547876e-02  5.80906133e+05 -2.55897214e-02 
 1.12074020e-02  5.80906133e+05 -2.61798134e-02 
 1.14658417e-02  5.80906133e+05 -2.67835129e-02 
 1.17302409e-02  5.80906133e+05 -2.74011334e-02 
 1.20007371e-02  5.80906133e+05 -2.80329962e-02 
 1.22774708e-02  5.80906133e+05 -2.86794295e-02 
 1.25605860e-02  5.80906133e+05 -2.93407694e-02 
 1.28502297e-02  5.80906133e+05 -3.00173596e-02 
 1.31465525e-02  5.80906133e+05 -3.07095518e-02 
 1.34497085e-02  5.80906133e+05 -3.14177058e-02 
 1.37598551e-02  5.80906133e+05 -3.21421896e-02 
 1.40771537e-02  5.80906133e+05 -3.28833798e-02 
 1.44017690e-02  5.80906133e+05 -3.36416616e-02 
 1.47338699e-02  5.80906133e+05 -3.44174293e-02 
 1.50736290e-02  5.80906133e+05 -3.52110859e-02 
 1.54212228e-02  5.80906133e+05 -3.60230440e-02 
 1.57768320e-02  5.80906133e+05 -3.68537257e-02 
 1.61406415e-02  5.80906133e+05 -3.77035626e-02 
 1.65128404e-02  5.80906133e+05 -3.85729966e-02 
 1.68936220e-02  5.80906133e+05 -3.94624795e-02 
 1.72831844e-02  5.80906133e+05 -4.03724736e-02 
 1.76817299e-02  5.80906133e+05 -4.13034519e-02 
 1.80894658e-02  5.80906133e+05 -4.22558984e-02 
 1.85066040e-02  5.80906133e+05 -4.32303080e-02 
 1.89333613e-02  5.80906133e+05 -4.42271872e-02 
 1.93699595e-02  5.80906133e+05 -4.52470542e-02 
 1.98166255e-02  5.80906133e+05 -4.62904390e-02 
 2.02735916e-02  5.80906133e+05 -4.73578840e-02 
 2.07410951e-02  5.80906133e+05 -4.84499440e-02 
 2.12193792e-02  5.80906133e+05 -4.95671867e-02 
 2.17086923e-02  5.80906133e+05 -5.07101926e-02 
 2.22092889e-02  5.80906133e+05 -5.18795559e-02 
 2.27214291e-02  5.80906133e+05 -5.30758845e-02 
 2.32453791e-02  5.80906133e+05 -5.42998000e-02 
 2.37814113e-02  5.80906133e+05 -5.55519388e-02 
 2.43298042e-02  5.80906133e+05 -5.68329515e-02 
 2.48908429e-02  5.80906133e+05 -5.81435040e-02 
 2.54648190e-02  5.80906133e+05 -5.94842775e-02 
 2.60520309e-02  5.80906133e+05 -6.08559688e-02 
 2.66527837e-02  5.80906133e+05 -6.22592910e-02 
 2.72673897e-02  5.80906133e+05 -6.36949735e-02 
 2.78961683e-02  5.80906133e+05 -6.51637623e-02 
 2.85394464e-02  5.80906133e+05 -6.66664211e-02 
 2.91975583e-02  5.80906133e+05 -6.82037308e-02 
 2.98708461e-02  5.80906133e+05 -6.97764904e-02 
 3.05596598e-02  5.80906133e+05 -7.13855174e-02 
 3.12643573e-02  5.80906133e+05 -7.30316481e-02 
 3.19853049e-02  5.80906133e+05 -7.47157382e-02 
 3.27228774e-02  5.80906133e+05 -7.64386629e-02 
 3.34774581e-02  5.80906133e+05 -7.82013179e-02 
 3.42494392e-02  5.80906133e+05 -8.00046191e-02 
 3.50392221e-02  5.80906133e+05 -8.18495040e-02 
 3.58472171e-02  5.80906133e+05 -8.37369315e-02 
 3.66738442e-02  5.80906133e+05 -8.56678825e-02 
 3.75195331e-02  5.80906133e+05 -8.76433607e-02 
 3.83847234e-02  5.80906133e+05 -8.96643929e-02 
 3.92698648e-02  5.80906133e+05 -9.17320296e-02 
 4.01754173e-02  5.80906133e+05 -9.38473454e-02 
 4.11018515e-02  5.80906133e+05 -9.60114399e-02 
 4.20496491e-02  5.80906133e+05 -9.82254377e-02 
 4.30193027e-02  5.80906133e+05 -1.00490490e-01 
 4.40113162e-02  5.80906133e+05 -1.02807773e-01 
 4.50262052e-02  5.80906133e+05 -1.05178493e-01 
 4.60644974e-02  5.80906133e+05 -1.07603880e-01 
 4.71267322e-02  5.80906133e+05 -1.10085197e-01 
 4.82134619e-02  5.80906133e+05 -1.12623732e-01 
 4.93252513e-02  5.80906133e+05 -1.15220805e-01 
 5.04626783e-02  5.80906133e+05 -1.17877765e-01 
 5.16263340e-02  5.80906133e+05 -1.20595995e-01 
 5.28168234e-02  5.80906133e+05 -1.23376906e-01 
 5.40347650e-02  5.80906133e+05 -1.26221944e-01 
 5.52807921e-02  5.80906133e+05 -1.29132588e-01 
 5.65555523e-02  5.80906133e+05 -1.32110350e-01 
 5.78597080e-02  5.80906133e+05 -1.35156779e-01 
 5.91939372e-02  5.80906133e+05 -1.38273458e-01 
 6.05589334e-02  5.80906133e+05 -1.41462007e-01 
 6.19554061e-02  5.80906133e+05 -1.44724082e-01 
 6.33840810e-02  5.80906133e+05 -1.48061381e-01 
 6.48457008e-02  5.80906133e+05 -1.51475636e-01 
 6.63410251e-02  5.80906133e+05 -1.54968623e-01 
 6.78708313e-02  5.80906133e+05 -1.58542158e-01 
 6.94359143e-02  5.80906133e+05 -1.62198097e-01 
 7.10370877e-02  5.80906133e+05 -1.65938342e-01 
 7.26751838e-02  5.80906133e+05 -1.69764835e-01 
 7.43510539e-02  5.80906133e+05 -1.73679566e-01 
 7.60655691e-02  5.80906133e+05 -1.77684570e-01 
 7.78196206e-02  5.80906133e+05 -1.81781928e-01 
 7.96141200e-02  5.80906133e+05 -1.85973770e-01 
 8.14500001e-02  5.80906133e+05 -1.90262275e-01 
 8.33282151e-02  5.80906133e+05 -1.94649672e-01 
 8.52497412e-02  5.80906133e+05 -1.99138241e-01 
 8.72155772e-02  5.80906133e+05 -2.03730315e-01 
 8.92267449e-02  5.80906133e+05 -2.08428281e-01 
 9.12842895e-02  5.80906133e+05 -2.13234581e-01 
 9.33892805e-02  5.80906133e+05 -2.18151712e-01 
 9.55428121e-02  5.80906133e+05 -2.23182232e-01 
 9.77460036e-02  5.80906133e+05 -2.28328754e-01 
 1.00000000e-01  5.80906133e+05 -2.33593953e-01 
 1.02305973e-01  5.80906133e+05 -2.38980567e-01 
 1.04665121e-01  5.80906133e+05 -2.44491394e-01 
 1.07078670e-01  5.80906133e+05 -2.50129300e-01 
 1.09547876e-01  5.80906133e+05 -2.55897214e-01 
 1.12074020e-01  5.80906133e+05 -2.61798134e-01 
 1.14658417e-01  5.80906133e+05 -2.67835129e-01 
 1.17302409e-01  5.80906133e+05 -2.74011334e-01 
 1.20007371e-01  5.80906133e+05 -2.80329962e-01 
 1.22774708e-01  5.80906133e+05 -2.86794295e-01 
 1.25605860e-01  5.80906133e+05 -2.93407694e-01 
 1.28502297e-01  5.80906133e+05 -3.00173596e-01 
 1.31465525e-01  5.80906133e+05 -3.07095518e-01 
 1.34497085e-01  5.80906133e+05 -3.14177058e-01 
 1.37598551e-01  5.80906133e+05 -3.21421896e-01 
 1.40771537e-01  5.80906133e+05 -3.28833798e-01 
 1.44017690e-01  5.80906133e+05 -3.36416616e-01 
 1.47338699e-01  5.80906133e+05 -3.44174293e-01 
 1.50736290e-01  5.80906133e+05 -3.52110859e-01 
 1.54212228e-01  5.80906133e+05 -3.60230440e-01 
 1.57768320e-01  5.80906133e+05 -3.68537257e-01 
 1.61406415e-01  5.80906133e+05 -3.77035626e-01 
 1.65128404e-01  5.80906133e+05 -3.85729966e-01 
 1.68936220e-01  5.80906133e+05 -3.94624795e-01 
 1.72831844e-01  5.80906133e+05 -4.03724736e-01 
 1.76817299e-01  5.80906133e+05 -4.13034519e-01 
 1.80894658e-01  5.80906133e+05 -4.22558984e-01 
 1.85066040e-01  5.80906133e+05 -4.32303080e-01 
 1.89333613e-01  5.80906133e+05 -4.42271872e-01 
 1.93699595e-01  5.80906133e+05 -4.52470542e-01 
 1.98166255e-01  5.80906133e+05 -4.62904390e-01 
 2.02735916e-01  5.80906133e+05 -4.73578840e-01 
 2.07410951e-01  5.80906133e+05 -4.84499440e-01 
 2.12193792e-01  5.80906133e+05 -4.95671867e-01 
 2.17086923e-01  5.80906133e+05 -5.07101926e-01 
 2.22092889e-01  5.80906133e+05 -5.18795559e-01 
 2.27214291e-01  5.80906133e+05 -5.30758845e-01 
 2.32453791e-01  5.80906133e+05 -5.42998000e-01 
 2.37814113e-01  5.80906133e+05 -5.55519388e-01 
 2.43298042e-01  5.80906133e+05 -5.68329515e-01 
 2.48908429e-01  5.80906133e+05 -5.81435040e-01 
 2.54648190e-01  5.80906133e+05 -5.94842775e-01 
 2.60520309e-01  5.80906133e+05 -6.08559688e-01 
 2.66527837e-01  5.80906133e+05 -6.22592910e-01 
 2.72673897e-01  5.80906133e+05 -6.36949735e-01 
 2.78961683e-01  5.80906133e+05 -6.51637623e-01 
 2.85394464e-01  5.80906133e+05 -6.66664211e-01 
 2.91975583e-01  5.80906133e+05 -6.82037308e-01 
 2.98708461e-01  5.80906133e+05 -6.97764904e-01 
 3.05596598e-01  5.80906133e+05 -7.13855174e-01 
 3.12643573e-01  5.80906133e+05 -7.30316481e-01 
 3.19853049e-01  5.80906133e+05 -7.47157382e-01 
 3.27228774e-01  5.80906133e+05 -7.64386629e-01 
 3.34774581e-01  5.80906133e+05 -7.82013179e-01 
 3.42494392e-01  5.80906133e+05 -8.00046191e-01 
 3.50392221e-01  5.80906133e+05 -8.18495040e-01 
 3.58472171e-01  5.80906133e+05 -8.37369315e-01 
 3.66738442e-01  5.80906133e+05 -8.56678825e-01 
 3.75195331e-01  5.80906133e+05 -8.76433607e-01 
 3.83847234e-01  5.80906133e+05 -8.96643929e-01 
 3.92698648e-01  5.80906133e+05 -9.17320296e-01 
 4.01754173e-01  5.80906133e+05 -9.38473454e-01 
 4.11018515e-01  5.80906133e+05 -9.60114399e-01 
 4.20496491e-01  5.80906133e+05 -9.82254377e-01 
 4.30193027e-01  5.80906133e+05 -1.00490490e+00 
 4.40113162e-01  5.80906133e+05 -1.02807773e+00 
 4.50262052e-01  5.80906133e+05 -1.05178493e+00 
 4.60644974e-01  5.80906133e+05 -1.07603880e+00 
 4.71267322e-01  5.80906133e+05 -1.10085197e+00 
 4.82134619e-01  5.80906133e+05 -1.12623732e+00 
 4.93252513e-01  5.80906133e+05 -1.15220805e+00 
 5.04626783e-01  5.80906133e+05 -1.17877765e+00 
 5.16263340e-01  5.80906133e+05 -1.20595995e+00 
 5.28168234e-01  5.80906133e+05 -1.23376906e+00 
 5.40347650e-01  5.80906133e+05 -1.26221944e+00 
 5.52807921e-01  5.80906133e+05 -1.29132588e+00 
 5.65555523e-01  5.80906133e+05 -1.32110350e+00 
 5.78597080e-01  5.80906133e+05 -1.35156779e+00 
 5.91939372e-01  5.80906133e+05 -1.38273458e+00 
 6.05589334e-01  5.80906133e+05 -1.41462007e+00 
 6.19554061e-01  5.80906133e+05 -1.44724082e+00 
 6.33840810e-01  5.80906133e+05 -1.48061381e+00 
 6.48457008e-01  5.80906133e+05 -1.51475636e+00 
 6.63410251e-01  5.80906133e+05 -1.54968623e+00 
 6.78708313e-01  5.80906133e+05 -1.58542158e+00 
 6.94359143e-01  5.80906133e+05 -1.62198097e+00 
 7.10370877e-01  5.80906133e+05 -1.65938342e+00 
 7.26751838e-01  5.80906133e+05 -1.69764835e+00 
 7.43510539e-01  5.80906133e+05 -1.73679566e+00 
 7.60655691e-01  5.80906133e+05 -1.77684570e+00 
 7.78196206e-01  5.80906133e+05 -1.81781928e+00 
 7.96141200e-01  5.80906133e+05 -1.85973770e+00 
 8.14500001e-01  5.80906133e+05 -1.90262275e+00 
 8.33282151e-01  5.80906133e+05 -1.94649672e+00 
 8.52497412e-01  5.80906133e+05 -1.99138241e+00 
 8.72155772e-01  5.80906133e+05 -2.03730315e+00 
 8.92267449e-01  5.80906133e+05 -2.08428281e+00 
 9.12842895e-01  5.80906133e+05 -2.13234581e+00 
 9.33892805e-01  5.80906133e+05 -2.18151712e+00 
 9.55428121e-01  5.80906133e+05 -2.23182232e+00 
 9.77460036e-01  5.80906133e+05 -2.28328754e+00 
 1.00000000e+00  5.80906133e+05 -2.33593953e+00 
 1.02305973e+00  5.80906133e+05 -2.38980567e+00 
 1.04665121e+00  5.80906133e+05 -2.44491394e+00 
 1.07078670e+00  5.80906133e+05 -2.50129300e+00 
 1.09547876e+00  5.80906133e+05 -2.55897214e+00 
 1.12074020e+00  5.80906133e+05 -2.61798134e+00 
 1.14658417e+00  5.80906133e+05 -2.67835128e+00 
 1.17302409e+00  5.80906133e+05 -2.74011334e+00 
 1.20007371e+00  5.80906133e+05 -2.80329961e+00 
 1.22774708e+00  5.80906133e+05 -2.86794295e+00 
 1.25605860e+00  5.80906133e+05 -2.93407694e+00 
 1.28502297e+00  5.80906133e+05 -3.00173596e+00 
 1.31465525e+00  5.80906133e+05 -3.07095518e+00 
 1.34497085e+00  5.80906133e+05 -3.14177057e+00 
 1.37598551e+00  5.80906133e+05 -3.21421896e+00 
 1.40771537e+00  5.80906133e+05 -3.28833798e+00 
 1.44017690e+00  5.80906133e+05 -3.36416616e+00 
 1.47338699e+00  5.80906133e+05 -3.44174292e+00 
 1.50736290e+00  5.80906133e+05 -3.52110859e+00 
 1.54212228e+00  5.80906133e+05 -3.60230440e+00 
 1.57768320e+00  5.80906133e+05 -3.68537256e+00 
 1.61406415e+00  5.80906133e+05 -3.77035626e+00 
 1.65128404e+00  5.80906133e+05 -3.85729966e+00 
 1.68936220e+00  5.80906133e+05 -3.94624794e+00 
 1.72831844e+00  5.80906133e+05 -4.03724736e+00 
 1.76817299e+00  5.80906133e+05 -4.13034519e+00 
 1.80894658e+00  5.80906133e+05 -4.22558983e+00 
 1.85066040e+00  5.80906133e+05 -4.32303079e+00 
 1.89333613e+00  5.80906133e+05 -4.42271872e+00 
 1.93699595e+00  5.80906132e+05 -4.52470541e+00 
 1.98166255e+00  5.80906132e+05 -4.62904390e+00 
 2.02735916e+00  5.80906132e+05 -4.73578840e+00 
 2.07410951e+00  5.80906132e+05 -4.84499440e+00 
 2.12193792e+00  5.80906132e+05 -4.95671866e+00 
 2.17086923e+00  5.80906132e+05 -5.07101926e+00 
 2.22092889e+00  5.80906132e+05 -5.18795559e+00 
 2.27214291e+00  5.80906132e+05 -5.30758844e+00 
 2.32453791e+00  5.80906132e+05 -5.42998000e+00 
 2.37814113e+00  5.80906132e+05 -5.55519387e+00 
 2.43298042e+00  5.80906132e+05 -5.68329514e+00 
 2.48908429e+00  5.80906132e+05 -5.81435039e+00 
 2.54648190e+00  5.80906132e+05 -5.94842774e+00 
 2.60520309e+00  5.80906132e+05 -6.08559688e+00 
 2.66527837e+00  5.80906132e+05 -6.22592909e+00 
 2.72673897e+00  5.80906132e+05 -6.36949734e+00 
 2.78961683e+00  5.80906132e+05 -6.51637622e+00 
 2.85394464e+00  5.80906132e+05 -6.66664210e+00 
 2.91975583e+00  5.80906132e+05 -6.82037306e+00 
 2.98708461e+00  5.80906132e+05 -6.97764902e+00 
 3.05596598e+00  5.80906132e+05 -7.13855173e+00 
 3.12643573e+00  5.80906132e+05 -7.30316480e+00 
 3.19853049e+00  5.80906132e+05 -7.47157381e+00 
 3.27228774e+00  5.80906132e+05 -7.64386628e+00 
 3.34774581e+00  5.80906132e+05 -7.82013177e+00 
 3.42494392e+00  5.80906132e+05 -8.00046189e+00 
 3.50392221e+00  5.80906132e+05 -8.18495038e+00 
 3.58472171e+00  5.80906132e+05 -8.37369313e+00 
 3.66738442e+00  5.80906132e+05 -8.56678823e+00 
 3.75195331e+00  5.80906132e+05 -8.76433605e+00 
 3.83847234e+00  5.80906132e+05 -8.96643927e+00 
 3.92698648e+00  5.80906132e+05 -9.17320293e+00 
 4.01754173e+00  5.80906132e+05 -9.38473451e+00 
 4.11018515e+00  5.80906132e+05 -9.60114395e+00 
 4.20496491e+00  5.80906132e+05 -9.82254374e+00 
 4.30193027e+00  5.80906132e+05 -1.00490489e+01 
 4.40113162e+00  5.80906132e+05 -1.02807773e+01 
 4.50262052e+00  5.80906132e+05 -1.05178492e+01 
 4.60644974e+00  5.80906132e+05 -1.07603880e+01 
 4.71267322e+00  5.80906132e+05 -1.10085196e+01 
 4.82134619e+00  5.80906132e+05 -1.12623731e+01 
 4.93252513e+00  5.80906132e+05 -1.15220804e+01 
 5.04626783e+00  5.80906132e+05 -1.17877765e+01 
 5.16263340e+00  5.80906132e+05 -1.20595994e+01 
 5.28168234e+00  5.80906132e+05 -1.23376905e+01 
 5.40347650e+00  5.80906132e+05 -1.26221943e+01 
 5.52807921e+00  5.80906132e+05 -1.29132587e+01 
 5.65555523e+00  5.80906132e+05 -1.32110349e+01 
 5.78597080e+00  5.80906132e+05 -1.35156778e+01 
 5.91939372e+00  5.80906131e+05 -1.38273457e+01 
 6.05589334e+00  5.80906131e+05 -1.41462006e+01 
 6.19554061e+00  5.80906131e+05 -1.44724081e+01 
 6.33840810e+00  5.80906131e+05 -1.48061379e+01 
 6.48457008e+00  5.80906131e+05 -1.51475634e+01 
 6.63410251e+00  5.80906131e+05 -1.54968621e+01 
 6.78708313e+00  5.80906131e+05 -1.58542156e+01 
 6.94359143e+00  5.80906131e+05 -1.62198095e+01 
 7.10370877e+00  5.80906131e+05 -1.65938339e+01 
 7.26751838e+00  5.80906131e+05 -1.69764832e+01 
 7.43510539e+00  5.80906130e+05 -1.73679563e+01 
 7.60655691e+00  5.80906130e+05 -1.77684567e+01 
 7.78196206e+00  5.80906130e+05 -1.81781925e+01 
 7.96141200e+00  5.80906130e+05 -1.85973767e+01 
 8.14500001e+00  5.80906130e+05 -1.90262272e+01 
 8.33282151e+00  5.80906130e+05 -1.94649668e+01 
 8.52497412e+00  5.80906130e+05 -1.99138237e+01 
 8.72155772e+00  5.80906130e+05 -2.03730311e+01 
 8.92267449e+00  5.80906130e+05 -2.08428276e+01 
 9.12842895e+00  5.80906130e+05 -2.13234576e+01 
 9.33892805e+00  5.80906129e+05 -2.18151708e+01 
 9.55428121e+00  5.80906129e+05 -2.23182227e+01 
 9.77460036e+00  5.80906129e+05 -2.28328748e+01 
 1.00000000e+01  5.80906129e+05 -2.33593948e+01 
 1.02305973e+01  5.80906129e+05 -2.38980561e+01 
 1.04665121e+01  5.80906129e+05 -2.44491388e+01 
 1.07078670e+01  5.80906128e+05 -2.50129293e+01 
 1.09547876e+01  5.80906128e+05 -2.55897206e+01 
 1.12074020e+01  5.80906128e+05 -2.61798126e+01 
 1.14658417e+01  5.80906128e+05 -2.67835120e+01 
 1.17302409e+01  5.80906128e+05 -2.74011325e+01 
 1.20007371e+01  5.80906128e+05 -2.80329952e+01 
 1.22774708e+01  5.80906127e+05 -2.86794285e+01 
 1.25605860e+01  5.80906127e+05 -2.93407683e+01 
 1.28502297e+01  5.80906127e+05 -3.00173584e+01 
 1.31465525e+01  5.80906127e+05 -3.07095506e+01 
 1.34497085e+01  5.80906126e+05 -3.14177045e+01 
 1.37598551e+01  5.80906126e+05 -3.21421882e+01 
 1.40771537e+01  5.80906126e+05 -3.28833783e+01 
 1.44017690e+01  5.80906125e+05 -3.36416601e+01 
 1.47338699e+01  5.80906125e+05 -3.44174276e+01 
 1.50736290e+01  5.80906125e+05 -3.52110841e+01 
 1.54212228e+01  5.80906124e+05 -3.60230421e+01 
 1.57768320e+01  5.80906124e+05 -3.68537236e+01 
 1.61406415e+01  5.80906124e+05 -3.77035604e+01 
 1.65128404e+01  5.80906123e+05 -3.85729943e+01 
 1.68936220e+01  5.80906123e+05 -3.94624770e+01 
 1.72831844e+01  5.80906122e+05 -4.03724709e+01 
 1.76817299e+01  5.80906122e+05 -4.13034491e+01 
 1.80894658e+01  5.80906121e+05 -4.22558954e+01 
 1.85066040e+01  5.80906121e+05 -4.32303047e+01 
 1.89333613e+01  5.80906120e+05 -4.42271838e+01 
 1.93699595e+01  5.80906120e+05 -4.52470505e+01 
 1.98166255e+01  5.80906119e+05 -4.62904351e+01 
 2.02735916e+01  5.80906119e+05 -4.73578798e+01 
 2.07410951e+01  5.80906118e+05 -4.84499396e+01 
 2.12193792e+01  5.80906117e+05 -4.95671819e+01 
 2.17086923e+01  5.80906117e+05 -5.07101875e+01 
 2.22092889e+01  5.80906116e+05 -5.18795505e+01 
 2.27214291e+01  5.80906115e+05 -5.30758787e+01 
 2.32453791e+01  5.80906114e+05 -5.42997938e+01 
 2.37814113e+01  5.80906114e+05 -5.55519321e+01 
 2.43298042e+01  5.80906113e+05 -5.68329443e+01 
 2.48908429e+01  5.80906112e+05 -5.81434964e+01 
 2.54648190e+01  5.80906111e+05 -5.94842693e+01 
 2.60520309e+01  5.80906110e+05 -6.08559601e+01 
 2.66527837e+01  5.80906109e+05 -6.22592817e+01 
 2.72673897e+01  5.80906108e+05 -6.36949635e+01 
 2.78961683e+01  5.80906107e+05 -6.51637517e+01 
 2.85394464e+01  5.80906105e+05 -6.66664097e+01 
 2.91975583e+01  5.80906104e+05 -6.82037186e+01 
 2.98708461e+01  5.80906103e+05 -6.97764773e+01 
 3.05596598e+01  5.80906101e+05 -7.13855034e+01 
 3.12643573e+01  5.80906100e+05 -7.30316332e+01 
 3.19853049e+01  5.80906098e+05 -7.47157223e+01 
 3.27228774e+01  5.80906097e+05 -7.64386459e+01 
 3.34774581e+01  5.80906095e+05 -7.82012996e+01 
 3.42494392e+01  5.80906092e+05 -8.00045988e+01 
 3.50392221e+01  5.80906090e+05 -8.18494823e+01 
 3.58472171e+01  5.80906089e+05 -8.37369083e+01 
 3.66738442e+01  5.80906087e+05 -8.56678577e+01 
 3.75195331e+01  5.80906084e+05 -8.76433343e+01 
 3.83847234e+01  5.80906082e+05 -8.96643647e+01 
 3.92698648e+01  5.80906080e+05 -9.17319994e+01 
 4.01754173e+01  5.80906078e+05 -9.38473132e+01 
 4.11018515e+01  5.80906075e+05 -9.60114054e+01 
 4.20496491e+01  5.80906073e+05 -9.82254008e+01 
 4.30193027e+01  5.80906070e+05 -1.00490450e+02 
 4.40113162e+01  5.80906067e+05 -1.02807731e+02 
 4.50262052e+01  5.80906064e+05 -1.05178448e+02 
 4.60644974e+01  5.80906061e+05 -1.07603832e+02 
 4.71267322e+01  5.80906058e+05 -1.10085145e+02 
 4.82134619e+01  5.80906054e+05 -1.12623677e+02 
 4.93252513e+01  5.80906051e+05 -1.15220746e+02 
 5.04626783e+01  5.80906047e+05 -1.17877702e+02 
 5.16263340e+01  5.80906043e+05 -1.20595927e+02 
 5.28168234e+01  5.80906039e+05 -1.23376834e+02 
 5.40347650e+01  5.80906034e+05 -1.26221867e+02 
 5.52807921e+01  5.80906030e+05 -1.29132505e+02 
 5.65555523e+01  5.80906025e+05 -1.32110262e+02 
 5.78597080e+01  5.80906020e+05 -1.35156685e+02 
 5.91939372e+01  5.80906015e+05 -1.38273357e+02 
 6.05589334e+01  5.80906010e+05 -1.41461899e+02 
 6.19554061e+01  5.80906004e+05 -1.44723967e+02 
 6.33840810e+01  5.80905998e+05 -1.48061257e+02 
 6.48457008e+01  5.80905992e+05 -1.51475503e+02 
 6.63410251e+01  5.80905985e+05 -1.54968481e+02 
 6.78708313e+01  5.80905978e+05 -1.58542006e+02 
 6.94359143e+01  5.80905969e+05 -1.62197932e+02 
 7.10370877e+01  5.80905962e+05 -1.65938165e+02 
 7.26751838e+01  5.80905954e+05 -1.69764646e+02 
 7.43510539e+01  5.80905946e+05 -1.73679364e+02 
 7.60655691e+01  5.80905937e+05 -1.77684354e+02 
 7.78196206e+01  5.80905928e+05 -1.81781696e+02 
 7.96141200e+01  5.80905918e+05 -1.85973522e+02 
 8.14500001e+01  5.80905910e+05 -1.90262011e+02 
 8.33282151e+01  5.80905899e+05 -1.94649388e+02 
 8.52497412e+01  5.80905888e+05 -1.99137937e+02 
 8.72155772e+01  5.80905877e+05 -2.03729990e+02 
 8.92267449e+01  5.80905865e+05 -2.08427934e+02 
 9.12842895e+01  5.80905853e+05 -2.13234209e+02 
 9.33892805e+01  5.80905840e+05 -2.18151315e+02 
 9.55428121e+01  5.80905827e+05 -2.23181807e+02 
 9.77460036e+01  5.80905813e+05 -2.28328300e+02 
 1.00000000e+02  5.80905798e+05 -2.33593467e+02 
 1.02305973e+02  5.80905781e+05 -2.38980044e+02 
 1.04665121e+02  5.80905765e+05 -2.44490835e+02 
