 time            v(vin_tg)       v(vout_tg_on)   v(vout_tg_off) 
 0.00000000e+00  9.00000000e-01  9.00000000e-01  7.95879131e-01 
 1.00000000e-07  9.00565487e-01  9.00539095e-01  7.95879131e-01 
 2.00000000e-07  9.01130973e-01  9.01103275e-01  7.95879131e-01 
 4.00000000e-07  9.02261944e-01  9.02234002e-01  7.95879131e-01 
 8.00000000e-07  9.04523874e-01  9.04495676e-01  7.95879131e-01 
 1.60000000e-06  9.09047634e-01  9.09018896e-01  7.95879131e-01 
 3.20000000e-06  9.18094354e-01  9.18064708e-01  7.95879131e-01 
 6.40000000e-06  9.36181394e-01  9.36150817e-01  7.95879131e-01 
 1.28000000e-05  9.72304290e-01  9.72275592e-01  7.95879131e-01 
 2.28000000e-05  1.02849042e+00  1.02846913e+00  7.95879130e-01 
 3.28000000e-05  1.08416945e+00  1.08415413e+00  7.95879129e-01 
 4.28000000e-05  1.13912166e+00  1.13911002e+00  7.95879126e-01 
 5.28000000e-05  1.19313015e+00  1.19312084e+00  7.95879122e-01 
 6.28000000e-05  1.24598180e+00  1.24597406e+00  7.95879114e-01 
 7.28000000e-05  1.29746802e+00  1.29746141e+00  7.95879101e-01 
 8.28000000e-05  1.34738561e+00  1.34737986e+00  7.95879079e-01 
 9.28000000e-05  1.39553757e+00  1.39553251e+00  7.95879043e-01 
 1.02800000e-04  1.44173388e+00  1.44172938e+00  7.95878989e-01 
 1.12800000e-04  1.48579220e+00  1.48578819e+00  7.95878910e-01 
 1.22800000e-04  1.52753868e+00  1.52753509e+00  7.95878817e-01 
 1.32800000e-04  1.56680854e+00  1.56680533e+00  7.95878787e-01 
 1.42800000e-04  1.60344682e+00  1.60344395e+00  7.95879153e-01 
 1.52800000e-04  1.63730891e+00  1.63730636e+00  7.95881083e-01 
 1.62800000e-04  1.66826118e+00  1.66825893e+00  7.95888101e-01 
 1.72800000e-04  1.69618148e+00  1.69617951e+00  7.95909135e-01 
 1.82800000e-04  1.72095961e+00  1.72095791e+00  7.95963470e-01 
 1.92800000e-04  1.74249779e+00  1.74249636e+00  7.96085821e-01 
 2.02800000e-04  1.76071101e+00  1.76070984e+00  7.96327004e-01 
 2.12800000e-04  1.77552740e+00  1.77552648e+00  7.96744605e-01 
 2.22800000e-04  1.78688849e+00  1.78688782e+00  7.97382207e-01 
 2.32800000e-04  1.79474943e+00  1.79474901e+00  7.98244364e-01 
 2.42800000e-04  1.79907920e+00  1.79907903e+00  7.99281098e-01 
 2.52800000e-04  1.79986072e+00  1.79986079e+00  8.00393475e-01 
 2.62800000e-04  1.79709090e+00  1.79709122e+00  8.01460852e-01 
 2.72800000e-04  1.79078068e+00  1.79078124e+00  8.02377826e-01 
 2.82800000e-04  1.78095494e+00  1.78095575e+00  8.03083381e-01 
 2.92800000e-04  1.76765248e+00  1.76765355e+00  8.03569771e-01 
 3.02800000e-04  1.75092580e+00  1.75092711e+00  8.03870570e-01 
 3.12800000e-04  1.73084090e+00  1.73084247e+00  8.04038003e-01 
 3.22800000e-04  1.70747704e+00  1.70747889e+00  8.04122410e-01 
 3.32800000e-04  1.68092645e+00  1.68092857e+00  8.04161331e-01 
 3.42800000e-04  1.65129389e+00  1.65129631e+00  8.04177983e-01 
 3.52800000e-04  1.61869633e+00  1.61869905e+00  8.04184719e-01 
 3.62800000e-04  1.58326239e+00  1.58326545e+00  8.04187371e-01 
 3.72800000e-04  1.54513193e+00  1.54513535e+00  8.04188424e-01 
 3.82800000e-04  1.50445543e+00  1.50445925e+00  8.04188864e-01 
 3.92800000e-04  1.46139342e+00  1.46139769e+00  8.04189065e-01 
 4.02800000e-04  1.41611585e+00  1.41612064e+00  8.04189165e-01 
 4.12800000e-04  1.36880140e+00  1.36880683e+00  8.04189219e-01 
 4.22800000e-04  1.31963681e+00  1.31964301e+00  8.04189249e-01 
 4.32800000e-04  1.26881611e+00  1.26882331e+00  8.04189267e-01 
 4.42800000e-04  1.21653985e+00  1.21654840e+00  8.04189276e-01 
 4.52800000e-04  1.16301436e+00  1.16302485e+00  8.04189282e-01 
 4.62800000e-04  1.10845087e+00  1.10846434e+00  8.04189285e-01 
 4.72800000e-04  1.05306472e+00  1.05308304e+00  8.04189286e-01 
 4.82800000e-04  9.97074490e-01  9.97100055e-01  8.04189287e-01 
 4.92800000e-04  9.40701155e-01  9.40731794e-01  8.04189287e-01 
 5.02800000e-04  8.84167190e-01  8.84192487e-01  8.04189286e-01 
 5.12800000e-04  8.27695710e-01  8.27712668e-01  8.04189286e-01 
 5.22800000e-04  7.71509582e-01  7.71521244e-01  8.04189286e-01 
 5.32800000e-04  7.15830547e-01  7.15839245e-01  8.04189285e-01 
 5.42800000e-04  6.60878345e-01  6.60885277e-01  8.04189285e-01 
 5.52800000e-04  6.06869846e-01  6.06875626e-01  8.04189285e-01 
 5.62800000e-04  5.54018199e-01  5.54023166e-01  8.04189285e-01 
 5.72800000e-04  5.02531984e-01  5.02536339e-01  8.04189287e-01 
 5.82800000e-04  4.52614393e-01  4.52618265e-01  8.04189289e-01 
 5.92800000e-04  4.04462429e-01  4.04465902e-01  8.04189292e-01 
 6.02800000e-04  3.58266125e-01  3.58269257e-01  8.04189298e-01 
 6.12800000e-04  3.14207797e-01  3.14210630e-01  8.04189308e-01 
 6.22800000e-04  2.72461324e-01  2.72463887e-01  8.04189322e-01 
 6.32800000e-04  2.33191459e-01  2.33193774e-01  8.04189341e-01 
 6.42800000e-04  1.96553183e-01  1.96555266e-01  8.04189367e-01 
 6.52800000e-04  1.62691090e-01  1.62692954e-01  8.04189399e-01 
 6.62800000e-04  1.31738818e-01  1.31740473e-01  8.04189432e-01 
 6.72800000e-04  1.03818522e-01  1.03819975e-01  8.04189454e-01 
 6.82800000e-04  7.90403910e-02  7.90416473e-02  8.04189439e-01 
 6.92800000e-04  5.75022123e-02  5.75032759e-02  8.04189341e-01 
 7.02800000e-04  3.92889875e-02  3.92898616e-02  8.04189092e-01 
 7.12800000e-04  2.44725958e-02  2.44732826e-02  8.04188611e-01 
 7.22800000e-04  1.31115109e-02  1.31120120e-02  8.04187832e-01 
 7.32800000e-04  5.25056955e-03  5.25088627e-03  8.04186738e-01 
 7.42800000e-04  9.20795471e-04  9.20928407e-04  8.04185386e-01 
 7.52800000e-04  1.39276265e-04  1.39225686e-04  8.04183907e-01 
 7.62800000e-04  2.90909623e-03  2.90886201e-03  8.04182467e-01 
 7.72800000e-04  9.21932415e-03  9.21890577e-03  8.04181213e-01 
 7.82800000e-04  1.90450564e-02  1.90444530e-02  8.04180229e-01 
 7.92800000e-04  3.23475154e-02  3.23467254e-02  8.04179526e-01 
 8.02800000e-04  4.90742024e-02  4.90732237e-02  8.04179062e-01 
 8.12800000e-04  6.91591047e-02  6.91579347e-02  8.04178772e-01 
 8.22800000e-04  9.25229564e-02  9.25215915e-02  8.04178595e-01 
 8.32800000e-04  1.19073551e-01  1.19071986e-01  8.04178485e-01 
 8.42800000e-04  1.48706106e-01  1.48704335e-01  8.04178412e-01 
 8.52800000e-04  1.81303674e-01  1.81301689e-01  8.04178363e-01 
 8.62800000e-04  2.16737609e-01  2.16735398e-01  8.04178328e-01 
 8.72800000e-04  2.54868068e-01  2.54865617e-01  8.04178302e-01 
 8.82800000e-04  2.95544568e-01  2.95541858e-01  8.04178284e-01 
 8.92800000e-04  3.38606577e-01  3.38603582e-01  8.04178272e-01 
 9.02800000e-04  3.83884150e-01  3.83880833e-01  8.04178264e-01 
 9.12800000e-04  4.31198596e-01  4.31194908e-01  8.04178258e-01 
 9.22800000e-04  4.80363188e-01  4.80359057e-01  8.04178254e-01 
 9.32800000e-04  5.31183894e-01  5.31179215e-01  8.04178252e-01 
 9.42800000e-04  5.83460148e-01  5.83454757e-01  8.04178250e-01 
 9.52800000e-04  6.36985641e-01  6.36979270e-01  8.04178249e-01 
 9.62800000e-04  6.91549132e-01  6.91541312e-01  8.04178248e-01 
 9.72800000e-04  7.46935282e-01  7.46925129e-01  8.04178248e-01 
 9.82800000e-04  8.02925510e-01  8.02911273e-01  8.04178247e-01 
 9.92800000e-04  8.59298845e-01  8.59277495e-01  8.04178247e-01 
 1.00280000e-03  9.15832810e-01  9.15803330e-01  8.04178246e-01 
 1.01280000e-03  9.72304290e-01  9.72275565e-01  8.04178245e-01 
 1.02280000e-03  1.02849042e+00  1.02846912e+00  8.04178244e-01 
 1.03280000e-03  1.08416945e+00  1.08415413e+00  8.04178242e-01 
 1.04280000e-03  1.13912166e+00  1.13911002e+00  8.04178239e-01 
 1.05280000e-03  1.19313015e+00  1.19312084e+00  8.04178234e-01 
 1.06280000e-03  1.24598180e+00  1.24597406e+00  8.04178226e-01 
 1.07280000e-03  1.29746802e+00  1.29746141e+00  8.04178212e-01 
 1.08280000e-03  1.34738561e+00  1.34737986e+00  8.04178190e-01 
 1.09280000e-03  1.39553757e+00  1.39553251e+00  8.04178154e-01 
 1.10280000e-03  1.44173388e+00  1.44172938e+00  8.04178100e-01 
 1.11280000e-03  1.48579220e+00  1.48578819e+00  8.04178021e-01 
 1.12280000e-03  1.52753868e+00  1.52753509e+00  8.04177928e-01 
 1.13280000e-03  1.56680854e+00  1.56680533e+00  8.04177893e-01 
 1.14280000e-03  1.60344682e+00  1.60344395e+00  8.04178243e-01 
 1.15280000e-03  1.63730891e+00  1.63730636e+00  8.04180109e-01 
 1.16280000e-03  1.66826118e+00  1.66825893e+00  8.04186917e-01 
 1.17280000e-03  1.69618148e+00  1.69617951e+00  8.04207348e-01 
 1.18280000e-03  1.72095961e+00  1.72095791e+00  8.04260169e-01 
 1.19280000e-03  1.74249779e+00  1.74249636e+00  8.04379192e-01 
 1.20280000e-03  1.76071101e+00  1.76070984e+00  8.04613971e-01 
 1.21280000e-03  1.77552740e+00  1.77552648e+00  8.05020738e-01 
 1.22280000e-03  1.78688849e+00  1.78688782e+00  8.05642147e-01 
 1.23280000e-03  1.79474943e+00  1.79474901e+00  8.06482793e-01 
 1.24280000e-03  1.79907920e+00  1.79907903e+00  8.07493986e-01 
 1.25280000e-03  1.79986072e+00  1.79986079e+00  8.08579141e-01 
 1.26280000e-03  1.79709090e+00  1.79709122e+00  8.09620406e-01 
 1.27280000e-03  1.79078068e+00  1.79078124e+00  8.10514817e-01 
 1.28280000e-03  1.78095494e+00  1.78095575e+00  8.11202824e-01 
 1.29280000e-03  1.76765248e+00  1.76765355e+00  8.11676944e-01 
 1.30280000e-03  1.75092580e+00  1.75092711e+00  8.11970037e-01 
 1.31280000e-03  1.73084090e+00  1.73084247e+00  8.12133116e-01 
 1.32280000e-03  1.70747704e+00  1.70747889e+00  8.12215301e-01 
 1.33280000e-03  1.68092645e+00  1.68092857e+00  8.12253189e-01 
 1.34280000e-03  1.65129389e+00  1.65129631e+00  8.12269399e-01 
 1.35280000e-03  1.61869633e+00  1.61869905e+00  8.12275958e-01 
 1.36280000e-03  1.58326239e+00  1.58326545e+00  8.12278542e-01 
 1.37280000e-03  1.54513193e+00  1.54513535e+00  8.12279570e-01 
 1.38280000e-03  1.50445543e+00  1.50445925e+00  8.12280001e-01 
 1.39280000e-03  1.46139342e+00  1.46139769e+00  8.12280198e-01 
 1.40280000e-03  1.41611585e+00  1.41612064e+00  8.12280296e-01 
 1.41280000e-03  1.36880140e+00  1.36880683e+00  8.12280349e-01 
 1.42280000e-03  1.31963681e+00  1.31964301e+00  8.12280378e-01 
 1.43280000e-03  1.26881611e+00  1.26882331e+00  8.12280395e-01 
 1.44280000e-03  1.21653985e+00  1.21654840e+00  8.12280404e-01 
 1.45280000e-03  1.16301436e+00  1.16302485e+00  8.12280409e-01 
 1.46280000e-03  1.10845087e+00  1.10846434e+00  8.12280412e-01 
 1.47280000e-03  1.05306472e+00  1.05308304e+00  8.12280412e-01 
 1.48280000e-03  9.97074490e-01  9.97100055e-01  8.12280413e-01 
 1.49280000e-03  9.40701155e-01  9.40731794e-01  8.12280412e-01 
 1.50280000e-03  8.84167190e-01  8.84192487e-01  8.12280412e-01 
 1.51280000e-03  8.27695710e-01  8.27712668e-01  8.12280411e-01 
 1.52280000e-03  7.71509582e-01  7.71521244e-01  8.12280410e-01 
 1.53280000e-03  7.15830547e-01  7.15839245e-01  8.12280409e-01 
 1.54280000e-03  6.60878345e-01  6.60885277e-01  8.12280409e-01 
 1.55280000e-03  6.06869846e-01  6.06875626e-01  8.12280408e-01 
 1.56280000e-03  5.54018199e-01  5.54023166e-01  8.12280408e-01 
 1.57280000e-03  5.02531984e-01  5.02536339e-01  8.12280409e-01 
 1.58280000e-03  4.52614393e-01  4.52618265e-01  8.12280411e-01 
 1.59280000e-03  4.04462429e-01  4.04465902e-01  8.12280414e-01 
 1.60280000e-03  3.58266125e-01  3.58269257e-01  8.12280419e-01 
 1.61280000e-03  3.14207797e-01  3.14210630e-01  8.12280428e-01 
 1.62280000e-03  2.72461324e-01  2.72463887e-01  8.12280442e-01 
 1.63280000e-03  2.33191459e-01  2.33193774e-01  8.12280461e-01 
 1.64280000e-03  1.96553183e-01  1.96555266e-01  8.12280487e-01 
 1.65280000e-03  1.62691090e-01  1.62692954e-01  8.12280518e-01 
 1.66280000e-03  1.31738818e-01  1.31740473e-01  8.12280550e-01 
 1.67280000e-03  1.03818522e-01  1.03819975e-01  8.12280571e-01 
 1.68280000e-03  7.90403910e-02  7.90416473e-02  8.12280555e-01 
 1.69280000e-03  5.75022123e-02  5.75032759e-02  8.12280455e-01 
 1.70280000e-03  3.92889875e-02  3.92898616e-02  8.12280202e-01 
 1.71280000e-03  2.44725958e-02  2.44732826e-02  8.12279715e-01 
 1.72280000e-03  1.31115109e-02  1.31120120e-02  8.12278926e-01 
 1.73280000e-03  5.25056955e-03  5.25088627e-03  8.12277819e-01 
 1.74280000e-03  9.20795471e-04  9.20928407e-04  8.12276452e-01 
 1.75280000e-03  1.39276265e-04  1.39225686e-04  8.12274957e-01 
 1.76280000e-03  2.90909623e-03  2.90886201e-03  8.12273501e-01 
 1.77280000e-03  9.21932415e-03  9.21890577e-03  8.12272233e-01 
 1.78280000e-03  1.90450564e-02  1.90444530e-02  8.12271238e-01 
 1.79280000e-03  3.23475154e-02  3.23467254e-02  8.12270527e-01 
 1.80280000e-03  4.90742024e-02  4.90732237e-02  8.12270058e-01 
 1.81280000e-03  6.91591047e-02  6.91579347e-02  8.12269765e-01 
 1.82280000e-03  9.25229564e-02  9.25215915e-02  8.12269586e-01 
 1.83280000e-03  1.19073551e-01  1.19071986e-01  8.12269475e-01 
 1.84280000e-03  1.48706106e-01  1.48704335e-01  8.12269402e-01 
 1.85280000e-03  1.81303674e-01  1.81301689e-01  8.12269352e-01 
 1.86280000e-03  2.16737609e-01  2.16735398e-01  8.12269316e-01 
 1.87280000e-03  2.54868068e-01  2.54865617e-01  8.12269290e-01 
 1.88280000e-03  2.95544568e-01  2.95541858e-01  8.12269272e-01 
 1.89280000e-03  3.38606577e-01  3.38603582e-01  8.12269259e-01 
 1.90280000e-03  3.83884150e-01  3.83880833e-01  8.12269250e-01 
 1.91280000e-03  4.31198596e-01  4.31194908e-01  8.12269244e-01 
 1.92280000e-03  4.80363188e-01  4.80359057e-01  8.12269240e-01 
 1.93280000e-03  5.31183894e-01  5.31179215e-01  8.12269237e-01 
 1.94280000e-03  5.83460148e-01  5.83454757e-01  8.12269235e-01 
 1.95280000e-03  6.36985641e-01  6.36979270e-01  8.12269234e-01 
 1.96280000e-03  6.91549132e-01  6.91541312e-01  8.12269232e-01 
 1.97280000e-03  7.46935282e-01  7.46925129e-01  8.12269231e-01 
 1.98280000e-03  8.02925510e-01  8.02911273e-01  8.12269230e-01 
 1.99280000e-03  8.59298845e-01  8.59277495e-01  8.12269229e-01 
 2.00280000e-03  9.15832810e-01  9.15803330e-01  8.12269228e-01 
 2.01280000e-03  9.72304290e-01  9.72275565e-01  8.12269227e-01 
 2.02280000e-03  1.02849042e+00  1.02846912e+00  8.12269225e-01 
 2.03280000e-03  1.08416945e+00  1.08415413e+00  8.12269223e-01 
 2.04280000e-03  1.13912166e+00  1.13911002e+00  8.12269220e-01 
 2.05280000e-03  1.19313015e+00  1.19312084e+00  8.12269214e-01 
 2.06280000e-03  1.24598180e+00  1.24597406e+00  8.12269206e-01 
 2.07280000e-03  1.29746802e+00  1.29746141e+00  8.12269192e-01 
 2.08280000e-03  1.34738561e+00  1.34737986e+00  8.12269169e-01 
 2.09280000e-03  1.39553757e+00  1.39553251e+00  8.12269133e-01 
 2.10280000e-03  1.44173388e+00  1.44172938e+00  8.12269079e-01 
 2.11280000e-03  1.48579220e+00  1.48578819e+00  8.12269000e-01 
 2.12280000e-03  1.52753868e+00  1.52753509e+00  8.12268906e-01 
 2.13280000e-03  1.56680854e+00  1.56680533e+00  8.12268869e-01 
 2.14280000e-03  1.60344682e+00  1.60344395e+00  8.12269203e-01 
 2.15280000e-03  1.63730891e+00  1.63730636e+00  8.12271009e-01 
 2.16280000e-03  1.66826118e+00  1.66825893e+00  8.12277619e-01 
 2.17280000e-03  1.69618148e+00  1.69617951e+00  8.12297477e-01 
 2.18280000e-03  1.72095961e+00  1.72095791e+00  8.12348861e-01 
 2.19280000e-03  1.74249779e+00  1.74249636e+00  8.12464724e-01 
 2.20280000e-03  1.76071101e+00  1.76070984e+00  8.12693416e-01 
 2.21280000e-03  1.77552740e+00  1.77552648e+00  8.13089877e-01 
 2.22280000e-03  1.78688849e+00  1.78688782e+00  8.13695872e-01 
 2.23280000e-03  1.79474943e+00  1.79474901e+00  8.14516028e-01 
 2.24280000e-03  1.79907920e+00  1.79907903e+00  8.15502883e-01 
 2.25280000e-03  1.79986072e+00  1.79986079e+00  8.16562090e-01 
 2.26280000e-03  1.79709090e+00  1.79709122e+00  8.17578464e-01 
 2.27280000e-03  1.79078068e+00  1.79078124e+00  8.18451371e-01 
 2.28280000e-03  1.78095494e+00  1.78095575e+00  8.19122658e-01 
 2.29280000e-03  1.76765248e+00  1.76765355e+00  8.19585094e-01 
 2.30280000e-03  1.75092580e+00  1.75092711e+00  8.19870852e-01 
 2.31280000e-03  1.73084090e+00  1.73084247e+00  8.20029789e-01 
 2.32280000e-03  1.70747704e+00  1.70747889e+00  8.20109861e-01 
 2.33280000e-03  1.68092645e+00  1.68092857e+00  8.20146768e-01 
 2.34280000e-03  1.65129389e+00  1.65129631e+00  8.20162558e-01 
 2.35280000e-03  1.61869633e+00  1.61869905e+00  8.20168949e-01 
 2.36280000e-03  1.58326239e+00  1.58326545e+00  8.20171469e-01 
 2.37280000e-03  1.54513193e+00  1.54513535e+00  8.20172473e-01 
 2.38280000e-03  1.50445543e+00  1.50445925e+00  8.20172895e-01 
 2.39280000e-03  1.46139342e+00  1.46139769e+00  8.20173087e-01 
 2.40280000e-03  1.41611585e+00  1.41612064e+00  8.20173184e-01 
 2.41280000e-03  1.36880140e+00  1.36880683e+00  8.20173236e-01 
 2.42280000e-03  1.31963681e+00  1.31964301e+00  8.20173265e-01 
 2.43280000e-03  1.26881611e+00  1.26882331e+00  8.20173281e-01 
 2.44280000e-03  1.21653985e+00  1.21654840e+00  8.20173290e-01 
 2.45280000e-03  1.16301436e+00  1.16302485e+00  8.20173294e-01 
 2.46280000e-03  1.10845087e+00  1.10846434e+00  8.20173296e-01 
 2.47280000e-03  1.05306472e+00  1.05308304e+00  8.20173297e-01 
 2.48280000e-03  9.97074490e-01  9.97100055e-01  8.20173297e-01 
 2.49280000e-03  9.40701155e-01  9.40731794e-01  8.20173296e-01 
 2.50280000e-03  8.84167190e-01  8.84192487e-01  8.20173295e-01 
 2.51280000e-03  8.27695710e-01  8.27712668e-01  8.20173294e-01 
 2.52280000e-03  7.71509582e-01  7.71521244e-01  8.20173292e-01 
 2.53280000e-03  7.15830547e-01  7.15839245e-01  8.20173291e-01 
 2.54280000e-03  6.60878345e-01  6.60885277e-01  8.20173290e-01 
 2.55280000e-03  6.06869846e-01  6.06875626e-01  8.20173290e-01 
 2.56280000e-03  5.54018199e-01  5.54023166e-01  8.20173289e-01 
 2.57280000e-03  5.02531984e-01  5.02536339e-01  8.20173289e-01 
 2.58280000e-03  4.52614393e-01  4.52618265e-01  8.20173291e-01 
 2.59280000e-03  4.04462429e-01  4.04465902e-01  8.20173294e-01 
 2.60280000e-03  3.58266125e-01  3.58269257e-01  8.20173299e-01 
 2.61280000e-03  3.14207797e-01  3.14210630e-01  8.20173308e-01 
 2.62280000e-03  2.72461324e-01  2.72463887e-01  8.20173321e-01 
 2.63280000e-03  2.33191459e-01  2.33193774e-01  8.20173340e-01 
 2.64280000e-03  1.96553183e-01  1.96555266e-01  8.20173365e-01 
 2.65280000e-03  1.62691090e-01  1.62692954e-01  8.20173396e-01 
 2.66280000e-03  1.31738818e-01  1.31740473e-01  8.20173427e-01 
 2.67280000e-03  1.03818522e-01  1.03819975e-01  8.20173448e-01 
 2.68280000e-03  7.90403910e-02  7.90416473e-02  8.20173431e-01 
 2.69280000e-03  5.75022123e-02  5.75032759e-02  8.20173328e-01 
 2.70280000e-03  3.92889875e-02  3.92898616e-02  8.20173071e-01 
 2.71280000e-03  2.44725958e-02  2.44732826e-02  8.20172578e-01 
 2.72280000e-03  1.31115109e-02  1.31120120e-02  8.20171780e-01 
 2.73280000e-03  5.25056955e-03  5.25088627e-03  8.20170660e-01 
 2.74280000e-03  9.20795471e-04  9.20928407e-04  8.20169278e-01 
 2.75280000e-03  1.39276265e-04  1.39225686e-04  8.20167767e-01 
 2.76280000e-03  2.90909623e-03  2.90886201e-03  8.20166296e-01 
 2.77280000e-03  9.21932415e-03  9.21890577e-03  8.20165014e-01 
 2.78280000e-03  1.90450564e-02  1.90444530e-02  8.20164008e-01 
 2.79280000e-03  3.23475154e-02  3.23467254e-02  8.20163290e-01 
 2.80280000e-03  4.90742024e-02  4.90732237e-02  8.20162816e-01 
 2.81280000e-03  6.91591047e-02  6.91579347e-02  8.20162521e-01 
 2.82280000e-03  9.25229564e-02  9.25215915e-02  8.20162340e-01 
 2.83280000e-03  1.19073551e-01  1.19071986e-01  8.20162227e-01 
 2.84280000e-03  1.48706106e-01  1.48704335e-01  8.20162153e-01 
 2.85280000e-03  1.81303674e-01  1.81301689e-01  8.20162103e-01 
 2.86280000e-03  2.16737609e-01  2.16735398e-01  8.20162066e-01 
 2.87280000e-03  2.54868068e-01  2.54865617e-01  8.20162040e-01 
 2.88280000e-03  2.95544568e-01  2.95541858e-01  8.20162022e-01 
 2.89280000e-03  3.38606577e-01  3.38603582e-01  8.20162008e-01 
 2.90280000e-03  3.83884150e-01  3.83880833e-01  8.20161999e-01 
 2.91280000e-03  4.31198596e-01  4.31194908e-01  8.20161993e-01 
 2.92280000e-03  4.80363188e-01  4.80359057e-01  8.20161988e-01 
 2.93280000e-03  5.31183894e-01  5.31179215e-01  8.20161985e-01 
 2.94280000e-03  5.83460148e-01  5.83454757e-01  8.20161983e-01 
 2.95280000e-03  6.36985641e-01  6.36979270e-01  8.20161981e-01 
 2.96280000e-03  6.91549132e-01  6.91541312e-01  8.20161979e-01 
 2.97280000e-03  7.46935282e-01  7.46925129e-01  8.20161978e-01 
 2.98280000e-03  8.02925510e-01  8.02911273e-01  8.20161976e-01 
