 frequency       v(Aol_dB)       v(Aol_arg)     
 1.00000000e-01  3.10694156e+01 -1.12677440e-05 
 1.02305973e-01  3.10694156e+01 -1.15275751e-05 
 1.04665121e-01  3.10694156e+01 -1.17933979e-05 
 1.07078670e-01  3.10694156e+01 -1.20653505e-05 
 1.09547876e-01  3.10694156e+01 -1.23435742e-05 
 1.12074020e-01  3.10694156e+01 -1.26282137e-05 
 1.14658417e-01  3.10694156e+01 -1.29194169e-05 
 1.17302409e-01  3.10694156e+01 -1.32173351e-05 
 1.20007371e-01  3.10694156e+01 -1.35221233e-05 
 1.22774708e-01  3.10694156e+01 -1.38339398e-05 
 1.25605860e-01  3.10694156e+01 -1.41529468e-05 
 1.28502297e-01  3.10694156e+01 -1.44793099e-05 
 1.31465525e-01  3.10694156e+01 -1.48131989e-05 
 1.34497085e-01  3.10694156e+01 -1.51547872e-05 
 1.37598551e-01  3.10694156e+01 -1.55042525e-05 
 1.40771537e-01  3.10694156e+01 -1.58617764e-05 
 1.44017690e-01  3.10694156e+01 -1.62275447e-05 
 1.47338699e-01  3.10694156e+01 -1.66017475e-05 
 1.50736290e-01  3.10694156e+01 -1.69845793e-05 
 1.54212228e-01  3.10694156e+01 -1.73762391e-05 
 1.57768320e-01  3.10694156e+01 -1.77769305e-05 
 1.61406415e-01  3.10694156e+01 -1.81868617e-05 
 1.65128404e-01  3.10694156e+01 -1.86062458e-05 
 1.68936220e-01  3.10694156e+01 -1.90353008e-05 
 1.72831844e-01  3.10694156e+01 -1.94742497e-05 
 1.76817299e-01  3.10694156e+01 -1.99233206e-05 
 1.80894658e-01  3.10694156e+01 -2.03827470e-05 
 1.85066040e-01  3.10694156e+01 -2.08527677e-05 
 1.89333613e-01  3.10694156e+01 -2.13336268e-05 
 1.93699595e-01  3.10694156e+01 -2.18255745e-05 
 1.98166255e-01  3.10694156e+01 -2.23288664e-05 
 2.02735916e-01  3.10694156e+01 -2.28437640e-05 
 2.07410951e-01  3.10694156e+01 -2.33705350e-05 
 2.12193792e-01  3.10694156e+01 -2.39094532e-05 
 2.17086923e-01  3.10694156e+01 -2.44607988e-05 
 2.22092889e-01  3.10694156e+01 -2.50248582e-05 
 2.27214291e-01  3.10694156e+01 -2.56019247e-05 
 2.32453791e-01  3.10694156e+01 -2.61922981e-05 
 2.37814113e-01  3.10694156e+01 -2.67962854e-05 
 2.43298042e-01  3.10694156e+01 -2.74142006e-05 
 2.48908429e-01  3.10694156e+01 -2.80463646e-05 
 2.54648190e-01  3.10694156e+01 -2.86931062e-05 
 2.60520309e-01  3.10694156e+01 -2.93547615e-05 
 2.66527837e-01  3.10694156e+01 -3.00316743e-05 
 2.72673897e-01  3.10694156e+01 -3.07241966e-05 
 2.78961683e-01  3.10694156e+01 -3.14326883e-05 
 2.85394464e-01  3.10694156e+01 -3.21575176e-05 
 2.91975583e-01  3.10694156e+01 -3.28990613e-05 
 2.98708461e-01  3.10694156e+01 -3.36577048e-05 
 3.05596598e-01  3.10694156e+01 -3.44338423e-05 
 3.12643573e-01  3.10694156e+01 -3.52278774e-05 
 3.19853049e-01  3.10694156e+01 -3.60402228e-05 
 3.27228774e-01  3.10694156e+01 -3.68713006e-05 
 3.34774581e-01  3.10694156e+01 -3.77215428e-05 
 3.42494392e-01  3.10694156e+01 -3.85913914e-05 
 3.50392221e-01  3.10694156e+01 -3.94812984e-05 
 3.58472171e-01  3.10694156e+01 -4.03917265e-05 
 3.66738442e-01  3.10694156e+01 -4.13231488e-05 
 3.75195331e-01  3.10694156e+01 -4.22760495e-05 
 3.83847234e-01  3.10694156e+01 -4.32509238e-05 
 3.92698648e-01  3.10694156e+01 -4.42482784e-05 
 4.01754173e-01  3.10694156e+01 -4.52686317e-05 
 4.11018515e-01  3.10694156e+01 -4.63125141e-05 
 4.20496491e-01  3.10694156e+01 -4.73804682e-05 
 4.30193027e-01  3.10694156e+01 -4.84730490e-05 
 4.40113162e-01  3.10694156e+01 -4.95908244e-05 
 4.50262052e-01  3.10694156e+01 -5.07343754e-05 
 4.60644974e-01  3.10694156e+01 -5.19042964e-05 
 4.71267322e-01  3.10694156e+01 -5.31011955e-05 
 4.82134619e-01  3.10694156e+01 -5.43256947e-05 
 4.93252513e-01  3.10694156e+01 -5.55784305e-05 
 5.04626783e-01  3.10694156e+01 -5.68600541e-05 
 5.16263340e-01  3.10694156e+01 -5.81712316e-05 
 5.28168234e-01  3.10694156e+01 -5.95126445e-05 
 5.40347650e-01  3.10694156e+01 -6.08849900e-05 
 5.52807921e-01  3.10694156e+01 -6.22889814e-05 
 5.65555523e-01  3.10694156e+01 -6.37253485e-05 
 5.78597080e-01  3.10694156e+01 -6.51948378e-05 
 5.91939372e-01  3.10694156e+01 -6.66982132e-05 
 6.05589334e-01  3.10694156e+01 -6.82362559e-05 
 6.19554061e-01  3.10694156e+01 -6.98097656e-05 
 6.33840810e-01  3.10694156e+01 -7.14195599e-05 
 6.48457008e-01  3.10694156e+01 -7.30664757e-05 
 6.63410251e-01  3.10694156e+01 -7.47513689e-05 
 6.78708313e-01  3.10694156e+01 -7.64751152e-05 
 6.94359143e-01  3.10694156e+01 -7.82386107e-05 
 7.10370877e-01  3.10694156e+01 -8.00427720e-05 
 7.26751838e-01  3.10694156e+01 -8.18885367e-05 
 7.43510539e-01  3.10694156e+01 -8.37768642e-05 
 7.60655691e-01  3.10694156e+01 -8.57087360e-05 
 7.78196206e-01  3.10694156e+01 -8.76851563e-05 
 7.96141200e-01  3.10694156e+01 -8.97071524e-05 
 8.14500001e-01  3.10694156e+01 -9.17757751e-05 
 8.33282151e-01  3.10694156e+01 -9.38920996e-05 
 8.52497412e-01  3.10694156e+01 -9.60572261e-05 
 8.72155772e-01  3.10694156e+01 -9.82722798e-05 
 8.92267449e-01  3.10694156e+01 -1.00538412e-04 
 9.12842895e-01  3.10694156e+01 -1.02856801e-04 
 9.33892805e-01  3.10694156e+01 -1.05228651e-04 
 9.55428121e-01  3.10694156e+01 -1.07655195e-04 
 9.77460036e-01  3.10694156e+01 -1.10137695e-04 
 1.00000000e+00  3.10694156e+01 -1.12677440e-04 
 1.02305973e+00  3.10694156e+01 -1.15275751e-04 
 1.04665121e+00  3.10694156e+01 -1.17933979e-04 
 1.07078670e+00  3.10694156e+01 -1.20653505e-04 
 1.09547876e+00  3.10694156e+01 -1.23435742e-04 
 1.12074020e+00  3.10694156e+01 -1.26282137e-04 
 1.14658417e+00  3.10694156e+01 -1.29194169e-04 
 1.17302409e+00  3.10694156e+01 -1.32173351e-04 
 1.20007371e+00  3.10694156e+01 -1.35221233e-04 
 1.22774708e+00  3.10694156e+01 -1.38339398e-04 
 1.25605860e+00  3.10694156e+01 -1.41529468e-04 
 1.28502297e+00  3.10694156e+01 -1.44793099e-04 
 1.31465525e+00  3.10694156e+01 -1.48131989e-04 
 1.34497085e+00  3.10694156e+01 -1.51547872e-04 
 1.37598551e+00  3.10694156e+01 -1.55042525e-04 
 1.40771537e+00  3.10694156e+01 -1.58617764e-04 
 1.44017690e+00  3.10694156e+01 -1.62275447e-04 
 1.47338699e+00  3.10694156e+01 -1.66017475e-04 
 1.50736290e+00  3.10694156e+01 -1.69845793e-04 
 1.54212228e+00  3.10694156e+01 -1.73762391e-04 
 1.57768320e+00  3.10694156e+01 -1.77769305e-04 
 1.61406415e+00  3.10694156e+01 -1.81868617e-04 
 1.65128404e+00  3.10694156e+01 -1.86062458e-04 
 1.68936220e+00  3.10694156e+01 -1.90353008e-04 
 1.72831844e+00  3.10694156e+01 -1.94742497e-04 
 1.76817299e+00  3.10694156e+01 -1.99233206e-04 
 1.80894658e+00  3.10694156e+01 -2.03827470e-04 
 1.85066040e+00  3.10694156e+01 -2.08527677e-04 
 1.89333613e+00  3.10694156e+01 -2.13336268e-04 
 1.93699595e+00  3.10694156e+01 -2.18255745e-04 
 1.98166255e+00  3.10694156e+01 -2.23288664e-04 
 2.02735916e+00  3.10694156e+01 -2.28437640e-04 
 2.07410951e+00  3.10694156e+01 -2.33705350e-04 
 2.12193792e+00  3.10694156e+01 -2.39094532e-04 
 2.17086923e+00  3.10694156e+01 -2.44607988e-04 
 2.22092889e+00  3.10694156e+01 -2.50248582e-04 
 2.27214291e+00  3.10694156e+01 -2.56019247e-04 
 2.32453791e+00  3.10694156e+01 -2.61922981e-04 
 2.37814113e+00  3.10694156e+01 -2.67962854e-04 
 2.43298042e+00  3.10694156e+01 -2.74142006e-04 
 2.48908429e+00  3.10694156e+01 -2.80463646e-04 
 2.54648190e+00  3.10694156e+01 -2.86931062e-04 
 2.60520309e+00  3.10694156e+01 -2.93547615e-04 
 2.66527837e+00  3.10694156e+01 -3.00316743e-04 
 2.72673897e+00  3.10694156e+01 -3.07241966e-04 
 2.78961683e+00  3.10694156e+01 -3.14326883e-04 
 2.85394464e+00  3.10694156e+01 -3.21575176e-04 
 2.91975583e+00  3.10694156e+01 -3.28990613e-04 
 2.98708461e+00  3.10694156e+01 -3.36577048e-04 
 3.05596598e+00  3.10694156e+01 -3.44338423e-04 
 3.12643573e+00  3.10694156e+01 -3.52278774e-04 
 3.19853049e+00  3.10694156e+01 -3.60402228e-04 
 3.27228774e+00  3.10694156e+01 -3.68713006e-04 
 3.34774581e+00  3.10694156e+01 -3.77215428e-04 
 3.42494392e+00  3.10694156e+01 -3.85913914e-04 
 3.50392221e+00  3.10694156e+01 -3.94812984e-04 
 3.58472171e+00  3.10694156e+01 -4.03917265e-04 
 3.66738442e+00  3.10694156e+01 -4.13231488e-04 
 3.75195331e+00  3.10694156e+01 -4.22760495e-04 
 3.83847234e+00  3.10694156e+01 -4.32509238e-04 
 3.92698648e+00  3.10694156e+01 -4.42482784e-04 
 4.01754173e+00  3.10694156e+01 -4.52686317e-04 
 4.11018515e+00  3.10694156e+01 -4.63125141e-04 
 4.20496491e+00  3.10694156e+01 -4.73804682e-04 
 4.30193027e+00  3.10694156e+01 -4.84730490e-04 
 4.40113162e+00  3.10694156e+01 -4.95908244e-04 
 4.50262052e+00  3.10694156e+01 -5.07343754e-04 
 4.60644974e+00  3.10694156e+01 -5.19042964e-04 
 4.71267322e+00  3.10694156e+01 -5.31011955e-04 
 4.82134619e+00  3.10694156e+01 -5.43256947e-04 
 4.93252513e+00  3.10694156e+01 -5.55784305e-04 
 5.04626783e+00  3.10694156e+01 -5.68600541e-04 
 5.16263340e+00  3.10694156e+01 -5.81712316e-04 
 5.28168234e+00  3.10694156e+01 -5.95126445e-04 
 5.40347650e+00  3.10694156e+01 -6.08849900e-04 
 5.52807921e+00  3.10694156e+01 -6.22889814e-04 
 5.65555523e+00  3.10694156e+01 -6.37253485e-04 
 5.78597080e+00  3.10694156e+01 -6.51948378e-04 
 5.91939372e+00  3.10694156e+01 -6.66982132e-04 
 6.05589334e+00  3.10694156e+01 -6.82362559e-04 
 6.19554061e+00  3.10694156e+01 -6.98097656e-04 
 6.33840810e+00  3.10694156e+01 -7.14195599e-04 
 6.48457008e+00  3.10694156e+01 -7.30664757e-04 
 6.63410251e+00  3.10694156e+01 -7.47513689e-04 
 6.78708313e+00  3.10694156e+01 -7.64751152e-04 
 6.94359143e+00  3.10694156e+01 -7.82386107e-04 
 7.10370877e+00  3.10694156e+01 -8.00427719e-04 
 7.26751838e+00  3.10694156e+01 -8.18885366e-04 
 7.43510539e+00  3.10694156e+01 -8.37768642e-04 
 7.60655691e+00  3.10694156e+01 -8.57087360e-04 
 7.78196206e+00  3.10694156e+01 -8.76851563e-04 
 7.96141200e+00  3.10694156e+01 -8.97071523e-04 
 8.14500001e+00  3.10694156e+01 -9.17757750e-04 
 8.33282151e+00  3.10694156e+01 -9.38920996e-04 
 8.52497412e+00  3.10694156e+01 -9.60572261e-04 
 8.72155772e+00  3.10694156e+01 -9.82722798e-04 
 8.92267449e+00  3.10694156e+01 -1.00538412e-03 
 9.12842895e+00  3.10694156e+01 -1.02856801e-03 
 9.33892805e+00  3.10694156e+01 -1.05228651e-03 
 9.55428121e+00  3.10694156e+01 -1.07655195e-03 
 9.77460036e+00  3.10694156e+01 -1.10137695e-03 
 1.00000000e+01  3.10694156e+01 -1.12677440e-03 
 1.02305973e+01  3.10694156e+01 -1.15275751e-03 
 1.04665121e+01  3.10694156e+01 -1.17933979e-03 
 1.07078670e+01  3.10694156e+01 -1.20653505e-03 
 1.09547876e+01  3.10694156e+01 -1.23435742e-03 
 1.12074020e+01  3.10694156e+01 -1.26282137e-03 
 1.14658417e+01  3.10694156e+01 -1.29194169e-03 
 1.17302409e+01  3.10694156e+01 -1.32173351e-03 
 1.20007371e+01  3.10694156e+01 -1.35221233e-03 
 1.22774708e+01  3.10694156e+01 -1.38339398e-03 
 1.25605860e+01  3.10694156e+01 -1.41529467e-03 
 1.28502297e+01  3.10694156e+01 -1.44793099e-03 
 1.31465525e+01  3.10694156e+01 -1.48131989e-03 
 1.34497085e+01  3.10694156e+01 -1.51547872e-03 
 1.37598551e+01  3.10694156e+01 -1.55042525e-03 
 1.40771537e+01  3.10694156e+01 -1.58617764e-03 
 1.44017690e+01  3.10694156e+01 -1.62275447e-03 
 1.47338699e+01  3.10694156e+01 -1.66017475e-03 
 1.50736290e+01  3.10694156e+01 -1.69845793e-03 
 1.54212228e+01  3.10694156e+01 -1.73762391e-03 
 1.57768320e+01  3.10694156e+01 -1.77769305e-03 
 1.61406415e+01  3.10694156e+01 -1.81868617e-03 
 1.65128404e+01  3.10694156e+01 -1.86062458e-03 
 1.68936220e+01  3.10694156e+01 -1.90353008e-03 
 1.72831844e+01  3.10694156e+01 -1.94742497e-03 
 1.76817299e+01  3.10694156e+01 -1.99233206e-03 
 1.80894658e+01  3.10694156e+01 -2.03827470e-03 
 1.85066040e+01  3.10694156e+01 -2.08527677e-03 
 1.89333613e+01  3.10694156e+01 -2.13336268e-03 
 1.93699595e+01  3.10694156e+01 -2.18255745e-03 
 1.98166255e+01  3.10694156e+01 -2.23288664e-03 
 2.02735916e+01  3.10694156e+01 -2.28437640e-03 
 2.07410951e+01  3.10694156e+01 -2.33705350e-03 
 2.12193792e+01  3.10694156e+01 -2.39094532e-03 
 2.17086923e+01  3.10694156e+01 -2.44607988e-03 
 2.22092889e+01  3.10694156e+01 -2.50248582e-03 
 2.27214291e+01  3.10694156e+01 -2.56019246e-03 
 2.32453791e+01  3.10694156e+01 -2.61922981e-03 
 2.37814113e+01  3.10694156e+01 -2.67962854e-03 
 2.43298042e+01  3.10694156e+01 -2.74142005e-03 
 2.48908429e+01  3.10694156e+01 -2.80463646e-03 
 2.54648190e+01  3.10694156e+01 -2.86931062e-03 
 2.60520309e+01  3.10694156e+01 -2.93547615e-03 
 2.66527837e+01  3.10694156e+01 -3.00316743e-03 
 2.72673897e+01  3.10694155e+01 -3.07241966e-03 
 2.78961683e+01  3.10694155e+01 -3.14326883e-03 
 2.85394464e+01  3.10694155e+01 -3.21575176e-03 
 2.91975583e+01  3.10694155e+01 -3.28990613e-03 
 2.98708461e+01  3.10694155e+01 -3.36577047e-03 
 3.05596598e+01  3.10694155e+01 -3.44338423e-03 
 3.12643573e+01  3.10694155e+01 -3.52278774e-03 
 3.19853049e+01  3.10694155e+01 -3.60402227e-03 
 3.27228774e+01  3.10694155e+01 -3.68713005e-03 
 3.34774581e+01  3.10694155e+01 -3.77215427e-03 
 3.42494392e+01  3.10694155e+01 -3.85913913e-03 
 3.50392221e+01  3.10694155e+01 -3.94812984e-03 
 3.58472171e+01  3.10694155e+01 -4.03917265e-03 
 3.66738442e+01  3.10694155e+01 -4.13231488e-03 
 3.75195331e+01  3.10694155e+01 -4.22760494e-03 
 3.83847234e+01  3.10694155e+01 -4.32509237e-03 
 3.92698648e+01  3.10694155e+01 -4.42482783e-03 
 4.01754173e+01  3.10694155e+01 -4.52686316e-03 
 4.11018515e+01  3.10694155e+01 -4.63125140e-03 
 4.20496491e+01  3.10694155e+01 -4.73804681e-03 
 4.30193027e+01  3.10694155e+01 -4.84730489e-03 
 4.40113162e+01  3.10694155e+01 -4.95908243e-03 
 4.50262052e+01  3.10694155e+01 -5.07343753e-03 
 4.60644974e+01  3.10694155e+01 -5.19042963e-03 
 4.71267322e+01  3.10694155e+01 -5.31011953e-03 
 4.82134619e+01  3.10694155e+01 -5.43256945e-03 
 4.93252513e+01  3.10694155e+01 -5.55784304e-03 
 5.04626783e+01  3.10694155e+01 -5.68600539e-03 
 5.16263340e+01  3.10694155e+01 -5.81712314e-03 
 5.28168234e+01  3.10694155e+01 -5.95126443e-03 
 5.40347650e+01  3.10694155e+01 -6.08849898e-03 
 5.52807921e+01  3.10694155e+01 -6.22889812e-03 
 5.65555523e+01  3.10694155e+01 -6.37253482e-03 
 5.78597080e+01  3.10694155e+01 -6.51948375e-03 
 5.91939372e+01  3.10694155e+01 -6.66982129e-03 
 6.05589334e+01  3.10694155e+01 -6.82362556e-03 
 6.19554061e+01  3.10694155e+01 -6.98097652e-03 
 6.33840810e+01  3.10694155e+01 -7.14195595e-03 
 6.48457008e+01  3.10694155e+01 -7.30664753e-03 
 6.63410251e+01  3.10694155e+01 -7.47513684e-03 
 6.78708313e+01  3.10694155e+01 -7.64751148e-03 
 6.94359143e+01  3.10694155e+01 -7.82386102e-03 
 7.10370877e+01  3.10694155e+01 -8.00427714e-03 
 7.26751838e+01  3.10694155e+01 -8.18885361e-03 
 7.43510539e+01  3.10694155e+01 -8.37768636e-03 
 7.60655691e+01  3.10694155e+01 -8.57087354e-03 
 7.78196206e+01  3.10694155e+01 -8.76851557e-03 
 7.96141200e+01  3.10694155e+01 -8.97071516e-03 
 8.14500001e+01  3.10694155e+01 -9.17757743e-03 
 8.33282151e+01  3.10694154e+01 -9.38920988e-03 
 8.52497412e+01  3.10694154e+01 -9.60572252e-03 
 8.72155772e+01  3.10694154e+01 -9.82722788e-03 
 8.92267449e+01  3.10694154e+01 -1.00538411e-02 
 9.12842895e+01  3.10694154e+01 -1.02856800e-02 
 9.33892805e+01  3.10694154e+01 -1.05228649e-02 
 9.55428121e+01  3.10694154e+01 -1.07655194e-02 
 9.77460036e+01  3.10694154e+01 -1.10137693e-02 
 1.00000000e+02  3.10694154e+01 -1.12677439e-02 
 1.02305973e+02  3.10694154e+01 -1.15275750e-02 
 1.04665121e+02  3.10694154e+01 -1.17933977e-02 
 1.07078670e+02  3.10694154e+01 -1.20653503e-02 
 1.09547876e+02  3.10694154e+01 -1.23435740e-02 
 1.12074020e+02  3.10694154e+01 -1.26282135e-02 
 1.14658417e+02  3.10694153e+01 -1.29194167e-02 
 1.17302409e+02  3.10694153e+01 -1.32173349e-02 
 1.20007371e+02  3.10694153e+01 -1.35221231e-02 
 1.22774708e+02  3.10694153e+01 -1.38339396e-02 
 1.25605860e+02  3.10694153e+01 -1.41529465e-02 
 1.28502297e+02  3.10694153e+01 -1.44793096e-02 
 1.31465525e+02  3.10694153e+01 -1.48131985e-02 
 1.34497085e+02  3.10694153e+01 -1.51547869e-02 
 1.37598551e+02  3.10694152e+01 -1.55042521e-02 
 1.40771537e+02  3.10694152e+01 -1.58617760e-02 
 1.44017690e+02  3.10694152e+01 -1.62275442e-02 
 1.47338699e+02  3.10694152e+01 -1.66017470e-02 
 1.50736290e+02  3.10694152e+01 -1.69845788e-02 
 1.54212228e+02  3.10694152e+01 -1.73762386e-02 
 1.57768320e+02  3.10694151e+01 -1.77769299e-02 
 1.61406415e+02  3.10694151e+01 -1.81868611e-02 
 1.65128404e+02  3.10694151e+01 -1.86062451e-02 
 1.68936220e+02  3.10694151e+01 -1.90353001e-02 
 1.72831844e+02  3.10694151e+01 -1.94742489e-02 
 1.76817299e+02  3.10694150e+01 -1.99233198e-02 
 1.80894658e+02  3.10694150e+01 -2.03827462e-02 
 1.85066040e+02  3.10694150e+01 -2.08527667e-02 
 1.89333613e+02  3.10694150e+01 -2.13336259e-02 
 1.93699595e+02  3.10694149e+01 -2.18255735e-02 
 1.98166255e+02  3.10694149e+01 -2.23288652e-02 
 2.02735916e+02  3.10694149e+01 -2.28437628e-02 
 2.07410951e+02  3.10694148e+01 -2.33705337e-02 
 2.12193792e+02  3.10694148e+01 -2.39094519e-02 
 2.17086923e+02  3.10694148e+01 -2.44607973e-02 
 2.22092889e+02  3.10694147e+01 -2.50248566e-02 
 2.27214291e+02  3.10694147e+01 -2.56019230e-02 
 2.32453791e+02  3.10694147e+01 -2.61922963e-02 
 2.37814113e+02  3.10694146e+01 -2.67962835e-02 
 2.43298042e+02  3.10694146e+01 -2.74141985e-02 
 2.48908429e+02  3.10694145e+01 -2.80463624e-02 
 2.54648190e+02  3.10694145e+01 -2.86931038e-02 
 2.60520309e+02  3.10694144e+01 -2.93547589e-02 
 2.66527837e+02  3.10694144e+01 -3.00316716e-02 
 2.72673897e+02  3.10694143e+01 -3.07241937e-02 
 2.78961683e+02  3.10694143e+01 -3.14326852e-02 
 2.85394464e+02  3.10694142e+01 -3.21575142e-02 
 2.91975583e+02  3.10694141e+01 -3.28990577e-02 
 2.98708461e+02  3.10694141e+01 -3.36577009e-02 
 3.05596598e+02  3.10694140e+01 -3.44338382e-02 
 3.12643573e+02  3.10694139e+01 -3.52278730e-02 
 3.19853049e+02  3.10694138e+01 -3.60402180e-02 
 3.27228774e+02  3.10694138e+01 -3.68712955e-02 
 3.34774581e+02  3.10694137e+01 -3.77215374e-02 
 3.42494392e+02  3.10694136e+01 -3.85913856e-02 
 3.50392221e+02  3.10694135e+01 -3.94812922e-02 
 3.58472171e+02  3.10694134e+01 -4.03917198e-02 
 3.66738442e+02  3.10694133e+01 -4.13231417e-02 
 3.75195331e+02  3.10694132e+01 -4.22760418e-02 
 3.83847234e+02  3.10694131e+01 -4.32509155e-02 
 3.92698648e+02  3.10694130e+01 -4.42482696e-02 
 4.01754173e+02  3.10694129e+01 -4.52686223e-02 
 4.11018515e+02  3.10694127e+01 -4.63125041e-02 
 4.20496491e+02  3.10694126e+01 -4.73804574e-02 
 4.30193027e+02  3.10694125e+01 -4.84730374e-02 
 4.40113162e+02  3.10694123e+01 -4.95908120e-02 
 4.50262052e+02  3.10694122e+01 -5.07343622e-02 
 4.60644974e+02  3.10694120e+01 -5.19042822e-02 
 4.71267322e+02  3.10694118e+01 -5.31011803e-02 
 4.82134619e+02  3.10694117e+01 -5.43256784e-02 
 4.93252513e+02  3.10694115e+01 -5.55784131e-02 
 5.04626783e+02  3.10694113e+01 -5.68600355e-02 
 5.16263340e+02  3.10694111e+01 -5.81712116e-02 
 5.28168234e+02  3.10694109e+01 -5.95126231e-02 
 5.40347650e+02  3.10694107e+01 -6.08849671e-02 
 5.52807921e+02  3.10694104e+01 -6.22889569e-02 
 5.65555523e+02  3.10694102e+01 -6.37253222e-02 
 5.78597080e+02  3.10694099e+01 -6.51948097e-02 
 5.91939372e+02  3.10694097e+01 -6.66981831e-02 
 6.05589334e+02  3.10694094e+01 -6.82362237e-02 
 6.19554061e+02  3.10694091e+01 -6.98097311e-02 
 6.33840810e+02  3.10694088e+01 -7.14195229e-02 
 6.48457008e+02  3.10694085e+01 -7.30664361e-02 
 6.63410251e+02  3.10694082e+01 -7.47513265e-02 
 6.78708313e+02  3.10694078e+01 -7.64750698e-02 
 6.94359143e+02  3.10694075e+01 -7.82385621e-02 
 7.10370877e+02  3.10694071e+01 -8.00427199e-02 
 7.26751838e+02  3.10694067e+01 -8.18884809e-02 
 7.43510539e+02  3.10694063e+01 -8.37768045e-02 
 7.60655691e+02  3.10694058e+01 -8.57086722e-02 
 7.78196206e+02  3.10694054e+01 -8.76850879e-02 
 7.96141200e+02  3.10694049e+01 -8.97070791e-02 
 8.14500001e+02  3.10694044e+01 -9.17756966e-02 
 8.33282151e+02  3.10694039e+01 -9.38920156e-02 
 8.52497412e+02  3.10694034e+01 -9.60571362e-02 
 8.72155772e+02  3.10694028e+01 -9.82721835e-02 
 8.92267449e+02  3.10694022e+01 -1.00538309e-01 
 9.12842895e+02  3.10694016e+01 -1.02856690e-01 
 9.33892805e+02  3.10694009e+01 -1.05228532e-01 
 9.55428121e+02  3.10694002e+01 -1.07655068e-01 
 9.77460036e+02  3.10693995e+01 -1.10137559e-01 
 1.00000000e+03  3.10693988e+01 -1.12677295e-01 
 1.02305973e+03  3.10693980e+01 -1.15275596e-01 
 1.04665121e+03  3.10693972e+01 -1.17933813e-01 
