 frequency       v(Zin_cm)       v(Zin_cm)      
 1.00000000e-02  8.12492065e+05 -3.76837791e-02 
 1.02305973e-02  8.12492065e+05 -3.85527568e-02 
 1.04665121e-02  8.12492065e+05 -3.94417730e-02 
 1.07078670e-02  8.12492065e+05 -4.03512896e-02 
 1.09547876e-02  8.12492065e+05 -4.12817795e-02 
 1.12074020e-02  8.12492065e+05 -4.22337261e-02 
 1.14658417e-02  8.12492065e+05 -4.32076245e-02 
 1.17302409e-02  8.12492065e+05 -4.42039806e-02 
 1.20007371e-02  8.12492065e+05 -4.52233125e-02 
 1.22774708e-02  8.12492065e+05 -4.62661498e-02 
 1.25605860e-02  8.12492065e+05 -4.73330347e-02 
 1.28502297e-02  8.12492065e+05 -4.84245217e-02 
 1.31465525e-02  8.12492065e+05 -4.95411781e-02 
 1.34497085e-02  8.12492065e+05 -5.06835843e-02 
 1.37598551e-02  8.12492065e+05 -5.18523341e-02 
 1.40771537e-02  8.12492065e+05 -5.30480349e-02 
 1.44017690e-02  8.12492065e+05 -5.42713082e-02 
 1.47338699e-02  8.12492065e+05 -5.55227899e-02 
 1.50736290e-02  8.12492065e+05 -5.68031305e-02 
 1.54212228e-02  8.12492065e+05 -5.81129953e-02 
 1.57768320e-02  8.12492065e+05 -5.94530653e-02 
 1.61406415e-02  8.12492065e+05 -6.08240369e-02 
 1.65128404e-02  8.12492065e+05 -6.22266228e-02 
 1.68936220e-02  8.12492065e+05 -6.36615519e-02 
 1.72831844e-02  8.12492065e+05 -6.51295701e-02 
 1.76817299e-02  8.12492065e+05 -6.66314404e-02 
 1.80894658e-02  8.12492065e+05 -6.81679434e-02 
 1.85066040e-02  8.12492065e+05 -6.97398777e-02 
 1.89333613e-02  8.12492065e+05 -7.13480605e-02 
 1.93699595e-02  8.12492065e+05 -7.29933275e-02 
 1.98166255e-02  8.12492065e+05 -7.46765339e-02 
 2.02735916e-02  8.12492065e+05 -7.63985546e-02 
 2.07410951e-02  8.12492065e+05 -7.81602846e-02 
 2.12193792e-02  8.12492065e+05 -7.99626397e-02 
 2.17086923e-02  8.12492065e+05 -8.18065565e-02 
 2.22092889e-02  8.12492065e+05 -8.36929936e-02 
 2.27214291e-02  8.12492065e+05 -8.56229314e-02 
 2.32453791e-02  8.12492065e+05 -8.75973731e-02 
 2.37814113e-02  8.12492065e+05 -8.96173449e-02 
 2.43298042e-02  8.12492065e+05 -9.16838966e-02 
 2.48908429e-02  8.12492065e+05 -9.37981025e-02 
 2.54648190e-02  8.12492065e+05 -9.59610614e-02 
 2.60520309e-02  8.12492065e+05 -9.81738976e-02 
 2.66527837e-02  8.12492065e+05 -1.00437761e-01 
 2.72673897e-02  8.12492065e+05 -1.02753829e-01 
 2.78961683e-02  8.12492065e+05 -1.05123304e-01 
 2.85394464e-02  8.12492065e+05 -1.07547419e-01 
 2.91975583e-02  8.12492065e+05 -1.10027434e-01 
 2.98708461e-02  8.12492065e+05 -1.12564637e-01 
 3.05596598e-02  8.12492065e+05 -1.15160347e-01 
 3.12643573e-02  8.12492065e+05 -1.17815913e-01 
 3.19853049e-02  8.12492065e+05 -1.20532716e-01 
 3.27228774e-02  8.12492065e+05 -1.23312168e-01 
 3.34774581e-02  8.12492065e+05 -1.26155714e-01 
 3.42494392e-02  8.12492065e+05 -1.29064830e-01 
 3.50392221e-02  8.12492065e+05 -1.32041030e-01 
 3.58472171e-02  8.12492065e+05 -1.35085861e-01 
 3.66738442e-02  8.12492065e+05 -1.38200904e-01 
 3.75195331e-02  8.12492065e+05 -1.41387780e-01 
 3.83847234e-02  8.12492065e+05 -1.44648144e-01 
 3.92698648e-02  8.12492065e+05 -1.47983691e-01 
 4.01754173e-02  8.12492065e+05 -1.51396155e-01 
 4.11018515e-02  8.12492065e+05 -1.54887309e-01 
 4.20496491e-02  8.12492065e+05 -1.58458969e-01 
 4.30193027e-02  8.12492065e+05 -1.62112990e-01 
 4.40113162e-02  8.12492065e+05 -1.65851271e-01 
 4.50262052e-02  8.12492065e+05 -1.69675757e-01 
 4.60644974e-02  8.12492065e+05 -1.73588434e-01 
 4.71267322e-02  8.12492065e+05 -1.77591337e-01 
 4.82134619e-02  8.12492065e+05 -1.81686545e-01 
 4.93252513e-02  8.12492065e+05 -1.85876187e-01 
 5.04626783e-02  8.12492065e+05 -1.90162442e-01 
 5.16263340e-02  8.12492065e+05 -1.94547537e-01 
 5.28168234e-02  8.12492065e+05 -1.99033750e-01 
 5.40347650e-02  8.12492065e+05 -2.03623415e-01 
 5.52807921e-02  8.12492065e+05 -2.08318916e-01 
 5.65555523e-02  8.12492065e+05 -2.13122694e-01 
 5.78597080e-02  8.12492065e+05 -2.18037245e-01 
 5.91939372e-02  8.12492065e+05 -2.23065125e-01 
 6.05589334e-02  8.12492065e+05 -2.28208947e-01 
 6.19554061e-02  8.12492065e+05 -2.33471384e-01 
 6.33840810e-02  8.12492065e+05 -2.38855171e-01 
 6.48457008e-02  8.12492065e+05 -2.44363106e-01 
 6.63410251e-02  8.12492065e+05 -2.49998053e-01 
 6.78708313e-02  8.12492065e+05 -2.55762941e-01 
 6.94359143e-02  8.12492065e+05 -2.61660765e-01 
 7.10370877e-02  8.12492065e+05 -2.67694592e-01 
 7.26751838e-02  8.12492065e+05 -2.73867557e-01 
 7.43510539e-02  8.12492065e+05 -2.80182869e-01 
 7.60655691e-02  8.12492065e+05 -2.86643810e-01 
 7.78196206e-02  8.12492065e+05 -2.93253739e-01 
 7.96141200e-02  8.12492065e+05 -3.00016091e-01 
 8.14500001e-02  8.12492065e+05 -3.06934381e-01 
 8.33282151e-02  8.12492065e+05 -3.14012205e-01 
 8.52497412e-02  8.12492065e+05 -3.21253241e-01 
 8.72155772e-02  8.12492065e+05 -3.28661254e-01 
 8.92267449e-02  8.12492065e+05 -3.36240094e-01 
 9.12842895e-02  8.12492065e+05 -3.43993700e-01 
 9.33892805e-02  8.12492065e+05 -3.51926102e-01 
 9.55428121e-02  8.12492065e+05 -3.60041422e-01 
 9.77460036e-02  8.12492065e+05 -3.68343880e-01 
 1.00000000e-01  8.12492065e+05 -3.76837791e-01 
 1.02305973e-01  8.12492065e+05 -3.85527568e-01 
 1.04665121e-01  8.12492065e+05 -3.94417730e-01 
 1.07078670e-01  8.12492065e+05 -4.03512896e-01 
 1.09547876e-01  8.12492065e+05 -4.12817795e-01 
 1.12074020e-01  8.12492065e+05 -4.22337261e-01 
 1.14658417e-01  8.12492065e+05 -4.32076245e-01 
 1.17302409e-01  8.12492065e+05 -4.42039806e-01 
 1.20007371e-01  8.12492065e+05 -4.52233125e-01 
 1.22774708e-01  8.12492065e+05 -4.62661498e-01 
 1.25605860e-01  8.12492065e+05 -4.73330347e-01 
 1.28502297e-01  8.12492065e+05 -4.84245217e-01 
 1.31465525e-01  8.12492065e+05 -4.95411781e-01 
 1.34497085e-01  8.12492065e+05 -5.06835843e-01 
 1.37598551e-01  8.12492065e+05 -5.18523341e-01 
 1.40771537e-01  8.12492065e+05 -5.30480349e-01 
 1.44017690e-01  8.12492065e+05 -5.42713082e-01 
 1.47338699e-01  8.12492065e+05 -5.55227899e-01 
 1.50736290e-01  8.12492065e+05 -5.68031305e-01 
 1.54212228e-01  8.12492065e+05 -5.81129953e-01 
 1.57768320e-01  8.12492065e+05 -5.94530653e-01 
 1.61406415e-01  8.12492065e+05 -6.08240369e-01 
 1.65128404e-01  8.12492065e+05 -6.22266228e-01 
 1.68936220e-01  8.12492065e+05 -6.36615519e-01 
 1.72831844e-01  8.12492065e+05 -6.51295701e-01 
 1.76817299e-01  8.12492065e+05 -6.66314404e-01 
 1.80894658e-01  8.12492065e+05 -6.81679434e-01 
 1.85066040e-01  8.12492065e+05 -6.97398777e-01 
 1.89333613e-01  8.12492065e+05 -7.13480605e-01 
 1.93699595e-01  8.12492065e+05 -7.29933275e-01 
 1.98166255e-01  8.12492065e+05 -7.46765339e-01 
 2.02735916e-01  8.12492065e+05 -7.63985546e-01 
 2.07410951e-01  8.12492065e+05 -7.81602846e-01 
 2.12193792e-01  8.12492065e+05 -7.99626397e-01 
 2.17086923e-01  8.12492065e+05 -8.18065565e-01 
 2.22092889e-01  8.12492065e+05 -8.36929936e-01 
 2.27214291e-01  8.12492065e+05 -8.56229314e-01 
 2.32453791e-01  8.12492065e+05 -8.75973731e-01 
 2.37814113e-01  8.12492065e+05 -8.96173449e-01 
 2.43298042e-01  8.12492065e+05 -9.16838966e-01 
 2.48908429e-01  8.12492065e+05 -9.37981025e-01 
 2.54648190e-01  8.12492065e+05 -9.59610614e-01 
 2.60520309e-01  8.12492065e+05 -9.81738976e-01 
 2.66527837e-01  8.12492065e+05 -1.00437761e+00 
 2.72673897e-01  8.12492065e+05 -1.02753829e+00 
 2.78961683e-01  8.12492065e+05 -1.05123304e+00 
 2.85394464e-01  8.12492065e+05 -1.07547419e+00 
 2.91975583e-01  8.12492065e+05 -1.10027434e+00 
 2.98708461e-01  8.12492065e+05 -1.12564637e+00 
 3.05596598e-01  8.12492065e+05 -1.15160347e+00 
 3.12643573e-01  8.12492065e+05 -1.17815913e+00 
 3.19853049e-01  8.12492065e+05 -1.20532716e+00 
 3.27228774e-01  8.12492065e+05 -1.23312168e+00 
 3.34774581e-01  8.12492065e+05 -1.26155714e+00 
 3.42494392e-01  8.12492065e+05 -1.29064830e+00 
 3.50392221e-01  8.12492065e+05 -1.32041030e+00 
 3.58472171e-01  8.12492065e+05 -1.35085861e+00 
 3.66738442e-01  8.12492065e+05 -1.38200904e+00 
 3.75195331e-01  8.12492065e+05 -1.41387780e+00 
 3.83847234e-01  8.12492065e+05 -1.44648144e+00 
 3.92698648e-01  8.12492065e+05 -1.47983691e+00 
 4.01754173e-01  8.12492065e+05 -1.51396155e+00 
 4.11018515e-01  8.12492065e+05 -1.54887309e+00 
 4.20496491e-01  8.12492065e+05 -1.58458969e+00 
 4.30193027e-01  8.12492065e+05 -1.62112990e+00 
 4.40113162e-01  8.12492065e+05 -1.65851271e+00 
 4.50262052e-01  8.12492065e+05 -1.69675757e+00 
 4.60644974e-01  8.12492065e+05 -1.73588434e+00 
 4.71267322e-01  8.12492065e+05 -1.77591337e+00 
 4.82134619e-01  8.12492065e+05 -1.81686545e+00 
 4.93252513e-01  8.12492065e+05 -1.85876187e+00 
 5.04626783e-01  8.12492065e+05 -1.90162442e+00 
 5.16263340e-01  8.12492065e+05 -1.94547537e+00 
 5.28168234e-01  8.12492065e+05 -1.99033750e+00 
 5.40347650e-01  8.12492065e+05 -2.03623415e+00 
 5.52807921e-01  8.12492065e+05 -2.08318916e+00 
 5.65555523e-01  8.12492065e+05 -2.13122694e+00 
 5.78597080e-01  8.12492065e+05 -2.18037245e+00 
 5.91939372e-01  8.12492065e+05 -2.23065125e+00 
 6.05589334e-01  8.12492065e+05 -2.28208947e+00 
 6.19554061e-01  8.12492065e+05 -2.33471384e+00 
 6.33840810e-01  8.12492065e+05 -2.38855171e+00 
 6.48457008e-01  8.12492065e+05 -2.44363106e+00 
 6.63410251e-01  8.12492065e+05 -2.49998053e+00 
 6.78708313e-01  8.12492065e+05 -2.55762941e+00 
 6.94359143e-01  8.12492065e+05 -2.61660765e+00 
 7.10370877e-01  8.12492065e+05 -2.67694592e+00 
 7.26751838e-01  8.12492065e+05 -2.73867557e+00 
 7.43510539e-01  8.12492065e+05 -2.80182869e+00 
 7.60655691e-01  8.12492065e+05 -2.86643810e+00 
 7.78196206e-01  8.12492065e+05 -2.93253739e+00 
 7.96141200e-01  8.12492065e+05 -3.00016091e+00 
 8.14500001e-01  8.12492065e+05 -3.06934381e+00 
 8.33282151e-01  8.12492065e+05 -3.14012205e+00 
 8.52497412e-01  8.12492065e+05 -3.21253241e+00 
 8.72155772e-01  8.12492065e+05 -3.28661254e+00 
 8.92267449e-01  8.12492065e+05 -3.36240094e+00 
 9.12842895e-01  8.12492065e+05 -3.43993700e+00 
 9.33892805e-01  8.12492065e+05 -3.51926102e+00 
 9.55428121e-01  8.12492065e+05 -3.60041422e+00 
 9.77460036e-01  8.12492065e+05 -3.68343880e+00 
 1.00000000e+00  8.12492065e+05 -3.76837791e+00 
 1.02305973e+00  8.12492065e+05 -3.85527568e+00 
 1.04665121e+00  8.12492065e+05 -3.94417730e+00 
 1.07078670e+00  8.12492065e+05 -4.03512896e+00 
 1.09547876e+00  8.12492065e+05 -4.12817795e+00 
 1.12074020e+00  8.12492065e+05 -4.22337261e+00 
 1.14658417e+00  8.12492065e+05 -4.32076244e+00 
 1.17302409e+00  8.12492065e+05 -4.42039806e+00 
 1.20007371e+00  8.12492065e+05 -4.52233124e+00 
 1.22774708e+00  8.12492065e+05 -4.62661498e+00 
 1.25605860e+00  8.12492065e+05 -4.73330347e+00 
 1.28502297e+00  8.12492065e+05 -4.84245217e+00 
 1.31465525e+00  8.12492065e+05 -4.95411781e+00 
 1.34497085e+00  8.12492065e+05 -5.06835843e+00 
 1.37598551e+00  8.12492065e+05 -5.18523341e+00 
 1.40771537e+00  8.12492065e+05 -5.30480349e+00 
 1.44017690e+00  8.12492065e+05 -5.42713082e+00 
 1.47338699e+00  8.12492065e+05 -5.55227899e+00 
 1.50736290e+00  8.12492065e+05 -5.68031305e+00 
 1.54212228e+00  8.12492065e+05 -5.81129953e+00 
 1.57768320e+00  8.12492065e+05 -5.94530653e+00 
 1.61406415e+00  8.12492065e+05 -6.08240369e+00 
 1.65128404e+00  8.12492065e+05 -6.22266228e+00 
 1.68936220e+00  8.12492065e+05 -6.36615519e+00 
 1.72831844e+00  8.12492065e+05 -6.51295700e+00 
 1.76817299e+00  8.12492065e+05 -6.66314403e+00 
 1.80894658e+00  8.12492065e+05 -6.81679433e+00 
 1.85066040e+00  8.12492065e+05 -6.97398777e+00 
 1.89333613e+00  8.12492065e+05 -7.13480604e+00 
 1.93699595e+00  8.12492065e+05 -7.29933274e+00 
 1.98166255e+00  8.12492065e+05 -7.46765338e+00 
 2.02735916e+00  8.12492065e+05 -7.63985545e+00 
 2.07410951e+00  8.12492065e+05 -7.81602846e+00 
 2.12193792e+00  8.12492065e+05 -7.99626396e+00 
 2.17086923e+00  8.12492065e+05 -8.18065565e+00 
 2.22092889e+00  8.12492065e+05 -8.36929936e+00 
 2.27214291e+00  8.12492065e+05 -8.56229314e+00 
 2.32453791e+00  8.12492065e+05 -8.75973731e+00 
 2.37814113e+00  8.12492064e+05 -8.96173448e+00 
 2.43298042e+00  8.12492064e+05 -9.16838966e+00 
 2.48908429e+00  8.12492064e+05 -9.37981025e+00 
 2.54648190e+00  8.12492064e+05 -9.59610614e+00 
 2.60520309e+00  8.12492064e+05 -9.81738975e+00 
 2.66527837e+00  8.12492064e+05 -1.00437761e+01 
 2.72673897e+00  8.12492064e+05 -1.02753829e+01 
 2.78961683e+00  8.12492064e+05 -1.05123304e+01 
 2.85394464e+00  8.12492064e+05 -1.07547419e+01 
 2.91975583e+00  8.12492064e+05 -1.10027434e+01 
 2.98708461e+00  8.12492064e+05 -1.12564637e+01 
 3.05596598e+00  8.12492064e+05 -1.15160347e+01 
 3.12643573e+00  8.12492064e+05 -1.17815913e+01 
 3.19853049e+00  8.12492064e+05 -1.20532716e+01 
 3.27228774e+00  8.12492064e+05 -1.23312168e+01 
 3.34774581e+00  8.12492064e+05 -1.26155713e+01 
 3.42494392e+00  8.12492064e+05 -1.29064830e+01 
 3.50392221e+00  8.12492064e+05 -1.32041030e+01 
 3.58472171e+00  8.12492064e+05 -1.35085861e+01 
 3.66738442e+00  8.12492064e+05 -1.38200904e+01 
 3.75195331e+00  8.12492064e+05 -1.41387780e+01 
 3.83847234e+00  8.12492064e+05 -1.44648144e+01 
 3.92698648e+00  8.12492064e+05 -1.47983691e+01 
 4.01754173e+00  8.12492064e+05 -1.51396155e+01 
 4.11018515e+00  8.12492064e+05 -1.54887309e+01 
 4.20496491e+00  8.12492064e+05 -1.58458968e+01 
 4.30193027e+00  8.12492064e+05 -1.62112989e+01 
 4.40113162e+00  8.12492064e+05 -1.65851271e+01 
 4.50262052e+00  8.12492064e+05 -1.69675757e+01 
 4.60644974e+00  8.12492064e+05 -1.73588434e+01 
 4.71267322e+00  8.12492064e+05 -1.77591336e+01 
 4.82134619e+00  8.12492064e+05 -1.81686544e+01 
 4.93252513e+00  8.12492064e+05 -1.85876187e+01 
 5.04626783e+00  8.12492064e+05 -1.90162442e+01 
 5.16263340e+00  8.12492064e+05 -1.94547536e+01 
 5.28168234e+00  8.12492064e+05 -1.99033750e+01 
 5.40347650e+00  8.12492064e+05 -2.03623414e+01 
 5.52807921e+00  8.12492064e+05 -2.08318915e+01 
 5.65555523e+00  8.12492063e+05 -2.13122693e+01 
 5.78597080e+00  8.12492063e+05 -2.18037245e+01 
 5.91939372e+00  8.12492063e+05 -2.23065125e+01 
 6.05589334e+00  8.12492063e+05 -2.28208946e+01 
 6.19554061e+00  8.12492063e+05 -2.33471383e+01 
 6.33840810e+00  8.12492063e+05 -2.38855170e+01 
 6.48457008e+00  8.12492063e+05 -2.44363105e+01 
 6.63410251e+00  8.12492063e+05 -2.49998052e+01 
 6.78708313e+00  8.12492063e+05 -2.55762940e+01 
 6.94359143e+00  8.12492063e+05 -2.61660764e+01 
 7.10370877e+00  8.12492063e+05 -2.67694590e+01 
 7.26751838e+00  8.12492063e+05 -2.73867555e+01 
 7.43510539e+00  8.12492063e+05 -2.80182867e+01 
 7.60655691e+00  8.12492062e+05 -2.86643808e+01 
 7.78196206e+00  8.12492062e+05 -2.93253737e+01 
 7.96141200e+00  8.12492062e+05 -3.00016089e+01 
 8.14500001e+00  8.12492062e+05 -3.06934379e+01 
 8.33282151e+00  8.12492062e+05 -3.14012202e+01 
 8.52497412e+00  8.12492062e+05 -3.21253239e+01 
 8.72155772e+00  8.12492062e+05 -3.28661252e+01 
 8.92267449e+00  8.12492062e+05 -3.36240091e+01 
 9.12842895e+00  8.12492061e+05 -3.43993697e+01 
 9.33892805e+00  8.12492061e+05 -3.51926098e+01 
 9.55428121e+00  8.12492061e+05 -3.60041419e+01 
 9.77460036e+00  8.12492061e+05 -3.68343877e+01 
 1.00000000e+01  8.12492061e+05 -3.76837787e+01 
 1.02305973e+01  8.12492061e+05 -3.85527564e+01 
 1.04665121e+01  8.12492060e+05 -3.94417725e+01 
 1.07078670e+01  8.12492060e+05 -4.03512891e+01 
 1.09547876e+01  8.12492060e+05 -4.12817789e+01 
 1.12074020e+01  8.12492060e+05 -4.22337256e+01 
 1.14658417e+01  8.12492060e+05 -4.32076239e+01 
 1.17302409e+01  8.12492059e+05 -4.42039800e+01 
 1.20007371e+01  8.12492059e+05 -4.52233118e+01 
 1.22774708e+01  8.12492059e+05 -4.62661491e+01 
 1.25605860e+01  8.12492059e+05 -4.73330339e+01 
 1.28502297e+01  8.12492058e+05 -4.84245209e+01 
 1.31465525e+01  8.12492058e+05 -4.95411772e+01 
 1.34497085e+01  8.12492058e+05 -5.06835833e+01 
 1.37598551e+01  8.12492057e+05 -5.18523330e+01 
 1.40771537e+01  8.12492057e+05 -5.30480338e+01 
 1.44017690e+01  8.12492057e+05 -5.42713070e+01 
 1.47338699e+01  8.12492056e+05 -5.55227887e+01 
 1.50736290e+01  8.12492056e+05 -5.68031291e+01 
 1.54212228e+01  8.12492056e+05 -5.81129939e+01 
 1.57768320e+01  8.12492055e+05 -5.94530637e+01 
 1.61406415e+01  8.12492055e+05 -6.08240352e+01 
 1.65128404e+01  8.12492054e+05 -6.22266210e+01 
 1.68936220e+01  8.12492054e+05 -6.36615500e+01 
 1.72831844e+01  8.12492053e+05 -6.51295680e+01 
 1.76817299e+01  8.12492053e+05 -6.66314382e+01 
 1.80894658e+01  8.12492052e+05 -6.81679410e+01 
 1.85066040e+01  8.12492051e+05 -6.97398752e+01 
 1.89333613e+01  8.12492051e+05 -7.13480578e+01 
 1.93699595e+01  8.12492050e+05 -7.29933246e+01 
 1.98166255e+01  8.12492050e+05 -7.46765308e+01 
 2.02735916e+01  8.12492049e+05 -7.63985513e+01 
 2.07410951e+01  8.12492048e+05 -7.81602811e+01 
 2.12193792e+01  8.12492047e+05 -7.99626359e+01 
 2.17086923e+01  8.12492047e+05 -8.18065525e+01 
 2.22092889e+01  8.12492046e+05 -8.36929893e+01 
 2.27214291e+01  8.12492045e+05 -8.56229268e+01 
 2.32453791e+01  8.12492044e+05 -8.75973681e+01 
 2.37814113e+01  8.12492043e+05 -8.96173395e+01 
 2.43298042e+01  8.12492042e+05 -9.16838909e+01 
 2.48908429e+01  8.12492041e+05 -9.37980964e+01 
 2.54648190e+01  8.12492040e+05 -9.59610549e+01 
 2.60520309e+01  8.12492038e+05 -9.81738906e+01 
 2.66527837e+01  8.12492037e+05 -1.00437754e+02 
 2.72673897e+01  8.12492036e+05 -1.02753821e+02 
 2.78961683e+01  8.12492035e+05 -1.05123296e+02 
 2.85394464e+01  8.12492033e+05 -1.07547410e+02 
 2.91975583e+01  8.12492032e+05 -1.10027424e+02 
 2.98708461e+01  8.12492030e+05 -1.12564626e+02 
 3.05596598e+01  8.12492029e+05 -1.15160335e+02 
 3.12643573e+01  8.12492027e+05 -1.17815901e+02 
 3.19853049e+01  8.12492025e+05 -1.20532703e+02 
 3.27228774e+01  8.12492023e+05 -1.23312154e+02 
 3.34774581e+01  8.12492021e+05 -1.26155699e+02 
 3.42494392e+01  8.12492019e+05 -1.29064814e+02 
 3.50392221e+01  8.12492017e+05 -1.32041013e+02 
 3.58472171e+01  8.12492015e+05 -1.35085843e+02 
 3.66738442e+01  8.12492013e+05 -1.38200885e+02 
 3.75195331e+01  8.12492010e+05 -1.41387759e+02 
 3.83847234e+01  8.12492008e+05 -1.44648121e+02 
 3.92698648e+01  8.12492005e+05 -1.47983667e+02 
 4.01754173e+01  8.12492002e+05 -1.51396129e+02 
 4.11018515e+01  8.12491999e+05 -1.54887282e+02 
 4.20496491e+01  8.12491996e+05 -1.58458939e+02 
 4.30193027e+01  8.12491993e+05 -1.62112958e+02 
 4.40113162e+01  8.12491990e+05 -1.65851238e+02 
 4.50262052e+01  8.12491986e+05 -1.69675721e+02 
 4.60644974e+01  8.12491983e+05 -1.73588395e+02 
 4.71267322e+01  8.12491979e+05 -1.77591295e+02 
 4.82134619e+01  8.12491975e+05 -1.81686500e+02 
 4.93252513e+01  8.12491971e+05 -1.85876140e+02 
 5.04626783e+01  8.12491966e+05 -1.90162391e+02 
 5.16263340e+01  8.12491962e+05 -1.94547482e+02 
 5.28168234e+01  8.12491957e+05 -1.99033692e+02 
 5.40347650e+01  8.12491952e+05 -2.03623352e+02 
 5.52807921e+01  8.12491947e+05 -2.08318849e+02 
 5.65555523e+01  8.12491941e+05 -2.13122622e+02 
 5.78597080e+01  8.12491935e+05 -2.18037169e+02 
 5.91939372e+01  8.12491929e+05 -2.23065043e+02 
 6.05589334e+01  8.12491923e+05 -2.28208859e+02 
 6.19554061e+01  8.12491916e+05 -2.33471289e+02 
 6.33840810e+01  8.12491910e+05 -2.38855070e+02 
 6.48457008e+01  8.12491902e+05 -2.44362998e+02 
 6.63410251e+01  8.12491895e+05 -2.49997938e+02 
 6.78708313e+01  8.12491887e+05 -2.55762817e+02 
 6.94359143e+01  8.12491878e+05 -2.61660633e+02 
 7.10370877e+01  8.12491870e+05 -2.67694450e+02 
 7.26751838e+01  8.12491861e+05 -2.73867405e+02 
 7.43510539e+01  8.12491851e+05 -2.80182706e+02 
 7.60655691e+01  8.12491841e+05 -2.86643636e+02 
 7.78196206e+01  8.12491831e+05 -2.93253552e+02 
 7.96141200e+01  8.12491820e+05 -3.00015891e+02 
 8.14500001e+01  8.12491808e+05 -3.06934167e+02 
 8.33282151e+01  8.12491797e+05 -3.14011975e+02 
 8.52497412e+01  8.12491784e+05 -3.21252996e+02 
 8.72155772e+01  8.12491771e+05 -3.28660991e+02 
 8.92267449e+01  8.12491757e+05 -3.36239812e+02 
 9.12842895e+01  8.12491743e+05 -3.43993398e+02 
 9.33892805e+01  8.12491728e+05 -3.51925779e+02 
 9.55428121e+01  8.12491712e+05 -3.60041077e+02 
 9.77460036e+01  8.12491696e+05 -3.68343510e+02 
 1.00000000e+02  8.12491678e+05 -3.76837394e+02 
 1.02305973e+02  8.12491660e+05 -3.85527144e+02 
 1.04665121e+02  8.12491642e+05 -3.94417275e+02 
