 frequency       v(inoise_spectrum) v(onoise_spectrum)
 1.00000000e-01  1.56670632e-05  3.69089831e-04 
 1.02305973e-01  1.54894894e-05  3.64906489e-04 
 1.04665121e-01  1.53139282e-05  3.60770561e-04 
 1.07078670e-01  1.51403569e-05  3.56681510e-04 
 1.09547876e-01  1.49687528e-05  3.52638806e-04 
 1.12074020e-01  1.47990938e-05  3.48641922e-04 
 1.14658417e-01  1.46313577e-05  3.44690341e-04 
 1.17302409e-01  1.44655228e-05  3.40783547e-04 
 1.20007371e-01  1.43015675e-05  3.36921033e-04 
 1.22774708e-01  1.41394705e-05  3.33102299e-04 
 1.25605860e-01  1.39792107e-05  3.29326846e-04 
 1.28502297e-01  1.38207674e-05  3.25594186e-04 
 1.31465525e-01  1.36641198e-05  3.21903832e-04 
 1.34497085e-01  1.35092478e-05  3.18255305e-04 
 1.37598551e-01  1.33561311e-05  3.14648132e-04 
 1.40771537e-01  1.32047499e-05  3.11081843e-04 
 1.44017690e-01  1.30550844e-05  3.07555975e-04 
 1.47338699e-01  1.29071153e-05  3.04070070e-04 
 1.50736290e-01  1.27608233e-05  3.00623675e-04 
 1.54212228e-01  1.26161894e-05  2.97216343e-04 
 1.57768320e-01  1.24731949e-05  2.93847630e-04 
 1.61406415e-01  1.23318210e-05  2.90517098e-04 
 1.65128404e-01  1.21920495e-05  2.87224316e-04 
 1.68936220e-01  1.20538623e-05  2.83968854e-04 
 1.72831844e-01  1.19172412e-05  2.80750291e-04 
 1.76817299e-01  1.17821687e-05  2.77568207e-04 
 1.80894658e-01  1.16486271e-05  2.74422190e-04 
 1.85066040e-01  1.15165991e-05  2.71311831e-04 
 1.89333613e-01  1.13860675e-05  2.68236725e-04 
 1.93699595e-01  1.12570154e-05  2.65196473e-04 
 1.98166255e-01  1.11294260e-05  2.62190680e-04 
 2.02735916e-01  1.10032827e-05  2.59218955e-04 
 2.07410951e-01  1.08785692e-05  2.56280913e-04 
 2.12193792e-01  1.07552692e-05  2.53376170e-04 
 2.17086923e-01  1.06333667e-05  2.50504351e-04 
 2.22092889e-01  1.05128458e-05  2.47665082e-04 
 2.27214291e-01  1.03936910e-05  2.44857993e-04 
 2.32453791e-01  1.02758867e-05  2.42082721e-04 
 2.37814113e-01  1.01594176e-05  2.39338904e-04 
 2.43298042e-01  1.00442686e-05  2.36626186e-04 
 2.48908429e-01  9.93042477e-06  2.33944215e-04 
 2.54648190e-01  9.81787124e-06  2.31292642e-04 
 2.60520309e-01  9.70659341e-06  2.28671122e-04 
 2.66527837e-01  9.59657682e-06  2.26079315e-04 
 2.72673897e-01  9.48780719e-06  2.23516884e-04 
 2.78961683e-01  9.38027038e-06  2.20983497e-04 
 2.85394464e-01  9.27395242e-06  2.18478823e-04 
 2.91975583e-01  9.16883948e-06  2.16002538e-04 
 2.98708461e-01  9.06491792e-06  2.13554320e-04 
 3.05596598e-01  8.96217423e-06  2.11133850e-04 
 3.12643573e-01  8.86059505e-06  2.08740814e-04 
 3.19853049e-01  8.76016720e-06  2.06374902e-04 
 3.27228774e-01  8.66087762e-06  2.04035805e-04 
 3.34774581e-01  8.56271341e-06  2.01723220e-04 
 3.42494392e-01  8.46566181e-06  1.99436847e-04 
 3.50392221e-01  8.36971022e-06  1.97176388e-04 
 3.58472171e-01  8.27484616e-06  1.94941549e-04 
 3.66738442e-01  8.18105731e-06  1.92732041e-04 
 3.75195331e-01  8.08833149e-06  1.90547575e-04 
 3.83847234e-01  7.99665664e-06  1.88387869e-04 
 3.92698648e-01  7.90602085e-06  1.86252641e-04 
 4.01754173e-01  7.81641235e-06  1.84141615e-04 
 4.11018515e-01  7.72781949e-06  1.82054515e-04 
 4.20496491e-01  7.64023077e-06  1.79991071e-04 
 4.30193027e-01  7.55363479e-06  1.77951014e-04 
 4.40113162e-01  7.46802031e-06  1.75934080e-04 
 4.50262052e-01  7.38337620e-06  1.73940006e-04 
 4.60644974e-01  7.29969147e-06  1.71968534e-04 
 4.71267322e-01  7.21695524e-06  1.70019407e-04 
 4.82134619e-01  7.13515676e-06  1.68092371e-04 
 4.93252513e-01  7.05428540e-06  1.66187177e-04 
 5.04626783e-01  6.97433066e-06  1.64303577e-04 
 5.16263340e-01  6.89528214e-06  1.62441326e-04 
 5.28168234e-01  6.81712957e-06  1.60600182e-04 
 5.40347650e-01  6.73986281e-06  1.58779906e-04 
 5.52807921e-01  6.66347180e-06  1.56980262e-04 
 5.65555523e-01  6.58794662e-06  1.55201015e-04 
 5.78597080e-01  6.51327746e-06  1.53441934e-04 
 5.91939372e-01  6.43945462e-06  1.51702791e-04 
 6.05589334e-01  6.36646850e-06  1.49983360e-04 
 6.19554061e-01  6.29430963e-06  1.48283418e-04 
 6.33840810e-01  6.22296862e-06  1.46602743e-04 
 6.48457008e-01  6.15243620e-06  1.44941117e-04 
 6.63410251e-01  6.08270322e-06  1.43298324e-04 
 6.78708313e-01  6.01376060e-06  1.41674151e-04 
 6.94359143e-01  5.94559939e-06  1.40068387e-04 
 7.10370877e-01  5.87821074e-06  1.38480823e-04 
 7.26751838e-01  5.81158589e-06  1.36911253e-04 
 7.43510539e-01  5.74571617e-06  1.35359473e-04 
 7.60655691e-01  5.68059304e-06  1.33825280e-04 
 7.78196206e-01  5.61620803e-06  1.32308477e-04 
 7.96141200e-01  5.55255277e-06  1.30808866e-04 
 8.14500001e-01  5.48961900e-06  1.29326251e-04 
 8.33282151e-01  5.42739853e-06  1.27860441e-04 
 8.52497412e-01  5.36588328e-06  1.26411244e-04 
 8.72155772e-01  5.30506526e-06  1.24978473e-04 
 8.92267449e-01  5.24493657e-06  1.23561942e-04 
 9.12842895e-01  5.18548939e-06  1.22161465e-04 
 9.33892805e-01  5.12671599e-06  1.20776863e-04 
 9.55428121e-01  5.06860875e-06  1.19407953e-04 
 9.77460036e-01  5.01116010e-06  1.18054559e-04 
 1.00000000e+00  4.95436259e-06  1.16716504e-04 
 1.02305973e+00  4.89820884e-06  1.15393616e-04 
 1.04665121e+00  4.84269155e-06  1.14085721e-04 
 1.07078670e+00  4.78780350e-06  1.12792651e-04 
 1.09547876e+00  4.73353757e-06  1.11514236e-04 
 1.12074020e+00  4.67988670e-06  1.10250311e-04 
 1.14658417e+00  4.62684392e-06  1.09000712e-04 
 1.17302409e+00  4.57440233e-06  1.07765276e-04 
 1.20007371e+00  4.52255514e-06  1.06543842e-04 
 1.22774708e+00  4.47129559e-06  1.05336253e-04 
 1.25605860e+00  4.42061703e-06  1.04142351e-04 
 1.28502297e+00  4.37051287e-06  1.02961981e-04 
 1.31465525e+00  4.32097660e-06  1.01794989e-04 
 1.34497085e+00  4.27200179e-06  1.00641224e-04 
 1.37598551e+00  4.22358207e-06  9.95005364e-05 
 1.40771537e+00  4.17571115e-06  9.83727775e-05 
 1.44017690e+00  4.12838281e-06  9.72578009e-05 
 1.47338699e+00  4.08159090e-06  9.61554617e-05 
 1.50736290e+00  4.03532934e-06  9.50656167e-05 
 1.54212228e+00  3.98959212e-06  9.39881242e-05 
 1.57768320e+00  3.94437330e-06  9.29228443e-05 
 1.61406415e+00  3.89966700e-06  9.18696385e-05 
 1.65128404e+00  3.85546741e-06  9.08283700e-05 
 1.68936220e+00  3.81176878e-06  8.97989035e-05 
 1.72831844e+00  3.76856545e-06  8.87811051e-05 
 1.76817299e+00  3.72585180e-06  8.77748428e-05 
 1.80894658e+00  3.68362227e-06  8.67799856e-05 
 1.85066040e+00  3.64187138e-06  8.57964044e-05 
 1.89333613e+00  3.60059370e-06  8.48239714e-05 
 1.93699595e+00  3.55978388e-06  8.38625601e-05 
 1.98166255e+00  3.51943660e-06  8.29120457e-05 
 2.02735916e+00  3.47954663e-06  8.19723046e-05 
 2.07410951e+00  3.44010878e-06  8.10432148e-05 
 2.12193792e+00  3.40111793e-06  8.01246555e-05 
 2.17086923e+00  3.36256901e-06  7.92165074e-05 
 2.22092889e+00  3.32445702e-06  7.83186524e-05 
 2.27214291e+00  3.28677699e-06  7.74309740e-05 
 2.32453791e+00  3.24952404e-06  7.65533567e-05 
 2.37814113e+00  3.21269332e-06  7.56856865e-05 
 2.43298042e+00  3.17628005e-06  7.48278508e-05 
 2.48908429e+00  3.14027950e-06  7.39797379e-05 
 2.54648190e+00  3.10468699e-06  7.31412378e-05 
 2.60520309e+00  3.06949789e-06  7.23122414e-05 
 2.66527837e+00  3.03470763e-06  7.14926410e-05 
 2.72673897e+00  3.00031169e-06  7.06823303e-05 
 2.78961683e+00  2.96630561e-06  6.98812037e-05 
 2.85394464e+00  2.93268496e-06  6.90891574e-05 
 2.91975583e+00  2.89944537e-06  6.83060883e-05 
 2.98708461e+00  2.86658253e-06  6.75318946e-05 
 3.05596598e+00  2.83409217e-06  6.67664759e-05 
 3.12643573e+00  2.80197005e-06  6.60097327e-05 
 3.19853049e+00  2.77021202e-06  6.52615665e-05 
 3.27228774e+00  2.73881395e-06  6.45218803e-05 
 3.34774581e+00  2.70777174e-06  6.37905778e-05 
 3.42494392e+00  2.67708138e-06  6.30675641e-05 
 3.50392221e+00  2.64673887e-06  6.23527453e-05 
 3.58472171e+00  2.61674026e-06  6.16460283e-05 
 3.66738442e+00  2.58708167e-06  6.09473215e-05 
 3.75195331e+00  2.55775924e-06  6.02565340e-05 
 3.83847234e+00  2.52876916e-06  5.95735760e-05 
 3.92698648e+00  2.50010766e-06  5.88983589e-05 
 4.01754173e+00  2.47177101e-06  5.82307949e-05 
 4.11018515e+00  2.44375554e-06  5.75707972e-05 
 4.20496491e+00  2.41605760e-06  5.69182801e-05 
 4.30193027e+00  2.38867360e-06  5.62731588e-05 
 4.40113162e+00  2.36159998e-06  5.56353495e-05 
 4.50262052e+00  2.33483321e-06  5.50047692e-05 
 4.60644974e+00  2.30836983e-06  5.43813362e-05 
 4.71267322e+00  2.28220639e-06  5.37649692e-05 
 4.82134619e+00  2.25633950e-06  5.31555884e-05 
 4.93252513e+00  2.23076578e-06  5.25531144e-05 
 5.04626783e+00  2.20548193e-06  5.19574691e-05 
 5.16263340e+00  2.18048465e-06  5.13685749e-05 
 5.28168234e+00  2.15577069e-06  5.07863554e-05 
 5.40347650e+00  2.13133685e-06  5.02107350e-05 
 5.52807921e+00  2.10717995e-06  4.96416388e-05 
 5.65555523e+00  2.08329685e-06  4.90789929e-05 
 5.78597080e+00  2.05968445e-06  4.85227242e-05 
 5.91939372e+00  2.03633968e-06  4.79727604e-05 
 6.05589334e+00  2.01325951e-06  4.74290300e-05 
 6.19554061e+00  1.99044093e-06  4.68914624e-05 
 6.33840810e+00  1.96788098e-06  4.63599878e-05 
 6.48457008e+00  1.94557674e-06  4.58345371e-05 
 6.63410251e+00  1.92352529e-06  4.53150419e-05 
 6.78708313e+00  1.90172379e-06  4.48014349e-05 
 6.94359143e+00  1.88016939e-06  4.42936492e-05 
 7.10370877e+00  1.85885929e-06  4.37916190e-05 
 7.26751838e+00  1.83779073e-06  4.32952788e-05 
 7.43510539e+00  1.81696097e-06  4.28045644e-05 
 7.60655691e+00  1.79636729e-06  4.23194119e-05 
 7.78196206e+00  1.77600703e-06  4.18397582e-05 
 7.96141200e+00  1.75587754e-06  4.13655410e-05 
 8.14500001e+00  1.73597621e-06  4.08966988e-05 
 8.33282151e+00  1.71630044e-06  4.04331706e-05 
 8.52497412e+00  1.69684768e-06  3.99748961e-05 
 8.72155772e+00  1.67761541e-06  3.95218159e-05 
 8.92267449e+00  1.65860112e-06  3.90738711e-05 
 9.12842895e+00  1.63980235e-06  3.86310033e-05 
 9.33892805e+00  1.62121664e-06  3.81931552e-05 
 9.55428121e+00  1.60284160e-06  3.77602698e-05 
 9.77460036e+00  1.58467482e-06  3.73322908e-05 
 1.00000000e+01  1.56671395e-06  3.69091627e-05 
 1.02305973e+01  1.54895665e-06  3.64908305e-05 
 1.04665121e+01  1.53140062e-06  3.60772398e-05 
 1.07078670e+01  1.51404358e-06  3.56683369e-05 
 1.09547876e+01  1.49688326e-06  3.52640686e-05 
 1.12074020e+01  1.47991745e-06  3.48643824e-05 
 1.14658417e+01  1.46314394e-06  3.44692264e-05 
 1.17302409e+01  1.44656054e-06  3.40785492e-05 
 1.20007371e+01  1.43016510e-06  3.36923001e-05 
 1.22774708e+01  1.41395549e-06  3.33104289e-05 
 1.25605860e+01  1.39792961e-06  3.29328859e-05 
 1.28502297e+01  1.38208538e-06  3.25596222e-05 
 1.31465525e+01  1.36642072e-06  3.21905891e-05 
 1.34497085e+01  1.35093362e-06  3.18257388e-05 
 1.37598551e+01  1.33562205e-06  3.14650239e-05 
 1.40771537e+01  1.32048403e-06  3.11083974e-05 
 1.44017690e+01  1.30551759e-06  3.07558131e-05 
 1.47338699e+01  1.29072079e-06  3.04072250e-05 
 1.50736290e+01  1.27609169e-06  3.00625881e-05 
 1.54212228e+01  1.26162841e-06  2.97218573e-05 
 1.57768320e+01  1.24732906e-06  2.93849886e-05 
 1.61406415e+01  1.23319179e-06  2.90519380e-05 
 1.65128404e+01  1.21921475e-06  2.87226623e-05 
 1.68936220e+01  1.20539614e-06  2.83971189e-05 
 1.72831844e+01  1.19173415e-06  2.80752652e-05 
 1.76817299e+01  1.17822701e-06  2.77570596e-05 
 1.80894658e+01  1.16487296e-06  2.74424606e-05 
 1.85066040e+01  1.15167028e-06  2.71314274e-05 
 1.89333613e+01  1.13861724e-06  2.68239196e-05 
 1.93699595e+01  1.12571215e-06  2.65198973e-05 
 1.98166255e+01  1.11295333e-06  2.62193208e-05 
 2.02735916e+01  1.10033913e-06  2.59221512e-05 
 2.07410951e+01  1.08786790e-06  2.56283499e-05 
 2.12193792e+01  1.07553802e-06  2.53378787e-05 
 2.17086923e+01  1.06334790e-06  2.50506997e-05 
 2.22092889e+01  1.05129594e-06  2.47667758e-05 
 2.27214291e+01  1.03938059e-06  2.44860700e-05 
 2.32453791e+01  1.02760029e-06  2.42085459e-05 
 2.37814113e+01  1.01595352e-06  2.39341674e-05 
 2.43298042e+01  1.00443876e-06  2.36628988e-05 
 2.48908429e+01  9.93054505e-07  2.33947048e-05 
 2.54648190e+01  9.81799290e-07  2.31295508e-05 
 2.60520309e+01  9.70671646e-07  2.28674021e-05 
 2.66527837e+01  9.59670129e-07  2.26082247e-05 
 2.72673897e+01  9.48793309e-07  2.23519850e-05 
 2.78961683e+01  9.38039772e-07  2.20986497e-05 
 2.85394464e+01  9.27408121e-07  2.18481857e-05 
 2.91975583e+01  9.16896975e-07  2.16005607e-05 
 2.98708461e+01  9.06504968e-07  2.13557424e-05 
 3.05596598e+01  8.96230750e-07  2.11136990e-05 
 3.12643573e+01  8.86072986e-07  2.08743990e-05 
 3.19853049e+01  8.76030355e-07  2.06378114e-05 
 3.27228774e+01  8.66101553e-07  2.04039054e-05 
 3.34774581e+01  8.56285290e-07  2.01726507e-05 
 3.42494392e+01  8.46580290e-07  1.99440171e-05 
 3.50392221e+01  8.36985292e-07  1.97179750e-05 
 3.58472171e+01  8.27499050e-07  1.94944950e-05 
 3.66738442e+01  8.18120331e-07  1.92735480e-05 
 3.75195331e+01  8.08847916e-07  1.90551054e-05 
 3.83847234e+01  7.99680600e-07  1.88391388e-05 
 3.92698648e+01  7.90617193e-07  1.86256200e-05 
 4.01754173e+01  7.81656516e-07  1.84145215e-05 
 4.11018515e+01  7.72797406e-07  1.82058156e-05 
 4.20496491e+01  7.64038710e-07  1.79994754e-05 
 4.30193027e+01  7.55379292e-07  1.77954739e-05 
 4.40113162e+01  7.46818025e-07  1.75937848e-05 
 4.50262052e+01  7.38353798e-07  1.73943818e-05 
 4.60644974e+01  7.29985510e-07  1.71972389e-05 
 4.71267322e+01  7.21712074e-07  1.70023306e-05 
 4.82134619e+01  7.13532416e-07  1.68096315e-05 
 4.93252513e+01  7.05445472e-07  1.66191166e-05 
 5.04626783e+01  6.97450192e-07  1.64307612e-05 
 5.16263340e+01  6.89545536e-07  1.62445407e-05 
 5.28168234e+01  6.81730478e-07  1.60604310e-05 
 5.40347650e+01  6.74004002e-07  1.58784081e-05 
 5.52807921e+01  6.66365105e-07  1.56984484e-05 
 5.65555523e+01  6.58812792e-07  1.55205286e-05 
 5.78597080e+01  6.51346085e-07  1.53446254e-05 
 5.91939372e+01  6.43964011e-07  1.51707161e-05 
 6.05589334e+01  6.36665612e-07  1.49987780e-05 
 6.19554061e+01  6.29449939e-07  1.48287888e-05 
 6.33840810e+01  6.22316056e-07  1.46607264e-05 
 6.48457008e+01  6.15263034e-07  1.44945690e-05 
 6.63410251e+01  6.08289958e-07  1.43302950e-05 
 6.78708313e+01  6.01395921e-07  1.41678830e-05 
 6.94359143e+01  5.94580028e-07  1.40073120e-05 
 7.10370877e+01  5.87841394e-07  1.38485610e-05 
 7.26751838e+01  5.81179141e-07  1.36916095e-05 
 7.43510539e+01  5.74592405e-07  1.35364370e-05 
 7.60655691e+01  5.68080331e-07  1.33830234e-05 
 7.78196206e+01  5.61642071e-07  1.32313487e-05 
 7.96141200e+01  5.55276789e-07  1.30813933e-05 
 8.14500001e+01  5.48983658e-07  1.29331377e-05 
 8.33282151e+01  5.42761860e-07  1.27865625e-05 
 8.52497412e+01  5.36610588e-07  1.26416488e-05 
 8.72155772e+01  5.30529041e-07  1.24983777e-05 
 8.92267449e+01  5.24516430e-07  1.23567307e-05 
 9.12842895e+01  5.18571972e-07  1.22166892e-05 
 9.33892805e+01  5.12694897e-07  1.20782351e-05 
 9.55428121e+01  5.06884440e-07  1.19413504e-05 
 9.77460036e+01  5.01139845e-07  1.18060174e-05 
 1.00000000e+02  4.95460368e-07  1.16722184e-05 
 1.02305973e+02  4.89845269e-07  1.15399360e-05 
 1.04665121e+02  4.84293819e-07  1.14091532e-05 
 1.07078670e+02  4.78805297e-07  1.12798528e-05 
 1.09547876e+02  4.73378990e-07  1.11520180e-05 
 1.12074020e+02  4.68014192e-07  1.10256324e-05 
 1.14658417e+02  4.62710206e-07  1.09006793e-05 
 1.17302409e+02  4.57466344e-07  1.07771427e-05 
 1.20007371e+02  4.52281924e-07  1.06550064e-05 
 1.22774708e+02  4.47156272e-07  1.05342546e-05 
 1.25605860e+02  4.42088722e-07  1.04148716e-05 
 1.28502297e+02  4.37078616e-07  1.02968419e-05 
 1.31465525e+02  4.32125302e-07  1.01801501e-05 
 1.34497085e+02  4.27228138e-07  1.00647811e-05 
 1.37598551e+02  4.22386487e-07  9.95071985e-06 
 1.40771537e+02  4.17599719e-07  9.83795160e-06 
 1.44017690e+02  4.12867213e-07  9.72646166e-06 
 1.47338699e+02  4.08188353e-07  9.61623556e-06 
 1.50736290e+02  4.03562533e-07  9.50725896e-06 
 1.54212228e+02  3.98989150e-07  9.39951770e-06 
 1.57768320e+02  3.94467611e-07  9.29299779e-06 
 1.61406415e+02  3.89997328e-07  9.18768539e-06 
 1.65128404e+02  3.85577720e-07  9.08356681e-06 
 1.68936220e+02  3.81208213e-07  8.98062852e-06 
 1.72831844e+02  3.76888239e-07  8.87885715e-06 
 1.76817299e+02  3.72617236e-07  8.77823948e-06 
 1.80894658e+02  3.68394651e-07  8.67876242e-06 
 1.85066040e+02  3.64219934e-07  8.58041305e-06 
 1.89333613e+02  3.60092542e-07  8.48317860e-06 
 1.93699595e+02  3.56011940e-07  8.38704643e-06 
 1.98166255e+02  3.51977597e-07  8.29200405e-06 
 2.02735916e+02  3.47988989e-07  8.19803911e-06 
 2.07410951e+02  3.44045597e-07  8.10513940e-06 
 2.12193792e+02  3.40146910e-07  8.01329285e-06 
 2.17086923e+02  3.36292421e-07  7.92248752e-06 
 2.22092889e+02  3.32481629e-07  7.83271161e-06 
 2.27214291e+02  3.28714038e-07  7.74395347e-06 
 2.32453791e+02  3.24989159e-07  7.65620155e-06 
 2.37814113e+02  3.21306509e-07  7.56944446e-06 
 2.43298042e+02  3.17665608e-07  7.48367092e-06 
 2.48908429e+02  3.14065984e-07  7.39886979e-06 
 2.54648190e+02  3.10507168e-07  7.31503005e-06 
 2.60520309e+02  3.06988700e-07  7.23214080e-06 
 2.66527837e+02  3.03510120e-07  7.15019127e-06 
 2.72673897e+02  3.00070977e-07  7.06917082e-06 
 2.78961683e+02  2.96670825e-07  6.98906892e-06 
 2.85394464e+02  2.93309222e-07  6.90987515e-06 
 2.91975583e+02  2.89985730e-07  6.83157924e-06 
 2.98708461e+02  2.86699918e-07  6.75417100e-06 
 3.05596598e+02  2.83451359e-07  6.67764038e-06 
 3.12643573e+02  2.80239631e-07  6.60197743e-06 
 3.19853049e+02  2.77064316e-07  6.52717233e-06 
 3.27228774e+02  2.73925003e-07  6.45321534e-06 
 3.34774581e+02  2.70821282e-07  6.38009687e-06 
 3.42494392e+02  2.67752751e-07  6.30780741e-06 
 3.50392221e+02  2.64719012e-07  6.23633757e-06 
 3.58472171e+02  2.61719669e-07  6.16567806e-06 
 3.66738442e+02  2.58754333e-07  6.09581971e-06 
 3.75195331e+02  2.55822619e-07  6.02675342e-06 
 3.83847234e+02  2.52924146e-07  5.95847023e-06 
 3.92698648e+02  2.50058537e-07  5.89096127e-06 
 4.01754173e+02  2.47225420e-07  5.82421777e-06 
 4.11018515e+02  2.44424426e-07  5.75823105e-06 
 4.20496491e+02  2.41655193e-07  5.69299253e-06 
 4.30193027e+02  2.38917359e-07  5.62849375e-06 
 4.40113162e+02  2.36210570e-07  5.56472631e-06 
 4.50262052e+02  2.33534473e-07  5.50168194e-06 
 4.60644974e+02  2.30888721e-07  5.43935245e-06 
 4.71267322e+02  2.28272970e-07  5.37772972e-06 
 4.82134619e+02  2.25686881e-07  5.31680577e-06 
 4.93252513e+02  2.23130116e-07  5.25657266e-06 
 5.04626783e+02  2.20602344e-07  5.19702258e-06 
 5.16263340e+02  2.18103237e-07  5.13814779e-06 
 5.28168234e+02  2.15632469e-07  5.07994063e-06 
 5.40347650e+02  2.13189720e-07  5.02239354e-06 
 5.52807921e+02  2.10774672e-07  4.96549905e-06 
 5.65555523e+02  2.08387012e-07  4.90924976e-06 
 5.78597080e+02  2.06026429e-07  4.85363836e-06 
 5.91939372e+02  2.03692616e-07  4.79865764e-06 
 6.05589334e+02  2.01385271e-07  4.74430043e-06 
 6.19554061e+02  1.99104093e-07  4.69055969e-06 
 6.33840810e+02  1.96848786e-07  4.63742842e-06 
 6.48457008e+02  1.94619057e-07  4.58489973e-06 
 6.63410251e+02  1.92414616e-07  4.53296679e-06 
 6.78708313e+02  1.90235177e-07  4.48162284e-06 
 6.94359143e+02  1.88080457e-07  4.43086123e-06 
 7.10370877e+02  1.85950175e-07  4.38067535e-06 
 7.26751838e+02  1.83844055e-07  4.33105868e-06 
 7.43510539e+02  1.81761823e-07  4.28200478e-06 
 7.60655691e+02  1.79703209e-07  4.23350727e-06 
 7.78196206e+02  1.77667945e-07  4.18555984e-06 
 7.96141200e+02  1.75655767e-07  4.13815628e-06 
 8.14500001e+02  1.73666413e-07  4.09129042e-06 
 8.33282151e+02  1.71699624e-07  4.04495616e-06 
 8.52497412e+02  1.69755146e-07  3.99914750e-06 
 8.72155772e+02  1.67832725e-07  3.95385847e-06 
 8.92267449e+02  1.65932112e-07  3.90908320e-06 
 9.12842895e+02  1.64053059e-07  3.86481586e-06 
 9.33892805e+02  1.62195323e-07  3.82105070e-06 
 9.55428121e+02  1.60358663e-07  3.77778204e-06 
 9.77460036e+02  1.58542838e-07  3.73500426e-06 
 1.00000000e+03  1.56747615e-07  3.69271178e-06 
 1.02305973e+03  1.54972759e-07  3.65089913e-06 
 1.04665121e+03  1.53218039e-07  3.60956087e-06 
