 frequency       v(Tmb_dB)       v(Tmb_arg)     
 1.00000000e+00 -2.77664642e+02 -2.31340202e-06 
 1.02305973e+00 -2.77674481e+02 -3.39500460e-06 
 1.04665121e+00 -2.77639280e+02 -4.41182168e-06 
 1.07078670e+00 -2.77650036e+02 -3.66981512e-06 
 1.09547876e+00 -2.77827547e+02 -3.42191331e-06 
 1.12074020e+00 -2.77627659e+02 -3.97939662e-06 
 1.14658417e+00 -2.77731231e+02 -2.96373323e-06 
 1.17302409e+00 -2.77652875e+02 -5.92659114e-06 
 1.20007371e+00 -2.77666399e+02 -3.85370012e-06 
 1.22774708e+00 -2.77680576e+02 -3.96360343e-06 
 1.25605860e+00 -2.77695442e+02 -4.21154078e-06 
 1.28502297e+00 -2.77665388e+02 -6.17181935e-06 
 1.31465525e+00 -2.77636153e+02 -5.08972206e-06 
 1.34497085e+00 -2.77698684e+02 -9.99368667e-08 
 1.37598551e+00 -2.77716570e+02 -8.99549168e-07 
 1.40771537e+00 -2.77735316e+02 -8.26215588e-07 
 1.44017690e+00 -2.77754985e+02 -6.56840686e-06 
 1.47338699e+00 -2.77638403e+02 -1.29463854e-06 
 1.50736290e+00 -2.77705322e+02  2.41748006e-06 
 1.54212228e+00 -2.77682078e+02 -7.12400035e-06 
 1.57768320e+00 -2.77705537e+02 -5.07994496e-06 
 1.61406415e+00 -2.77638928e+02 -8.17967166e-06 
 1.65128404e+00 -2.77756022e+02 -7.09993522e-06 
 1.68936220e+00 -2.77645829e+02 -5.34682903e-07 
 1.72831844e+00 -2.77673877e+02 -5.81937937e-06 
 1.76817299e+00 -2.77749184e+02 -3.54610215e-06 
 1.80894658e+00 -2.77642988e+02 -7.67902562e-07 
 1.85066040e+00 -2.77720847e+02 -6.05165785e-06 
 1.89333613e+00 -2.77617918e+02 -8.40508558e-06 
 1.93699595e+00 -2.77744450e+02 -4.85557551e-06 
 1.98166255e+00 -2.77644448e+02 -7.35804456e-06 
 2.02735916e+00 -2.77683065e+02 -5.48654652e-06 
 2.07410951e+00 -2.77769611e+02 -4.67761255e-06 
 2.12193792e+00 -2.77720436e+02 -6.88032070e-06 
 2.17086923e+00 -2.77582851e+02 -1.42142071e-05 
 2.22092889e+00 -2.77674331e+02 -2.45695421e-06 
 2.27214291e+00 -2.77677332e+02 -1.31607629e-05 
 2.32453791e+00 -2.77774301e+02 -4.64544346e-06 
 2.37814113e+00 -2.77736007e+02 -9.05768121e-06 
 2.43298042e+00 -2.77654783e+02 -1.18860141e-05 
 2.48908429e+00 -2.77667474e+02 -5.67331924e-06 
 2.54648190e+00 -2.77774624e+02 -3.31280395e-06 
 2.60520309e+00 -2.77747050e+02 -7.42479961e-06 
 2.66527837e+00 -2.77722567e+02 -5.89769883e-06 
 2.72673897e+00 -2.77701274e+02  2.77640671e-06 
 2.78961683e+00 -2.77637805e+02 -1.72431009e-05 
 2.85394464e+00 -2.77623358e+02 -9.30091968e-06 
 2.91975583e+00 -2.77657847e+02 -3.96151754e-06 
 2.98708461e+00 -2.77696223e+02 -1.25844191e-05 
 3.05596598e+00 -2.77738711e+02 -1.36424857e-06 
 3.12643573e+00 -2.77693731e+02 -4.55219047e-06 
 3.19853049e+00 -2.77698847e+02 -1.66768722e-05 
 3.27228774e+00 -2.77662838e+02 -6.70802805e-06 
 3.34774581e+00 -2.77631657e+02 -1.40084912e-05 
 3.42494392e+00 -2.77696351e+02 -7.36244803e-06 
 3.50392221e+00 -2.77675110e+02 -6.84473540e-07 
 3.58472171e+00 -2.77750749e+02  2.50962993e-06 
 3.66738442e+00 -2.77786515e+02 -5.80883826e-06 
 3.75195331e+00 -2.77764617e+02 -9.56508873e-06 
 3.83847234e+00 -2.77784084e+02 -1.00422407e-05 
 3.92698648e+00 -2.77746484e+02 -6.70438667e-06 
 4.01754173e+00 -2.77715839e+02 -5.76458112e-06 
 4.11018515e+00 -2.77646850e+02 -1.17216161e-05 
 4.20496491e+00 -2.77768068e+02 -5.63690589e-06 
 4.30193027e+00 -2.77668236e+02 -1.58657664e-05 
 4.40113162e+00 -2.77622752e+02 -1.01293086e-05 
 4.50262052e+00 -2.77722301e+02 -7.66031676e-06 
 4.60644974e+00 -2.77814396e+02 -9.06499290e-06 
 4.71267322e+00 -2.77766626e+02 -1.16538379e-05 
 4.82134619e+00 -2.77665819e+02  4.60323265e-07 
 4.93252513e+00 -2.77666833e+02 -7.96684371e-06 
 5.04626783e+00 -2.77678529e+02 -1.68075675e-05 
 5.16263340e+00 -2.77610494e+02 -1.47551124e-05 
 5.28168234e+00 -2.77644877e+02 -1.06730314e-05 
 5.40347650e+00 -2.77858488e+02 -1.46891276e-05 
 5.52807921e+00 -2.77705739e+02 -1.56998580e-05 
 5.65555523e+00 -2.77687594e+02 -5.05577097e-06 
 5.78597080e+00 -2.77729243e+02 -1.16237954e-05 
 5.91939372e+00 -2.77603276e+02 -2.88853199e-05 
 6.05589334e+00 -2.77674554e+02 -1.69970217e-05 
 6.19554061e+00 -2.77716743e+02  7.10846124e-06 
 6.33840810e+00 -2.77684445e+02 -2.36001776e-05 
 6.48457008e+00 -2.77743919e+02 -6.73117570e-06 
 6.63410251e+00 -2.77628297e+02 -1.58758018e-05 
 6.78708313e+00 -2.77771254e+02 -4.32693520e-06 
 6.94359143e+00 -2.77649246e+02 -1.50147739e-05 
 7.10370877e+00 -2.77713863e+02 -2.30003263e-05 
 7.26751838e+00 -2.77618390e+02 -2.99969565e-05 
 7.43510539e+00 -2.77682531e+02 -2.04672834e-05 
 7.60655691e+00 -2.77589246e+02 -1.81187230e-05 
 7.78196206e+00 -2.77731193e+02 -1.65485592e-05 
 7.96141200e+00 -2.77706697e+02 -2.41382016e-05 
 8.14500001e+00 -2.77813174e+02 -3.04997174e-05 
 8.33282151e+00 -2.77736345e+02 -1.09494509e-05 
 8.52497412e+00 -2.77736447e+02 -4.32010195e-06 
 8.72155772e+00 -2.77694457e+02 -3.29285727e-05 
 8.92267449e+00 -2.77651344e+02 -2.58209039e-05 
 9.12842895e+00 -2.77723546e+02 -1.33216200e-05 
 9.33892805e+00 -2.77706271e+02 -3.73409259e-05 
 9.55428121e+00 -2.77791004e+02 -1.44962175e-05 
 9.77460036e+00 -2.77686456e+02 -3.06915383e-05 
 1.00000000e+01 -2.77715836e+02 -2.93851986e-05 
 1.02305973e+01 -2.77652232e+02 -1.82681010e-05 
 1.04665121e+01 -2.77725893e+02 -3.59872605e-06 
 1.07078670e+01 -2.77785118e+02 -8.60448682e-05 
 1.09547876e+01 -2.77700323e+02 -2.17371516e-05 
 1.12074020e+01 -2.77697058e+02 -1.75305921e-05 
 1.14658417e+01 -2.77731720e+02 -7.10007310e-05 
 1.17302409e+01 -2.77676169e+02 -6.59635608e-05 
 1.20007371e+01 -2.77709468e+02  4.59744901e-06 
 1.22774708e+01 -2.77789219e+02 -9.24348607e-06 
 1.25605860e+01 -2.77861912e+02  2.43294266e-05 
 1.28502297e+01 -2.77819504e+02 -5.54530064e-05 
 1.31465525e+01 -2.77684244e+02 -1.53284048e-06 
 1.34497085e+01 -2.77654267e+02 -4.89298991e-05 
 1.37598551e+01 -2.77778015e+02 -1.25090039e-05 
 1.40771537e+01 -2.77773723e+02 -1.62577866e-05 
 1.44017690e+01 -2.77719287e+02 -5.80506086e-05 
 1.47338699e+01 -2.77710718e+02 -4.75603243e-05 
 1.50736290e+01 -2.77660677e+02 -7.37352209e-05 
 1.54212228e+01 -2.77693056e+02 -7.48361970e-05 
 1.57768320e+01 -2.77802493e+02  2.66884804e-06 
 1.61406415e+01 -2.77672122e+02 -4.43723984e-05 
 1.65128404e+01 -2.77776949e+02 -4.75117093e-05 
 1.68936220e+01 -2.77681260e+02 -6.63699946e-05 
 1.72831844e+01 -2.77739865e+02 -5.56862898e-05 
 1.76817299e+01 -2.77718687e+02 -2.01538634e-05 
 1.80894658e+01 -2.77743867e+02 -8.74620389e-05 
 1.85066040e+01 -2.77684369e+02 -3.96486525e-05 
 1.89333613e+01 -2.77630161e+02 -7.71141412e-05 
 1.93699595e+01 -2.77696175e+02 -1.77903710e-06 
 1.98166255e+01 -2.77744907e+02 -3.32770452e-05 
 2.02735916e+01 -2.77737807e+02 -5.41237293e-05 
 2.07410951e+01 -2.77683065e+02 -4.48887953e-05 
 2.12193792e+01 -2.77754772e+02 -5.67090622e-05 
 2.17086923e+01 -2.77647964e+02 -1.25982696e-04 
 2.22092889e+01 -2.77713632e+02 -9.61860487e-05 
 2.27214291e+01 -2.77739804e+02  1.85393262e-05 
 2.32453791e+01 -2.77764742e+02 -7.63373042e-06 
 2.37814113e+01 -2.77661578e+02 -5.63851041e-05 
 2.43298042e+01 -2.77698591e+02 -1.33587524e-04 
 2.48908429e+01 -2.77739495e+02 -9.23971462e-05 
 2.54648190e+01 -2.77733034e+02 -6.64842995e-05 
 2.60520309e+01 -2.77775040e+02 -5.51385574e-05 
 2.66527837e+01 -2.77584926e+02 -8.00832881e-05 
 2.72673897e+01 -2.77643322e+02 -1.34722360e-04 
 2.78961683e+01 -2.77627040e+02 -1.64063704e-04 
 2.85394464e+01 -2.77706911e+02 -1.09342966e-04 
 2.91975583e+01 -2.77751796e+02  7.31619630e-06 
 2.98708461e+01 -2.77668899e+02 -1.33119853e-04 
 3.05596598e+01 -2.77825143e+02 -2.06415438e-05 
 3.12643573e+01 -2.77768507e+02 -8.25112955e-05 
 3.19853049e+01 -2.77713709e+02 -1.65843005e-04 
 3.27228774e+01 -2.77798772e+02 -8.81799748e-05 
 3.34774581e+01 -2.77685883e+02  7.40738939e-06 
 3.42494392e+01 -2.77757955e+02 -2.13936426e-04 
 3.50392221e+01 -2.77778251e+02 -7.43236011e-05 
 3.58472171e+01 -2.77652977e+02 -1.31627405e-04 
 3.66738442e+01 -2.77710353e+02 -3.84829153e-05 
 3.75195331e+01 -2.77737434e+02 -4.48163708e-05 
 3.83847234e+01 -2.77772686e+02 -1.50779689e-04 
 3.92698648e+01 -2.77687654e+02 -3.63359499e-05 
 4.01754173e+01 -2.77724528e+02 -1.25648424e-05 
 4.11018515e+01 -2.77666536e+02 -9.35260496e-05 
 4.20496491e+01 -2.77740534e+02 -3.62382316e-05 
 4.30193027e+01 -2.77724306e+02 -1.20914360e-04 
 4.40113162e+01 -2.77717388e+02 -1.10158396e-04 
 4.50262052e+01 -2.77640415e+02 -1.88535509e-04 
 4.60644974e+01 -2.77669760e+02 -1.28338771e-04 
 4.71267322e+01 -2.77719072e+02 -1.22160106e-04 
 4.82134619e+01 -2.77694715e+02 -1.72767400e-04 
 4.93252513e+01 -2.77696690e+02 -1.98968022e-04 
 5.04626783e+01 -2.77663981e+02  2.78090750e-05 
 5.16263340e+01 -2.77700726e+02 -6.25024034e-05 
 5.28168234e+01 -2.77768287e+02 -9.25969099e-05 
 5.40347650e+01 -2.77564654e+02 -1.48105475e-04 
 5.52807921e+01 -2.77704053e+02 -1.60832642e-04 
 5.65555523e+01 -2.77790596e+02  9.02048007e-05 
 5.78597080e+01 -2.77693055e+02  1.70851780e-05 
 5.91939372e+01 -2.77717926e+02 -1.15140912e-04 
 6.05589334e+01 -2.77657120e+02 -6.92261414e-05 
 6.19554061e+01 -2.77721645e+02 -3.38487829e-04 
 6.33840810e+01 -2.77765270e+02 -2.55938731e-04 
 6.48457008e+01 -2.77665891e+02  3.00895213e-05 
 6.63410251e+01 -2.77774523e+02 -1.20203077e-04 
 6.78708313e+01 -2.77669460e+02 -2.57061183e-04 
 6.94359143e+01 -2.77737867e+02 -1.21033770e-04 
 7.10370877e+01 -2.77680016e+02 -1.54535292e-04 
 7.26751838e+01 -2.77630141e+02 -1.20041301e-04 
 7.43510539e+01 -2.77684476e+02 -1.07045253e-04 
 7.60655691e+01 -2.77704142e+02 -3.28365783e-04 
 7.78196206e+01 -2.77765654e+02 -1.25559134e-05 
 7.96141200e+01 -2.77667195e+02 -9.16969900e-05 
 8.14500001e+01 -2.77810769e+02 -2.28832123e-05 
 8.33282151e+01 -2.77654134e+02 -3.71701313e-04 
 8.52497412e+01 -2.77740105e+02 -3.09627841e-04 
 8.72155772e+01 -2.77705708e+02 -4.52504185e-04 
 8.92267449e+01 -2.77728662e+02 -3.82856889e-05 
 9.12842895e+01 -2.77645165e+02 -2.79769320e-04 
 9.33892805e+01 -2.77766563e+02 -3.37992442e-04 
 9.55428121e+01 -2.77721762e+02 -4.43442569e-04 
 9.77460036e+01 -2.77839447e+02 -1.65805342e-04 
 1.00000000e+02 -2.77883244e+02 -1.37036034e-04 
 1.02305973e+02 -2.77847919e+02 -2.13916947e-05 
 1.04665121e+02 -2.77831860e+02 -2.47179211e-04 
 1.07078670e+02 -2.77663667e+02 -3.85320409e-04 
 1.09547876e+02 -2.77752769e+02  2.27932926e-04 
 1.12074020e+02 -2.77667426e+02 -2.63244518e-04 
 1.14658417e+02 -2.77745798e+02 -4.71812618e-04 
 1.17302409e+02 -2.77815291e+02 -4.36920960e-04 
 1.20007371e+02 -2.77769801e+02 -5.20993597e-04 
 1.22774708e+02 -2.77822204e+02 -2.25403031e-04 
 1.25605860e+02 -2.77769794e+02 -1.20915100e-04 
 1.28502297e+02 -2.77697172e+02 -8.07640301e-04 
 1.31465525e+02 -2.77800432e+02 -3.09989257e-04 
 1.34497085e+02 -2.77823343e+02 -3.17893268e-04 
 1.37598551e+02 -2.77855768e+02 -9.61649364e-06 
 1.40771537e+02 -2.77848203e+02 -1.06769984e-04 
 1.44017690e+02 -2.77841877e+02 -2.75832702e-04 
 1.47338699e+02 -2.77805789e+02 -1.83929146e-05 
 1.50736290e+02 -2.77726484e+02 -4.64983236e-05 
 1.54212228e+02 -2.77767707e+02 -5.28959617e-04 
 1.57768320e+02 -2.77700400e+02 -5.78335537e-04 
 1.61406415e+02 -2.77794324e+02 -7.93520163e-04 
 1.65128404e+02 -2.77753638e+02 -2.48760224e-05 
 1.68936220e+02 -2.77740080e+02 -7.38481658e-04 
 1.72831844e+02 -2.77638761e+02 -5.00639622e-04 
 1.76817299e+02 -2.77741427e+02 -7.17609640e-04 
 1.80894658e+02 -2.77673620e+02 -9.45554681e-04 
 1.85066040e+02 -2.77722536e+02 -1.31526670e-04 
 1.89333613e+02 -2.77598639e+02 -3.28412165e-04 
 1.93699595e+02 -2.77586300e+02 -7.42184788e-04 
 1.98166255e+02 -2.77661600e+02 -6.79039496e-04 
 2.02735916e+02 -2.77820188e+02 -8.24693917e-04 
 2.07410951e+02 -2.77703200e+02 -7.30720875e-04 
 2.12193792e+02 -2.77673853e+02 -5.02947532e-04 
 2.17086923e+02 -2.77700442e+02 -1.17017996e-04 
 2.22092889e+02 -2.77794010e+02  4.81324855e-05 
 2.27214291e+02 -2.77833475e+02 -8.45026553e-04 
 2.32453791e+02 -2.77779248e+02 -2.52316298e-04 
 2.37814113e+02 -2.77724373e+02 -4.86987475e-04 
 2.43298042e+02 -2.77735892e+02 -7.22363838e-04 
 2.48908429e+02 -2.77788879e+02 -1.32009953e-03 
 2.54648190e+02 -2.77622345e+02 -1.39095383e-03 
 2.60520309e+02 -2.77690329e+02 -9.60414603e-04 
 2.66527837e+02 -2.77703475e+02 -9.39316924e-04 
 2.72673897e+02 -2.77890548e+02 -1.52588481e-04 
 2.78961683e+02 -2.77780367e+02 -4.27628249e-04 
 2.85394464e+02 -2.77784231e+02 -4.94615454e-04 
 2.91975583e+02 -2.77825089e+02 -8.21307766e-04 
 2.98708461e+02 -2.77791499e+02 -5.12757693e-04 
 3.05596598e+02 -2.77798651e+02 -7.64128001e-04 
 3.12643573e+02 -2.77712219e+02 -8.12788445e-04 
 3.19853049e+02 -2.77808413e+02 -6.15310492e-04 
 3.27228774e+02 -2.77675937e+02 -1.54713788e-03 
 3.34774581e+02 -2.77820679e+02  4.61418693e-04 
 3.42494392e+02 -2.77776825e+02 -1.24917177e-03 
 3.50392221e+02 -2.77810626e+02 -2.36607085e-04 
 3.58472171e+02 -2.77712689e+02 -7.67157061e-04 
 3.66738442e+02 -2.77705237e+02  2.90421490e-04 
 3.75195331e+02 -2.77810777e+02  4.64988196e-05 
 3.83847234e+02 -2.77856448e+02 -9.99272112e-04 
 3.92698648e+02 -2.77740324e+02 -2.19433094e-04 
 4.01754173e+02 -2.77668179e+02 -7.73256674e-04 
 4.11018515e+02 -2.77716869e+02 -2.11147283e-03 
 4.20496491e+02 -2.77762059e+02 -1.40977346e-03 
 4.30193027e+02 -2.77706924e+02 -2.12244532e-03 
 4.40113162e+02 -2.77792320e+02 -2.69787910e-04 
 4.50262052e+02 -2.77685729e+02 -6.09347749e-04 
 4.60644974e+02 -2.77689873e+02 -9.35945476e-06 
 4.71267322e+02 -2.77782200e+02 -8.28629424e-04 
 4.82134619e+02 -2.77702399e+02 -1.16588247e-03 
 4.93252513e+02 -2.77752766e+02 -2.57478098e-03 
 5.04626783e+02 -2.77621693e+02 -8.25956330e-04 
 5.16263340e+02 -2.77793042e+02 -6.77034082e-05 
 5.28168234e+02 -2.77723108e+02 -5.45409851e-04 
 5.40347650e+02 -2.77760336e+02 -1.67732205e-03 
 5.52807921e+02 -2.77790605e+02 -6.76226560e-04 
 5.65555523e+02 -2.77709960e+02 -2.20707548e-04 
 5.78597080e+02 -2.77728784e+02 -4.51418328e-04 
 5.91939372e+02 -2.77710728e+02 -2.21512580e-04 
 6.05589334e+02 -2.77759214e+02 -3.23373484e-03 
 6.19554061e+02 -2.77588634e+02 -1.84891590e-03 
 6.33840810e+02 -2.77794159e+02 -1.54293044e-03 
 6.48457008e+02 -2.77800804e+02 -1.99924057e-03 
 6.63410251e+02 -2.77778395e+02 -3.28639341e-03 
 6.78708313e+02 -2.77795342e+02  8.66314871e-04 
 6.94359143e+02 -2.77746630e+02 -6.38318405e-04 
 7.10370877e+02 -2.77680759e+02 -2.35145400e-03 
 7.26751838e+02 -2.77749206e+02 -1.64138405e-03 
 7.43510539e+02 -2.77683439e+02 -2.48822805e-03 
 7.60655691e+02 -2.77736190e+02 -4.57413360e-05 
 7.78196206e+02 -2.77666481e+02 -3.62485701e-03 
 7.96141200e+02 -2.77802900e+02 -1.45288402e-03 
 8.14500001e+02 -2.77724495e+02 -1.77711741e-03 
 8.33282151e+02 -2.77781279e+02 -2.68361183e-03 
 8.52497412e+02 -2.77742835e+02 -3.39410795e-03 
 8.72155772e+02 -2.77729378e+02 -4.87871221e-04 
 8.92267449e+02 -2.77847353e+02  6.71020574e-04 
 9.12842895e+02 -2.77704150e+02 -1.05095223e-03 
 9.33892805e+02 -2.77647665e+02 -2.81809891e-03 
 9.55428121e+02 -2.77897083e+02 -6.70279053e-04 
 9.77460036e+02 -2.77842872e+02 -2.92743183e-03 
 1.00000000e+03 -2.77649411e+02 -6.59418883e-03 
 1.02305973e+03 -2.77687221e+02 -2.32039353e-03 
 1.04665121e+03 -2.77636632e+02 -2.44826736e-03 
 1.07078670e+03 -2.77785602e+02 -1.17803524e-03 
 1.09547876e+03 -2.77644362e+02 -4.51802115e-03 
 1.12074020e+03 -2.77749546e+02 -2.20278044e-03 
 1.14658417e+03 -2.77789942e+02 -6.21406091e-04 
 1.17302409e+03 -2.77705895e+02 -3.00530357e-03 
 1.20007371e+03 -2.77810406e+02 -1.49444111e-03 
 1.22774708e+03 -2.77800166e+02 -3.18034119e-03 
 1.25605860e+03 -2.77730336e+02 -5.43072165e-03 
 1.28502297e+03 -2.77723700e+02 -6.86632342e-04 
 1.31465525e+03 -2.77778882e+02 -3.97478485e-03 
 1.34497085e+03 -2.77605473e+02 -1.20397740e-03 
 1.37598551e+03 -2.77823216e+02 -2.40905142e-03 
 1.40771537e+03 -2.77858102e+02 -4.25661512e-03 
 1.44017690e+03 -2.77847192e+02 -9.65073832e-03 
 1.47338699e+03 -2.77750540e+02 -2.56303519e-03 
 1.50736290e+03 -2.77735257e+02  3.27754989e-05 
 1.54212228e+03 -2.77714962e+02 -2.72557783e-03 
 1.57768320e+03 -2.77865823e+02  1.00712112e-03 
 1.61406415e+03 -2.77641912e+02 -7.45409931e-03 
 1.65128404e+03 -2.77787554e+02 -6.97098619e-04 
 1.68936220e+03 -2.77861067e+02  3.03419936e-03 
 1.72831844e+03 -2.77938633e+02  5.41445057e-03 
 1.76817299e+03 -2.77738529e+02 -4.57484297e-03 
 1.80894658e+03 -2.77719771e+02 -1.32190623e-03 
 1.85066040e+03 -2.77733413e+02 -5.69369686e-03 
 1.89333613e+03 -2.77867745e+02  5.14745289e-03 
 1.93699595e+03 -2.77768391e+02 -7.85690041e-03 
 1.98166255e+03 -2.77627925e+02 -7.57703928e-03 
 2.02735916e+03 -2.77750144e+02 -1.04581940e-02 
 2.07410951e+03 -2.77797551e+02 -6.21162400e-04 
 2.12193792e+03 -2.77659909e+02 -1.15162458e-02 
 2.17086923e+03 -2.77738857e+02 -1.03318585e-02 
 2.22092889e+03 -2.77808958e+02 -4.89039296e-03 
 2.27214291e+03 -2.77762064e+02 -5.28755075e-03 
 2.32453791e+03 -2.77682670e+02 -9.61289816e-03 
 2.37814113e+03 -2.77656026e+02 -1.19511747e-02 
 2.43298042e+03 -2.77763088e+02 -2.13225187e-04 
 2.48908429e+03 -2.77818415e+02 -1.39638961e-02 
 2.54648190e+03 -2.77725849e+02 -1.03064303e-03 
 2.60520309e+03 -2.77666020e+02 -1.04386901e-02 
 2.66527837e+03 -2.77763939e+02 -3.08415281e-03 
 2.72673897e+03 -2.77753282e+02  4.06892728e-04 
 2.78961683e+03 -2.77844255e+02 -1.00711764e-02 
 2.85394464e+03 -2.77699336e+02 -7.87179660e-03 
 2.91975583e+03 -2.77680742e+02 -1.04069683e-02 
 2.98708461e+03 -2.77673780e+02 -5.91424372e-03 
 3.05596598e+03 -2.77660430e+02 -1.35858612e-02 
 3.12643573e+03 -2.77726940e+02 -3.09337002e-03 
 3.19853049e+03 -2.77760140e+02  6.17589996e-04 
 3.27228774e+03 -2.77834690e+02  5.05067201e-03 
 3.34774581e+03 -2.77909504e+02  1.04715985e-02 
 3.42494392e+03 -2.77917223e+02 -1.21412847e-02 
 3.50392221e+03 -2.77751029e+02  3.71275674e-03 
 3.58472171e+03 -2.77684648e+02 -8.06956158e-03 
 3.66738442e+03 -2.77796956e+02 -1.14574622e-02 
 3.75195331e+03 -2.77754940e+02 -5.99611618e-03 
 3.83847234e+03 -2.77715173e+02 -1.37537578e-02 
 3.92698648e+03 -2.77705636e+02  2.09198133e-03 
 4.01754173e+03 -2.77780385e+02 -6.75809876e-03 
 4.11018515e+03 -2.77820091e+02 -1.86927673e-03 
 4.20496491e+03 -2.77794931e+02 -1.21575256e-02 
 4.30193027e+03 -2.77658713e+02 -8.39535905e-03 
 4.40113162e+03 -2.77887986e+02 -3.73180707e-03 
 4.50262052e+03 -2.77789214e+02 -1.61050884e-02 
 4.60644974e+03 -2.77770213e+02 -2.03148779e-02 
 4.71267322e+03 -2.77595826e+02 -9.99695956e-03 
 4.82134619e+03 -2.77735476e+02 -1.57334894e-02 
 4.93252513e+03 -2.77778184e+02  4.89877659e-04 
 5.04626783e+03 -2.77614900e+02 -1.12760840e-02 
 5.16263340e+03 -2.77715640e+02 -9.76859742e-03 
 5.28168234e+03 -2.77863590e+02  7.22640229e-04 
 5.40347650e+03 -2.77670884e+02 -1.77521773e-02 
 5.52807921e+03 -2.77745853e+02 -1.93356381e-02 
 5.65555523e+03 -2.77748036e+02 -1.89460762e-02 
 5.78597080e+03 -2.77692261e+02 -1.30400859e-02 
 5.91939372e+03 -2.77794586e+02 -1.58716975e-02 
 6.05589334e+03 -2.77899708e+02 -9.06007067e-03 
 6.19554061e+03 -2.77777815e+02 -6.64855466e-03 
 6.33840810e+03 -2.77602966e+02 -2.44559047e-02 
 6.48457008e+03 -2.77727506e+02 -1.71941710e-02 
 6.63410251e+03 -2.77823538e+02 -5.64672604e-03 
 6.78708313e+03 -2.77763311e+02 -1.15758003e-02 
 6.94359143e+03 -2.77787523e+02 -4.92803692e-03 
 7.10370877e+03 -2.77859434e+02 -1.97009881e-02 
 7.26751838e+03 -2.77732187e+02 -1.51226833e-02 
 7.43510539e+03 -2.77749635e+02 -4.24695428e-02 
 7.60655691e+03 -2.77792208e+02  4.71864296e-03 
 7.78196206e+03 -2.77823249e+02 -6.67722016e-03 
 7.96141200e+03 -2.77792264e+02 -2.48098385e-02 
 8.14500001e+03 -2.77749239e+02 -3.43720767e-03 
 8.33282151e+03 -2.77677807e+02  5.50906331e-03 
 8.52497412e+03 -2.77646018e+02 -5.54018508e-02 
 8.72155772e+03 -2.77738136e+02 -4.62200403e-02 
 8.92267449e+03 -2.77782853e+02 -3.05104969e-02 
 9.12842895e+03 -2.77825451e+02 -4.32650580e-03 
 9.33892805e+03 -2.77758654e+02 -1.11441418e-02 
 9.55428121e+03 -2.77780786e+02 -9.40429341e-03 
 9.77460036e+03 -2.77725365e+02 -1.73725126e-02 
 1.00000000e+04 -2.77682018e+02 -4.86405462e-02 
 1.02305973e+04 -2.77878404e+02 -3.08520532e-02 
 1.04665121e+04 -2.77807197e+02 -2.33630784e-02 
