 frequency       v(Zin_dm)       v(Zin_dm)      
 1.00000000e-02  1.19299160e+06 -1.97551005e-02 
 1.02305973e-02  1.19299160e+06 -2.02106478e-02 
 1.04665121e-02  1.19299160e+06 -2.06766998e-02 
 1.07078670e-02  1.19299160e+06 -2.11534989e-02 
 1.09547876e-02  1.19299160e+06 -2.16412929e-02 
 1.12074020e-02  1.19299160e+06 -2.21403353e-02 
 1.14658417e-02  1.19299160e+06 -2.26508854e-02 
 1.17302409e-02  1.19299160e+06 -2.31732087e-02 
 1.20007371e-02  1.19299160e+06 -2.37075767e-02 
 1.22774708e-02  1.19299160e+06 -2.42542670e-02 
 1.25605860e-02  1.19299160e+06 -2.48135638e-02 
 1.28502297e-02  1.19299160e+06 -2.53857579e-02 
 1.31465525e-02  1.19299160e+06 -2.59711466e-02 
 1.34497085e-02  1.19299160e+06 -2.65700342e-02 
 1.37598551e-02  1.19299160e+06 -2.71827321e-02 
 1.40771537e-02  1.19299160e+06 -2.78095585e-02 
 1.44017690e-02  1.19299160e+06 -2.84508394e-02 
 1.47338699e-02  1.19299160e+06 -2.91069081e-02 
 1.50736290e-02  1.19299160e+06 -2.97781055e-02 
 1.54212228e-02  1.19299160e+06 -3.04647806e-02 
 1.57768320e-02  1.19299160e+06 -3.11672902e-02 
 1.61406415e-02  1.19299160e+06 -3.18859995e-02 
 1.65128404e-02  1.19299160e+06 -3.26212820e-02 
 1.68936220e-02  1.19299160e+06 -3.33735200e-02 
 1.72831844e-02  1.19299160e+06 -3.41431043e-02 
 1.76817299e-02  1.19299160e+06 -3.49304351e-02 
 1.80894658e-02  1.19299160e+06 -3.57359215e-02 
 1.85066040e-02  1.19299160e+06 -3.65599822e-02 
 1.89333613e-02  1.19299160e+06 -3.74030455e-02 
 1.93699595e-02  1.19299160e+06 -3.82655496e-02 
 1.98166255e-02  1.19299160e+06 -3.91479429e-02 
 2.02735916e-02  1.19299160e+06 -4.00506838e-02 
 2.07410951e-02  1.19299160e+06 -4.09742418e-02 
 2.12193792e-02  1.19299160e+06 -4.19190967e-02 
 2.17086923e-02  1.19299160e+06 -4.28857398e-02 
 2.22092889e-02  1.19299160e+06 -4.38746734e-02 
 2.27214291e-02  1.19299160e+06 -4.48864115e-02 
 2.32453791e-02  1.19299160e+06 -4.59214800e-02 
 2.37814113e-02  1.19299160e+06 -4.69804169e-02 
 2.43298042e-02  1.19299160e+06 -4.80637726e-02 
 2.48908429e-02  1.19299160e+06 -4.91721103e-02 
 2.54648190e-02  1.19299160e+06 -5.03060058e-02 
 2.60520309e-02  1.19299160e+06 -5.14660487e-02 
 2.66527837e-02  1.19299160e+06 -5.26528419e-02 
 2.72673897e-02  1.19299160e+06 -5.38670022e-02 
 2.78961683e-02  1.19299160e+06 -5.51091607e-02 
 2.85394464e-02  1.19299160e+06 -5.63799631e-02 
 2.91975583e-02  1.19299160e+06 -5.76800698e-02 
 2.98708461e-02  1.19299160e+06 -5.90101566e-02 
 3.05596598e-02  1.19299160e+06 -6.03709149e-02 
 3.12643573e-02  1.19299160e+06 -6.17630519e-02 
 3.19853049e-02  1.19299160e+06 -6.31872912e-02 
 3.27228774e-02  1.19299160e+06 -6.46443731e-02 
 3.34774581e-02  1.19299160e+06 -6.61350548e-02 
 3.42494392e-02  1.19299160e+06 -6.76601113e-02 
 3.50392221e-02  1.19299160e+06 -6.92203352e-02 
 3.58472171e-02  1.19299160e+06 -7.08165375e-02 
 3.66738442e-02  1.19299160e+06 -7.24495477e-02 
 3.75195331e-02  1.19299160e+06 -7.41202147e-02 
 3.83847234e-02  1.19299160e+06 -7.58294068e-02 
 3.92698648e-02  1.19299160e+06 -7.75780124e-02 
 4.01754173e-02  1.19299160e+06 -7.93669404e-02 
 4.11018515e-02  1.19299160e+06 -8.11971207e-02 
 4.20496491e-02  1.19299160e+06 -8.30695043e-02 
 4.30193027e-02  1.19299160e+06 -8.49850646e-02 
 4.40113162e-02  1.19299160e+06 -8.69447973e-02 
 4.50262052e-02  1.19299160e+06 -8.89497208e-02 
 4.60644974e-02  1.19299160e+06 -9.10008773e-02 
 4.71267322e-02  1.19299160e+06 -9.30993330e-02 
 4.82134619e-02  1.19299160e+06 -9.52461785e-02 
 4.93252513e-02  1.19299160e+06 -9.74425296e-02 
 5.04626783e-02  1.19299160e+06 -9.96895280e-02 
 5.16263340e-02  1.19299160e+06 -1.01988342e-01 
 5.28168234e-02  1.19299160e+06 -1.04340165e-01 
 5.40347650e-02  1.19299160e+06 -1.06746221e-01 
 5.52807921e-02  1.19299160e+06 -1.09207760e-01 
 5.65555523e-02  1.19299160e+06 -1.11726062e-01 
 5.78597080e-02  1.19299160e+06 -1.14302434e-01 
 5.91939372e-02  1.19299160e+06 -1.16938218e-01 
 6.05589334e-02  1.19299160e+06 -1.19634781e-01 
 6.19554061e-02  1.19299160e+06 -1.22393527e-01 
 6.33840810e-02  1.19299160e+06 -1.25215889e-01 
 6.48457008e-02  1.19299160e+06 -1.28103333e-01 
 6.63410251e-02  1.19299160e+06 -1.31057362e-01 
 6.78708313e-02  1.19299160e+06 -1.34079509e-01 
 6.94359143e-02  1.19299160e+06 -1.37171346e-01 
 7.10370877e-02  1.19299160e+06 -1.40334481e-01 
 7.26751838e-02  1.19299160e+06 -1.43570556e-01 
 7.43510539e-02  1.19299160e+06 -1.46881254e-01 
 7.60655691e-02  1.19299160e+06 -1.50268296e-01 
 7.78196206e-02  1.19299160e+06 -1.53733442e-01 
 7.96141200e-02  1.19299160e+06 -1.57278494e-01 
 8.14500001e-02  1.19299160e+06 -1.60905294e-01 
 8.33282151e-02  1.19299160e+06 -1.64615726e-01 
 8.52497412e-02  1.19299160e+06 -1.68411720e-01 
 8.72155772e-02  1.19299160e+06 -1.72295249e-01 
 8.92267449e-02  1.19299160e+06 -1.76268331e-01 
 9.12842895e-02  1.19299160e+06 -1.80333031e-01 
 9.33892805e-02  1.19299160e+06 -1.84491462e-01 
 9.55428121e-02  1.19299160e+06 -1.88745785e-01 
 9.77460036e-02  1.19299160e+06 -1.93098212e-01 
 1.00000000e-01  1.19299160e+06 -1.97551005e-01 
 1.02305973e-01  1.19299160e+06 -2.02106478e-01 
 1.04665121e-01  1.19299160e+06 -2.06766998e-01 
 1.07078670e-01  1.19299160e+06 -2.11534989e-01 
 1.09547876e-01  1.19299160e+06 -2.16412929e-01 
 1.12074020e-01  1.19299160e+06 -2.21403353e-01 
 1.14658417e-01  1.19299160e+06 -2.26508854e-01 
 1.17302409e-01  1.19299160e+06 -2.31732087e-01 
 1.20007371e-01  1.19299160e+06 -2.37075767e-01 
 1.22774708e-01  1.19299160e+06 -2.42542670e-01 
 1.25605860e-01  1.19299160e+06 -2.48135638e-01 
 1.28502297e-01  1.19299160e+06 -2.53857579e-01 
 1.31465525e-01  1.19299160e+06 -2.59711466e-01 
 1.34497085e-01  1.19299160e+06 -2.65700342e-01 
 1.37598551e-01  1.19299160e+06 -2.71827321e-01 
 1.40771537e-01  1.19299160e+06 -2.78095585e-01 
 1.44017690e-01  1.19299160e+06 -2.84508394e-01 
 1.47338699e-01  1.19299160e+06 -2.91069081e-01 
 1.50736290e-01  1.19299160e+06 -2.97781055e-01 
 1.54212228e-01  1.19299160e+06 -3.04647806e-01 
 1.57768320e-01  1.19299160e+06 -3.11672902e-01 
 1.61406415e-01  1.19299160e+06 -3.18859995e-01 
 1.65128404e-01  1.19299160e+06 -3.26212820e-01 
 1.68936220e-01  1.19299160e+06 -3.33735200e-01 
 1.72831844e-01  1.19299160e+06 -3.41431043e-01 
 1.76817299e-01  1.19299160e+06 -3.49304351e-01 
 1.80894658e-01  1.19299160e+06 -3.57359215e-01 
 1.85066040e-01  1.19299160e+06 -3.65599822e-01 
 1.89333613e-01  1.19299160e+06 -3.74030455e-01 
 1.93699595e-01  1.19299160e+06 -3.82655496e-01 
 1.98166255e-01  1.19299160e+06 -3.91479429e-01 
 2.02735916e-01  1.19299160e+06 -4.00506838e-01 
 2.07410951e-01  1.19299160e+06 -4.09742418e-01 
 2.12193792e-01  1.19299160e+06 -4.19190967e-01 
 2.17086923e-01  1.19299160e+06 -4.28857398e-01 
 2.22092889e-01  1.19299160e+06 -4.38746734e-01 
 2.27214291e-01  1.19299160e+06 -4.48864115e-01 
 2.32453791e-01  1.19299160e+06 -4.59214800e-01 
 2.37814113e-01  1.19299160e+06 -4.69804169e-01 
 2.43298042e-01  1.19299160e+06 -4.80637726e-01 
 2.48908429e-01  1.19299160e+06 -4.91721103e-01 
 2.54648190e-01  1.19299160e+06 -5.03060058e-01 
 2.60520309e-01  1.19299160e+06 -5.14660487e-01 
 2.66527837e-01  1.19299160e+06 -5.26528419e-01 
 2.72673897e-01  1.19299160e+06 -5.38670022e-01 
 2.78961683e-01  1.19299160e+06 -5.51091607e-01 
 2.85394464e-01  1.19299160e+06 -5.63799631e-01 
 2.91975583e-01  1.19299160e+06 -5.76800698e-01 
 2.98708461e-01  1.19299160e+06 -5.90101567e-01 
 3.05596598e-01  1.19299160e+06 -6.03709149e-01 
 3.12643573e-01  1.19299160e+06 -6.17630519e-01 
 3.19853049e-01  1.19299160e+06 -6.31872912e-01 
 3.27228774e-01  1.19299160e+06 -6.46443731e-01 
 3.34774581e-01  1.19299160e+06 -6.61350548e-01 
 3.42494392e-01  1.19299160e+06 -6.76601113e-01 
 3.50392221e-01  1.19299160e+06 -6.92203352e-01 
 3.58472171e-01  1.19299160e+06 -7.08165375e-01 
 3.66738442e-01  1.19299160e+06 -7.24495477e-01 
 3.75195331e-01  1.19299160e+06 -7.41202147e-01 
 3.83847234e-01  1.19299160e+06 -7.58294068e-01 
 3.92698648e-01  1.19299160e+06 -7.75780124e-01 
 4.01754173e-01  1.19299160e+06 -7.93669405e-01 
 4.11018515e-01  1.19299160e+06 -8.11971207e-01 
 4.20496491e-01  1.19299160e+06 -8.30695043e-01 
 4.30193027e-01  1.19299160e+06 -8.49850647e-01 
 4.40113162e-01  1.19299160e+06 -8.69447973e-01 
 4.50262052e-01  1.19299160e+06 -8.89497208e-01 
 4.60644974e-01  1.19299160e+06 -9.10008774e-01 
 4.71267322e-01  1.19299160e+06 -9.30993330e-01 
 4.82134619e-01  1.19299160e+06 -9.52461785e-01 
 4.93252513e-01  1.19299160e+06 -9.74425296e-01 
 5.04626783e-01  1.19299160e+06 -9.96895280e-01 
 5.16263340e-01  1.19299160e+06 -1.01988342e+00 
 5.28168234e-01  1.19299160e+06 -1.04340165e+00 
 5.40347650e-01  1.19299160e+06 -1.06746221e+00 
 5.52807921e-01  1.19299160e+06 -1.09207760e+00 
 5.65555523e-01  1.19299160e+06 -1.11726062e+00 
 5.78597080e-01  1.19299160e+06 -1.14302435e+00 
 5.91939372e-01  1.19299160e+06 -1.16938218e+00 
 6.05589334e-01  1.19299160e+06 -1.19634781e+00 
 6.19554061e-01  1.19299160e+06 -1.22393527e+00 
 6.33840810e-01  1.19299160e+06 -1.25215889e+00 
 6.48457008e-01  1.19299160e+06 -1.28103333e+00 
 6.63410251e-01  1.19299160e+06 -1.31057362e+00 
 6.78708313e-01  1.19299160e+06 -1.34079509e+00 
 6.94359143e-01  1.19299160e+06 -1.37171346e+00 
 7.10370877e-01  1.19299160e+06 -1.40334481e+00 
 7.26751838e-01  1.19299160e+06 -1.43570556e+00 
 7.43510539e-01  1.19299160e+06 -1.46881254e+00 
 7.60655691e-01  1.19299160e+06 -1.50268296e+00 
 7.78196206e-01  1.19299160e+06 -1.53733442e+00 
 7.96141200e-01  1.19299160e+06 -1.57278494e+00 
 8.14500001e-01  1.19299160e+06 -1.60905294e+00 
 8.33282151e-01  1.19299160e+06 -1.64615726e+00 
 8.52497412e-01  1.19299160e+06 -1.68411720e+00 
 8.72155772e-01  1.19299160e+06 -1.72295249e+00 
 8.92267449e-01  1.19299160e+06 -1.76268331e+00 
 9.12842895e-01  1.19299160e+06 -1.80333031e+00 
 9.33892805e-01  1.19299160e+06 -1.84491462e+00 
 9.55428121e-01  1.19299160e+06 -1.88745785e+00 
 9.77460036e-01  1.19299160e+06 -1.93098212e+00 
 1.00000000e+00  1.19299160e+06 -1.97551005e+00 
 1.02305973e+00  1.19299160e+06 -2.02106478e+00 
 1.04665121e+00  1.19299160e+06 -2.06766998e+00 
 1.07078670e+00  1.19299160e+06 -2.11534989e+00 
 1.09547876e+00  1.19299160e+06 -2.16412929e+00 
 1.12074020e+00  1.19299160e+06 -2.21403353e+00 
 1.14658417e+00  1.19299160e+06 -2.26508854e+00 
 1.17302409e+00  1.19299160e+06 -2.31732087e+00 
 1.20007371e+00  1.19299160e+06 -2.37075767e+00 
 1.22774708e+00  1.19299160e+06 -2.42542670e+00 
 1.25605860e+00  1.19299160e+06 -2.48135638e+00 
 1.28502297e+00  1.19299160e+06 -2.53857579e+00 
 1.31465525e+00  1.19299160e+06 -2.59711466e+00 
 1.34497085e+00  1.19299160e+06 -2.65700342e+00 
 1.37598551e+00  1.19299160e+06 -2.71827321e+00 
 1.40771537e+00  1.19299160e+06 -2.78095585e+00 
 1.44017690e+00  1.19299160e+06 -2.84508394e+00 
 1.47338699e+00  1.19299160e+06 -2.91069081e+00 
 1.50736290e+00  1.19299160e+06 -2.97781055e+00 
 1.54212228e+00  1.19299160e+06 -3.04647806e+00 
 1.57768320e+00  1.19299160e+06 -3.11672902e+00 
 1.61406415e+00  1.19299160e+06 -3.18859995e+00 
 1.65128404e+00  1.19299160e+06 -3.26212820e+00 
 1.68936220e+00  1.19299160e+06 -3.33735200e+00 
 1.72831844e+00  1.19299160e+06 -3.41431043e+00 
 1.76817299e+00  1.19299160e+06 -3.49304351e+00 
 1.80894658e+00  1.19299160e+06 -3.57359215e+00 
 1.85066040e+00  1.19299160e+06 -3.65599822e+00 
 1.89333613e+00  1.19299160e+06 -3.74030455e+00 
 1.93699595e+00  1.19299160e+06 -3.82655496e+00 
 1.98166255e+00  1.19299160e+06 -3.91479429e+00 
 2.02735916e+00  1.19299160e+06 -4.00506839e+00 
 2.07410951e+00  1.19299160e+06 -4.09742418e+00 
 2.12193792e+00  1.19299160e+06 -4.19190967e+00 
 2.17086923e+00  1.19299160e+06 -4.28857398e+00 
 2.22092889e+00  1.19299160e+06 -4.38746734e+00 
 2.27214291e+00  1.19299160e+06 -4.48864115e+00 
 2.32453791e+00  1.19299160e+06 -4.59214800e+00 
 2.37814113e+00  1.19299160e+06 -4.69804169e+00 
 2.43298042e+00  1.19299160e+06 -4.80637727e+00 
 2.48908429e+00  1.19299160e+06 -4.91721103e+00 
 2.54648190e+00  1.19299160e+06 -5.03060058e+00 
 2.60520309e+00  1.19299160e+06 -5.14660488e+00 
 2.66527837e+00  1.19299160e+06 -5.26528419e+00 
 2.72673897e+00  1.19299160e+06 -5.38670022e+00 
 2.78961683e+00  1.19299160e+06 -5.51091608e+00 
 2.85394464e+00  1.19299160e+06 -5.63799631e+00 
 2.91975583e+00  1.19299160e+06 -5.76800698e+00 
 2.98708461e+00  1.19299160e+06 -5.90101566e+00 
 3.05596598e+00  1.19299160e+06 -6.03709149e+00 
 3.12643573e+00  1.19299160e+06 -6.17630519e+00 
 3.19853049e+00  1.19299160e+06 -6.31872912e+00 
 3.27228774e+00  1.19299160e+06 -6.46443731e+00 
 3.34774581e+00  1.19299160e+06 -6.61350549e+00 
 3.42494392e+00  1.19299160e+06 -6.76601113e+00 
 3.50392221e+00  1.19299160e+06 -6.92203353e+00 
 3.58472171e+00  1.19299160e+06 -7.08165375e+00 
 3.66738442e+00  1.19299160e+06 -7.24495477e+00 
 3.75195331e+00  1.19299160e+06 -7.41202147e+00 
 3.83847234e+00  1.19299160e+06 -7.58294068e+00 
 3.92698648e+00  1.19299160e+06 -7.75780124e+00 
 4.01754173e+00  1.19299160e+06 -7.93669404e+00 
 4.11018515e+00  1.19299160e+06 -8.11971206e+00 
 4.20496491e+00  1.19299160e+06 -8.30695043e+00 
 4.30193027e+00  1.19299160e+06 -8.49850647e+00 
 4.40113162e+00  1.19299160e+06 -8.69447973e+00 
 4.50262052e+00  1.19299160e+06 -8.89497208e+00 
 4.60644974e+00  1.19299160e+06 -9.10008774e+00 
 4.71267322e+00  1.19299160e+06 -9.30993330e+00 
 4.82134619e+00  1.19299160e+06 -9.52461785e+00 
 4.93252513e+00  1.19299160e+06 -9.74425296e+00 
 5.04626783e+00  1.19299160e+06 -9.96895280e+00 
 5.16263340e+00  1.19299160e+06 -1.01988342e+01 
 5.28168234e+00  1.19299160e+06 -1.04340165e+01 
 5.40347650e+00  1.19299160e+06 -1.06746221e+01 
 5.52807921e+00  1.19299160e+06 -1.09207760e+01 
 5.65555523e+00  1.19299160e+06 -1.11726062e+01 
 5.78597080e+00  1.19299160e+06 -1.14302434e+01 
 5.91939372e+00  1.19299160e+06 -1.16938218e+01 
 6.05589334e+00  1.19299160e+06 -1.19634782e+01 
 6.19554061e+00  1.19299160e+06 -1.22393527e+01 
 6.33840810e+00  1.19299160e+06 -1.25215889e+01 
 6.48457008e+00  1.19299160e+06 -1.28103333e+01 
 6.63410251e+00  1.19299160e+06 -1.31057362e+01 
 6.78708313e+00  1.19299160e+06 -1.34079509e+01 
 6.94359143e+00  1.19299160e+06 -1.37171346e+01 
 7.10370877e+00  1.19299160e+06 -1.40334480e+01 
 7.26751838e+00  1.19299160e+06 -1.43570556e+01 
 7.43510539e+00  1.19299160e+06 -1.46881254e+01 
 7.60655691e+00  1.19299160e+06 -1.50268296e+01 
 7.78196206e+00  1.19299160e+06 -1.53733442e+01 
 7.96141200e+00  1.19299160e+06 -1.57278494e+01 
 8.14500001e+00  1.19299160e+06 -1.60905294e+01 
 8.33282151e+00  1.19299160e+06 -1.64615726e+01 
 8.52497412e+00  1.19299160e+06 -1.68411720e+01 
 8.72155772e+00  1.19299160e+06 -1.72295249e+01 
 8.92267449e+00  1.19299160e+06 -1.76268331e+01 
 9.12842895e+00  1.19299160e+06 -1.80333031e+01 
 9.33892805e+00  1.19299160e+06 -1.84491462e+01 
 9.55428121e+00  1.19299160e+06 -1.88745785e+01 
 9.77460036e+00  1.19299160e+06 -1.93098212e+01 
 1.00000000e+01  1.19299160e+06 -1.97551005e+01 
 1.02305973e+01  1.19299160e+06 -2.02106478e+01 
 1.04665121e+01  1.19299160e+06 -2.06766998e+01 
 1.07078670e+01  1.19299160e+06 -2.11534989e+01 
 1.09547876e+01  1.19299160e+06 -2.16412929e+01 
 1.12074020e+01  1.19299160e+06 -2.21403353e+01 
 1.14658417e+01  1.19299160e+06 -2.26508854e+01 
 1.17302409e+01  1.19299160e+06 -2.31732087e+01 
 1.20007371e+01  1.19299160e+06 -2.37075767e+01 
 1.22774708e+01  1.19299160e+06 -2.42542670e+01 
 1.25605860e+01  1.19299160e+06 -2.48135638e+01 
 1.28502297e+01  1.19299160e+06 -2.53857579e+01 
 1.31465525e+01  1.19299160e+06 -2.59711466e+01 
 1.34497085e+01  1.19299160e+06 -2.65700342e+01 
 1.37598551e+01  1.19299160e+06 -2.71827321e+01 
 1.40771537e+01  1.19299160e+06 -2.78095585e+01 
 1.44017690e+01  1.19299160e+06 -2.84508394e+01 
 1.47338699e+01  1.19299160e+06 -2.91069081e+01 
 1.50736290e+01  1.19299160e+06 -2.97781055e+01 
 1.54212228e+01  1.19299160e+06 -3.04647806e+01 
 1.57768320e+01  1.19299160e+06 -3.11672902e+01 
 1.61406415e+01  1.19299160e+06 -3.18859995e+01 
 1.65128404e+01  1.19299160e+06 -3.26212821e+01 
 1.68936220e+01  1.19299160e+06 -3.33735200e+01 
 1.72831844e+01  1.19299160e+06 -3.41431043e+01 
 1.76817299e+01  1.19299160e+06 -3.49304351e+01 
 1.80894658e+01  1.19299160e+06 -3.57359215e+01 
 1.85066040e+01  1.19299160e+06 -3.65599822e+01 
 1.89333613e+01  1.19299160e+06 -3.74030455e+01 
 1.93699595e+01  1.19299160e+06 -3.82655497e+01 
 1.98166255e+01  1.19299160e+06 -3.91479429e+01 
 2.02735916e+01  1.19299160e+06 -4.00506839e+01 
 2.07410951e+01  1.19299160e+06 -4.09742418e+01 
 2.12193792e+01  1.19299160e+06 -4.19190968e+01 
 2.17086923e+01  1.19299160e+06 -4.28857398e+01 
 2.22092889e+01  1.19299160e+06 -4.38746734e+01 
 2.27214291e+01  1.19299160e+06 -4.48864115e+01 
 2.32453791e+01  1.19299160e+06 -4.59214800e+01 
 2.37814113e+01  1.19299160e+06 -4.69804170e+01 
 2.43298042e+01  1.19299160e+06 -4.80637727e+01 
 2.48908429e+01  1.19299160e+06 -4.91721103e+01 
 2.54648190e+01  1.19299160e+06 -5.03060059e+01 
 2.60520309e+01  1.19299160e+06 -5.14660488e+01 
 2.66527837e+01  1.19299160e+06 -5.26528420e+01 
 2.72673897e+01  1.19299160e+06 -5.38670023e+01 
 2.78961683e+01  1.19299160e+06 -5.51091608e+01 
 2.85394464e+01  1.19299160e+06 -5.63799632e+01 
 2.91975583e+01  1.19299159e+06 -5.76800699e+01 
 2.98708461e+01  1.19299159e+06 -5.90101567e+01 
 3.05596598e+01  1.19299159e+06 -6.03709150e+01 
 3.12643573e+01  1.19299159e+06 -6.17630520e+01 
 3.19853049e+01  1.19299159e+06 -6.31872913e+01 
 3.27228774e+01  1.19299159e+06 -6.46443731e+01 
 3.34774581e+01  1.19299159e+06 -6.61350550e+01 
 3.42494392e+01  1.19299159e+06 -6.76601114e+01 
 3.50392221e+01  1.19299159e+06 -6.92203353e+01 
 3.58472171e+01  1.19299159e+06 -7.08165376e+01 
 3.66738442e+01  1.19299159e+06 -7.24495478e+01 
 3.75195331e+01  1.19299159e+06 -7.41202148e+01 
 3.83847234e+01  1.19299159e+06 -7.58294070e+01 
 3.92698648e+01  1.19299159e+06 -7.75780126e+01 
 4.01754173e+01  1.19299159e+06 -7.93669406e+01 
 4.11018515e+01  1.19299159e+06 -8.11971209e+01 
 4.20496491e+01  1.19299159e+06 -8.30695045e+01 
 4.30193027e+01  1.19299159e+06 -8.49850649e+01 
 4.40113162e+01  1.19299159e+06 -8.69447975e+01 
 4.50262052e+01  1.19299159e+06 -8.89497211e+01 
 4.60644974e+01  1.19299159e+06 -9.10008776e+01 
 4.71267322e+01  1.19299159e+06 -9.30993333e+01 
 4.82134619e+01  1.19299159e+06 -9.52461788e+01 
 4.93252513e+01  1.19299159e+06 -9.74425299e+01 
 5.04626783e+01  1.19299159e+06 -9.96895284e+01 
 5.16263340e+01  1.19299159e+06 -1.01988342e+02 
 5.28168234e+01  1.19299159e+06 -1.04340166e+02 
 5.40347650e+01  1.19299159e+06 -1.06746222e+02 
 5.52807921e+01  1.19299159e+06 -1.09207761e+02 
 5.65555523e+01  1.19299159e+06 -1.11726062e+02 
 5.78597080e+01  1.19299159e+06 -1.14302435e+02 
 5.91939372e+01  1.19299159e+06 -1.16938218e+02 
 6.05589334e+01  1.19299159e+06 -1.19634782e+02 
 6.19554061e+01  1.19299159e+06 -1.22393528e+02 
 6.33840810e+01  1.19299158e+06 -1.25215890e+02 
 6.48457008e+01  1.19299158e+06 -1.28103334e+02 
 6.63410251e+01  1.19299158e+06 -1.31057363e+02 
 6.78708313e+01  1.19299158e+06 -1.34079510e+02 
 6.94359143e+01  1.19299158e+06 -1.37171347e+02 
 7.10370877e+01  1.19299158e+06 -1.40334482e+02 
 7.26751838e+01  1.19299158e+06 -1.43570557e+02 
 7.43510539e+01  1.19299158e+06 -1.46881255e+02 
 7.60655691e+01  1.19299158e+06 -1.50268297e+02 
 7.78196206e+01  1.19299158e+06 -1.53733444e+02 
 7.96141200e+01  1.19299158e+06 -1.57278495e+02 
 8.14500001e+01  1.19299158e+06 -1.60905295e+02 
 8.33282151e+01  1.19299158e+06 -1.64615728e+02 
 8.52497412e+01  1.19299157e+06 -1.68411722e+02 
 8.72155772e+01  1.19299157e+06 -1.72295251e+02 
 8.92267449e+01  1.19299157e+06 -1.76268333e+02 
 9.12842895e+01  1.19299157e+06 -1.80333033e+02 
 9.33892805e+01  1.19299157e+06 -1.84491464e+02 
 9.55428121e+01  1.19299157e+06 -1.88745788e+02 
 9.77460036e+01  1.19299157e+06 -1.93098215e+02 
 1.00000000e+02  1.19299157e+06 -1.97551008e+02 
 1.02305973e+02  1.19299156e+06 -2.02106481e+02 
 1.04665121e+02  1.19299156e+06 -2.06767002e+02 
