 frequency       v(Aol_dB)       v(Aol_arg)     
 1.00000000e-01  2.74429913e+01 -1.45582179e-06 
 1.02305973e-01  2.74429913e+01 -1.48939265e-06 
 1.04665121e-01  2.74429913e+01 -1.52373764e-06 
 1.07078670e-01  2.74429913e+01 -1.55887462e-06 
 1.09547876e-01  2.74429913e+01 -1.59482185e-06 
 1.12074020e-01  2.74429913e+01 -1.63159801e-06 
 1.14658417e-01  2.74429913e+01 -1.66922222e-06 
 1.17302409e-01  2.74429913e+01 -1.70771403e-06 
 1.20007371e-01  2.74429913e+01 -1.74709346e-06 
 1.22774708e-01  2.74429913e+01 -1.78738096e-06 
 1.25605860e-01  2.74429913e+01 -1.82859748e-06 
 1.28502297e-01  2.74429913e+01 -1.87076445e-06 
 1.31465525e-01  2.74429913e+01 -1.91390377e-06 
 1.34497085e-01  2.74429913e+01 -1.95803787e-06 
 1.37598551e-01  2.74429913e+01 -2.00318970e-06 
 1.40771537e-01  2.74429913e+01 -2.04938271e-06 
 1.44017690e-01  2.74429913e+01 -2.09664092e-06 
 1.47338699e-01  2.74429913e+01 -2.14498890e-06 
 1.50736290e-01  2.74429913e+01 -2.19445176e-06 
 1.54212228e-01  2.74429913e+01 -2.24505523e-06 
 1.57768320e-01  2.74429913e+01 -2.29682559e-06 
 1.61406415e-01  2.74429913e+01 -2.34978977e-06 
 1.65128404e-01  2.74429913e+01 -2.40397529e-06 
 1.68936220e-01  2.74429913e+01 -2.45941031e-06 
 1.72831844e-01  2.74429913e+01 -2.51612364e-06 
 1.76817299e-01  2.74429913e+01 -2.57414478e-06 
 1.80894658e-01  2.74429913e+01 -2.63350386e-06 
 1.85066040e-01  2.74429913e+01 -2.69423175e-06 
 1.89333613e-01  2.74429913e+01 -2.75636000e-06 
 1.93699595e-01  2.74429913e+01 -2.81992092e-06 
 1.98166255e-01  2.74429913e+01 -2.88494753e-06 
 2.02735916e-01  2.74429913e+01 -2.95147365e-06 
 2.07410951e-01  2.74429913e+01 -3.01953383e-06 
 2.12193792e-01  2.74429913e+01 -3.08916346e-06 
 2.17086923e-01  2.74429913e+01 -3.16039874e-06 
 2.22092889e-01  2.74429913e+01 -3.23327668e-06 
 2.27214291e-01  2.74429913e+01 -3.30783517e-06 
 2.32453791e-01  2.74429913e+01 -3.38411295e-06 
 2.37814113e-01  2.74429913e+01 -3.46214968e-06 
 2.43298042e-01  2.74429913e+01 -3.54198592e-06 
 2.48908429e-01  2.74429913e+01 -3.62366316e-06 
 2.54648190e-01  2.74429913e+01 -3.70722385e-06 
 2.60520309e-01  2.74429913e+01 -3.79271143e-06 
 2.66527837e-01  2.74429913e+01 -3.88017033e-06 
 2.72673897e-01  2.74429913e+01 -3.96964601e-06 
 2.78961683e-01  2.74429913e+01 -4.06118498e-06 
 2.85394464e-01  2.74429913e+01 -4.15483481e-06 
 2.91975583e-01  2.74429913e+01 -4.25064417e-06 
 2.98708461e-01  2.74429913e+01 -4.34866288e-06 
 3.05596598e-01  2.74429913e+01 -4.44894187e-06 
 3.12643573e-01  2.74429913e+01 -4.55153327e-06 
 3.19853049e-01  2.74429913e+01 -4.65649040e-06 
 3.27228774e-01  2.74429913e+01 -4.76386781e-06 
 3.34774581e-01  2.74429913e+01 -4.87372131e-06 
 3.42494392e-01  2.74429913e+01 -4.98610801e-06 
 3.50392221e-01  2.74429913e+01 -5.10108631e-06 
 3.58472171e-01  2.74429913e+01 -5.21871598e-06 
 3.66738442e-01  2.74429913e+01 -5.33905817e-06 
 3.75195331e-01  2.74429913e+01 -5.46217540e-06 
 3.83847234e-01  2.74429913e+01 -5.58813169e-06 
 3.92698648e-01  2.74429913e+01 -5.71699250e-06 
 4.01754173e-01  2.74429913e+01 -5.84882480e-06 
 4.11018515e-01  2.74429913e+01 -5.98369712e-06 
 4.20496491e-01  2.74429913e+01 -6.12167956e-06 
 4.30193027e-01  2.74429913e+01 -6.26284384e-06 
 4.40113162e-01  2.74429913e+01 -6.40726333e-06 
 4.50262052e-01  2.74429913e+01 -6.55501309e-06 
 4.60644974e-01  2.74429913e+01 -6.70616992e-06 
 4.71267322e-01  2.74429913e+01 -6.86081238e-06 
 4.82134619e-01  2.74429913e+01 -7.01902087e-06 
 4.93252513e-01  2.74429913e+01 -7.18087759e-06 
 5.04626783e-01  2.74429913e+01 -7.34646669e-06 
 5.16263340e-01  2.74429913e+01 -7.51587422e-06 
 5.28168234e-01  2.74429913e+01 -7.68918825e-06 
 5.40347650e-01  2.74429913e+01 -7.86649886e-06 
 5.52807921e-01  2.74429913e+01 -8.04789820e-06 
 5.65555523e-01  2.74429913e+01 -8.23348055e-06 
 5.78597080e-01  2.74429913e+01 -8.42334239e-06 
 5.91939372e-01  2.74429913e+01 -8.61758239e-06 
 6.05589334e-01  2.74429913e+01 -8.81630151e-06 
 6.19554061e-01  2.74429913e+01 -9.01960304e-06 
 6.33840810e-01  2.74429913e+01 -9.22759265e-06 
 6.48457008e-01  2.74429913e+01 -9.44037845e-06 
 6.63410251e-01  2.74429913e+01 -9.65807102e-06 
 6.78708313e-01  2.74429913e+01 -9.88078353e-06 
 6.94359143e-01  2.74429913e+01 -1.01086317e-05 
 7.10370877e-01  2.74429913e+01 -1.03417340e-05 
 7.26751838e-01  2.74429913e+01 -1.05802116e-05 
 7.43510539e-01  2.74429913e+01 -1.08241885e-05 
 7.60655691e-01  2.74429913e+01 -1.10737913e-05 
 7.78196206e-01  2.74429913e+01 -1.13291500e-05 
 7.96141200e-01  2.74429913e+01 -1.15903971e-05 
 8.14500001e-01  2.74429913e+01 -1.18576685e-05 
 8.33282151e-01  2.74429913e+01 -1.21311032e-05 
 8.52497412e-01  2.74429913e+01 -1.24108431e-05 
 8.72155772e-01  2.74429913e+01 -1.26970338e-05 
 8.92267449e-01  2.74429913e+01 -1.29898240e-05 
 9.12842895e-01  2.74429913e+01 -1.32893658e-05 
 9.33892805e-01  2.74429913e+01 -1.35958150e-05 
 9.55428121e-01  2.74429913e+01 -1.39093308e-05 
 9.77460036e-01  2.74429913e+01 -1.42300762e-05 
 1.00000000e+00  2.74429913e+01 -1.45582179e-05 
 1.02305973e+00  2.74429913e+01 -1.48939265e-05 
 1.04665121e+00  2.74429913e+01 -1.52373764e-05 
 1.07078670e+00  2.74429913e+01 -1.55887462e-05 
 1.09547876e+00  2.74429913e+01 -1.59482185e-05 
 1.12074020e+00  2.74429913e+01 -1.63159801e-05 
 1.14658417e+00  2.74429913e+01 -1.66922222e-05 
 1.17302409e+00  2.74429913e+01 -1.70771403e-05 
 1.20007371e+00  2.74429913e+01 -1.74709346e-05 
 1.22774708e+00  2.74429913e+01 -1.78738096e-05 
 1.25605860e+00  2.74429913e+01 -1.82859748e-05 
 1.28502297e+00  2.74429913e+01 -1.87076445e-05 
 1.31465525e+00  2.74429913e+01 -1.91390377e-05 
 1.34497085e+00  2.74429913e+01 -1.95803787e-05 
 1.37598551e+00  2.74429913e+01 -2.00318970e-05 
 1.40771537e+00  2.74429913e+01 -2.04938271e-05 
 1.44017690e+00  2.74429913e+01 -2.09664092e-05 
 1.47338699e+00  2.74429913e+01 -2.14498890e-05 
 1.50736290e+00  2.74429913e+01 -2.19445176e-05 
 1.54212228e+00  2.74429913e+01 -2.24505523e-05 
 1.57768320e+00  2.74429913e+01 -2.29682559e-05 
 1.61406415e+00  2.74429913e+01 -2.34978977e-05 
 1.65128404e+00  2.74429913e+01 -2.40397529e-05 
 1.68936220e+00  2.74429913e+01 -2.45941031e-05 
 1.72831844e+00  2.74429913e+01 -2.51612364e-05 
 1.76817299e+00  2.74429913e+01 -2.57414478e-05 
 1.80894658e+00  2.74429913e+01 -2.63350386e-05 
 1.85066040e+00  2.74429913e+01 -2.69423175e-05 
 1.89333613e+00  2.74429913e+01 -2.75636000e-05 
 1.93699595e+00  2.74429913e+01 -2.81992092e-05 
 1.98166255e+00  2.74429913e+01 -2.88494753e-05 
 2.02735916e+00  2.74429913e+01 -2.95147365e-05 
 2.07410951e+00  2.74429913e+01 -3.01953383e-05 
 2.12193792e+00  2.74429913e+01 -3.08916346e-05 
 2.17086923e+00  2.74429913e+01 -3.16039874e-05 
 2.22092889e+00  2.74429913e+01 -3.23327668e-05 
 2.27214291e+00  2.74429913e+01 -3.30783517e-05 
 2.32453791e+00  2.74429913e+01 -3.38411295e-05 
 2.37814113e+00  2.74429913e+01 -3.46214968e-05 
 2.43298042e+00  2.74429913e+01 -3.54198592e-05 
 2.48908429e+00  2.74429913e+01 -3.62366316e-05 
 2.54648190e+00  2.74429913e+01 -3.70722385e-05 
 2.60520309e+00  2.74429913e+01 -3.79271143e-05 
 2.66527837e+00  2.74429913e+01 -3.88017033e-05 
 2.72673897e+00  2.74429913e+01 -3.96964601e-05 
 2.78961683e+00  2.74429913e+01 -4.06118498e-05 
 2.85394464e+00  2.74429913e+01 -4.15483481e-05 
 2.91975583e+00  2.74429913e+01 -4.25064417e-05 
 2.98708461e+00  2.74429913e+01 -4.34866288e-05 
 3.05596598e+00  2.74429913e+01 -4.44894187e-05 
 3.12643573e+00  2.74429913e+01 -4.55153327e-05 
 3.19853049e+00  2.74429913e+01 -4.65649040e-05 
 3.27228774e+00  2.74429913e+01 -4.76386781e-05 
 3.34774581e+00  2.74429913e+01 -4.87372131e-05 
 3.42494392e+00  2.74429913e+01 -4.98610801e-05 
 3.50392221e+00  2.74429913e+01 -5.10108631e-05 
 3.58472171e+00  2.74429913e+01 -5.21871598e-05 
 3.66738442e+00  2.74429913e+01 -5.33905817e-05 
 3.75195331e+00  2.74429913e+01 -5.46217540e-05 
 3.83847234e+00  2.74429913e+01 -5.58813169e-05 
 3.92698648e+00  2.74429913e+01 -5.71699250e-05 
 4.01754173e+00  2.74429913e+01 -5.84882480e-05 
 4.11018515e+00  2.74429913e+01 -5.98369712e-05 
 4.20496491e+00  2.74429913e+01 -6.12167956e-05 
 4.30193027e+00  2.74429913e+01 -6.26284384e-05 
 4.40113162e+00  2.74429913e+01 -6.40726333e-05 
 4.50262052e+00  2.74429913e+01 -6.55501309e-05 
 4.60644974e+00  2.74429913e+01 -6.70616992e-05 
 4.71267322e+00  2.74429913e+01 -6.86081238e-05 
 4.82134619e+00  2.74429913e+01 -7.01902087e-05 
 4.93252513e+00  2.74429913e+01 -7.18087759e-05 
 5.04626783e+00  2.74429913e+01 -7.34646669e-05 
 5.16263340e+00  2.74429913e+01 -7.51587422e-05 
 5.28168234e+00  2.74429913e+01 -7.68918825e-05 
 5.40347650e+00  2.74429913e+01 -7.86649886e-05 
 5.52807921e+00  2.74429913e+01 -8.04789820e-05 
 5.65555523e+00  2.74429913e+01 -8.23348055e-05 
 5.78597080e+00  2.74429913e+01 -8.42334239e-05 
 5.91939372e+00  2.74429913e+01 -8.61758239e-05 
 6.05589334e+00  2.74429913e+01 -8.81630151e-05 
 6.19554061e+00  2.74429913e+01 -9.01960304e-05 
 6.33840810e+00  2.74429913e+01 -9.22759265e-05 
 6.48457008e+00  2.74429913e+01 -9.44037845e-05 
 6.63410251e+00  2.74429913e+01 -9.65807102e-05 
 6.78708313e+00  2.74429913e+01 -9.88078353e-05 
 6.94359143e+00  2.74429913e+01 -1.01086317e-04 
 7.10370877e+00  2.74429913e+01 -1.03417340e-04 
 7.26751838e+00  2.74429913e+01 -1.05802116e-04 
 7.43510539e+00  2.74429913e+01 -1.08241885e-04 
 7.60655691e+00  2.74429913e+01 -1.10737913e-04 
 7.78196206e+00  2.74429913e+01 -1.13291500e-04 
 7.96141200e+00  2.74429913e+01 -1.15903971e-04 
 8.14500001e+00  2.74429913e+01 -1.18576685e-04 
 8.33282151e+00  2.74429913e+01 -1.21311032e-04 
 8.52497412e+00  2.74429913e+01 -1.24108431e-04 
 8.72155772e+00  2.74429913e+01 -1.26970338e-04 
 8.92267449e+00  2.74429913e+01 -1.29898240e-04 
 9.12842895e+00  2.74429913e+01 -1.32893658e-04 
 9.33892805e+00  2.74429913e+01 -1.35958150e-04 
 9.55428121e+00  2.74429913e+01 -1.39093308e-04 
 9.77460036e+00  2.74429913e+01 -1.42300762e-04 
 1.00000000e+01  2.74429913e+01 -1.45582179e-04 
 1.02305973e+01  2.74429913e+01 -1.48939265e-04 
 1.04665121e+01  2.74429913e+01 -1.52373764e-04 
 1.07078670e+01  2.74429913e+01 -1.55887462e-04 
 1.09547876e+01  2.74429913e+01 -1.59482185e-04 
 1.12074020e+01  2.74429913e+01 -1.63159801e-04 
 1.14658417e+01  2.74429913e+01 -1.66922222e-04 
 1.17302409e+01  2.74429913e+01 -1.70771403e-04 
 1.20007371e+01  2.74429913e+01 -1.74709346e-04 
 1.22774708e+01  2.74429913e+01 -1.78738096e-04 
 1.25605860e+01  2.74429913e+01 -1.82859748e-04 
 1.28502297e+01  2.74429913e+01 -1.87076445e-04 
 1.31465525e+01  2.74429913e+01 -1.91390377e-04 
 1.34497085e+01  2.74429913e+01 -1.95803787e-04 
 1.37598551e+01  2.74429913e+01 -2.00318970e-04 
 1.40771537e+01  2.74429913e+01 -2.04938271e-04 
 1.44017690e+01  2.74429913e+01 -2.09664092e-04 
 1.47338699e+01  2.74429913e+01 -2.14498890e-04 
 1.50736290e+01  2.74429913e+01 -2.19445176e-04 
 1.54212228e+01  2.74429913e+01 -2.24505522e-04 
 1.57768320e+01  2.74429913e+01 -2.29682559e-04 
 1.61406415e+01  2.74429913e+01 -2.34978977e-04 
 1.65128404e+01  2.74429913e+01 -2.40397529e-04 
 1.68936220e+01  2.74429913e+01 -2.45941031e-04 
 1.72831844e+01  2.74429913e+01 -2.51612364e-04 
 1.76817299e+01  2.74429913e+01 -2.57414478e-04 
 1.80894658e+01  2.74429913e+01 -2.63350386e-04 
 1.85066040e+01  2.74429913e+01 -2.69423175e-04 
 1.89333613e+01  2.74429913e+01 -2.75636000e-04 
 1.93699595e+01  2.74429913e+01 -2.81992092e-04 
 1.98166255e+01  2.74429913e+01 -2.88494753e-04 
 2.02735916e+01  2.74429913e+01 -2.95147365e-04 
 2.07410951e+01  2.74429913e+01 -3.01953383e-04 
 2.12193792e+01  2.74429913e+01 -3.08916346e-04 
 2.17086923e+01  2.74429913e+01 -3.16039874e-04 
 2.22092889e+01  2.74429913e+01 -3.23327668e-04 
 2.27214291e+01  2.74429913e+01 -3.30783517e-04 
 2.32453791e+01  2.74429913e+01 -3.38411295e-04 
 2.37814113e+01  2.74429913e+01 -3.46214968e-04 
 2.43298042e+01  2.74429913e+01 -3.54198592e-04 
 2.48908429e+01  2.74429913e+01 -3.62366316e-04 
 2.54648190e+01  2.74429913e+01 -3.70722385e-04 
 2.60520309e+01  2.74429913e+01 -3.79271143e-04 
 2.66527837e+01  2.74429913e+01 -3.88017033e-04 
 2.72673897e+01  2.74429913e+01 -3.96964601e-04 
 2.78961683e+01  2.74429913e+01 -4.06118498e-04 
 2.85394464e+01  2.74429913e+01 -4.15483481e-04 
 2.91975583e+01  2.74429913e+01 -4.25064417e-04 
 2.98708461e+01  2.74429913e+01 -4.34866288e-04 
 3.05596598e+01  2.74429913e+01 -4.44894187e-04 
 3.12643573e+01  2.74429913e+01 -4.55153327e-04 
 3.19853049e+01  2.74429913e+01 -4.65649040e-04 
 3.27228774e+01  2.74429913e+01 -4.76386781e-04 
 3.34774581e+01  2.74429913e+01 -4.87372131e-04 
 3.42494392e+01  2.74429913e+01 -4.98610801e-04 
 3.50392221e+01  2.74429913e+01 -5.10108631e-04 
 3.58472171e+01  2.74429913e+01 -5.21871598e-04 
 3.66738442e+01  2.74429913e+01 -5.33905817e-04 
 3.75195331e+01  2.74429913e+01 -5.46217540e-04 
 3.83847234e+01  2.74429913e+01 -5.58813169e-04 
 3.92698648e+01  2.74429913e+01 -5.71699250e-04 
 4.01754173e+01  2.74429913e+01 -5.84882480e-04 
 4.11018515e+01  2.74429913e+01 -5.98369712e-04 
 4.20496491e+01  2.74429913e+01 -6.12167956e-04 
 4.30193027e+01  2.74429913e+01 -6.26284384e-04 
 4.40113162e+01  2.74429913e+01 -6.40726333e-04 
 4.50262052e+01  2.74429913e+01 -6.55501309e-04 
 4.60644974e+01  2.74429913e+01 -6.70616992e-04 
 4.71267322e+01  2.74429913e+01 -6.86081238e-04 
 4.82134619e+01  2.74429913e+01 -7.01902086e-04 
 4.93252513e+01  2.74429913e+01 -7.18087759e-04 
 5.04626783e+01  2.74429913e+01 -7.34646669e-04 
 5.16263340e+01  2.74429913e+01 -7.51587422e-04 
 5.28168234e+01  2.74429913e+01 -7.68918825e-04 
 5.40347650e+01  2.74429913e+01 -7.86649886e-04 
 5.52807921e+01  2.74429913e+01 -8.04789820e-04 
 5.65555523e+01  2.74429913e+01 -8.23348055e-04 
 5.78597080e+01  2.74429913e+01 -8.42334239e-04 
 5.91939372e+01  2.74429913e+01 -8.61758239e-04 
 6.05589334e+01  2.74429913e+01 -8.81630151e-04 
 6.19554061e+01  2.74429913e+01 -9.01960304e-04 
 6.33840810e+01  2.74429913e+01 -9.22759265e-04 
 6.48457008e+01  2.74429913e+01 -9.44037845e-04 
 6.63410251e+01  2.74429913e+01 -9.65807102e-04 
 6.78708313e+01  2.74429913e+01 -9.88078353e-04 
 6.94359143e+01  2.74429913e+01 -1.01086317e-03 
 7.10370877e+01  2.74429913e+01 -1.03417340e-03 
 7.26751838e+01  2.74429913e+01 -1.05802116e-03 
 7.43510539e+01  2.74429913e+01 -1.08241885e-03 
 7.60655691e+01  2.74429913e+01 -1.10737913e-03 
 7.78196206e+01  2.74429913e+01 -1.13291500e-03 
 7.96141200e+01  2.74429913e+01 -1.15903971e-03 
 8.14500001e+01  2.74429913e+01 -1.18576685e-03 
 8.33282151e+01  2.74429913e+01 -1.21311032e-03 
 8.52497412e+01  2.74429913e+01 -1.24108431e-03 
 8.72155772e+01  2.74429913e+01 -1.26970338e-03 
 8.92267449e+01  2.74429913e+01 -1.29898240e-03 
 9.12842895e+01  2.74429913e+01 -1.32893658e-03 
 9.33892805e+01  2.74429913e+01 -1.35958150e-03 
 9.55428121e+01  2.74429913e+01 -1.39093308e-03 
 9.77460036e+01  2.74429913e+01 -1.42300762e-03 
 1.00000000e+02  2.74429913e+01 -1.45582179e-03 
 1.02305973e+02  2.74429913e+01 -1.48939265e-03 
 1.04665121e+02  2.74429913e+01 -1.52373764e-03 
 1.07078670e+02  2.74429913e+01 -1.55887462e-03 
 1.09547876e+02  2.74429913e+01 -1.59482185e-03 
 1.12074020e+02  2.74429913e+01 -1.63159801e-03 
 1.14658417e+02  2.74429913e+01 -1.66922222e-03 
 1.17302409e+02  2.74429913e+01 -1.70771403e-03 
 1.20007371e+02  2.74429913e+01 -1.74709346e-03 
 1.22774708e+02  2.74429913e+01 -1.78738096e-03 
 1.25605860e+02  2.74429913e+01 -1.82859748e-03 
 1.28502297e+02  2.74429913e+01 -1.87076445e-03 
 1.31465525e+02  2.74429913e+01 -1.91390377e-03 
 1.34497085e+02  2.74429913e+01 -1.95803787e-03 
 1.37598551e+02  2.74429913e+01 -2.00318970e-03 
 1.40771537e+02  2.74429913e+01 -2.04938271e-03 
 1.44017690e+02  2.74429913e+01 -2.09664092e-03 
 1.47338699e+02  2.74429913e+01 -2.14498889e-03 
 1.50736290e+02  2.74429913e+01 -2.19445176e-03 
 1.54212228e+02  2.74429913e+01 -2.24505522e-03 
 1.57768320e+02  2.74429913e+01 -2.29682559e-03 
 1.61406415e+02  2.74429913e+01 -2.34978977e-03 
 1.65128404e+02  2.74429913e+01 -2.40397529e-03 
 1.68936220e+02  2.74429913e+01 -2.45941031e-03 
 1.72831844e+02  2.74429913e+01 -2.51612364e-03 
 1.76817299e+02  2.74429913e+01 -2.57414477e-03 
 1.80894658e+02  2.74429913e+01 -2.63350386e-03 
 1.85066040e+02  2.74429913e+01 -2.69423175e-03 
 1.89333613e+02  2.74429913e+01 -2.75636000e-03 
 1.93699595e+02  2.74429913e+01 -2.81992092e-03 
 1.98166255e+02  2.74429913e+01 -2.88494753e-03 
 2.02735916e+02  2.74429913e+01 -2.95147364e-03 
 2.07410951e+02  2.74429913e+01 -3.01953383e-03 
 2.12193792e+02  2.74429913e+01 -3.08916346e-03 
 2.17086923e+02  2.74429913e+01 -3.16039874e-03 
 2.22092889e+02  2.74429913e+01 -3.23327668e-03 
 2.27214291e+02  2.74429913e+01 -3.30783516e-03 
 2.32453791e+02  2.74429913e+01 -3.38411295e-03 
 2.37814113e+02  2.74429913e+01 -3.46214968e-03 
 2.43298042e+02  2.74429913e+01 -3.54198592e-03 
 2.48908429e+02  2.74429913e+01 -3.62366315e-03 
 2.54648190e+02  2.74429913e+01 -3.70722385e-03 
 2.60520309e+02  2.74429913e+01 -3.79271143e-03 
 2.66527837e+02  2.74429913e+01 -3.88017033e-03 
 2.72673897e+02  2.74429913e+01 -3.96964601e-03 
 2.78961683e+02  2.74429913e+01 -4.06118497e-03 
 2.85394464e+02  2.74429913e+01 -4.15483480e-03 
 2.91975583e+02  2.74429913e+01 -4.25064417e-03 
 2.98708461e+02  2.74429913e+01 -4.34866287e-03 
 3.05596598e+02  2.74429913e+01 -4.44894186e-03 
 3.12643573e+02  2.74429913e+01 -4.55153326e-03 
 3.19853049e+02  2.74429913e+01 -4.65649039e-03 
 3.27228774e+02  2.74429913e+01 -4.76386780e-03 
 3.34774581e+02  2.74429913e+01 -4.87372130e-03 
 3.42494392e+02  2.74429913e+01 -4.98610800e-03 
 3.50392221e+02  2.74429913e+01 -5.10108630e-03 
 3.58472171e+02  2.74429913e+01 -5.21871597e-03 
 3.66738442e+02  2.74429913e+01 -5.33905815e-03 
 3.75195331e+02  2.74429913e+01 -5.46217539e-03 
 3.83847234e+02  2.74429913e+01 -5.58813168e-03 
 3.92698648e+02  2.74429913e+01 -5.71699248e-03 
 4.01754173e+02  2.74429913e+01 -5.84882478e-03 
 4.11018515e+02  2.74429913e+01 -5.98369710e-03 
 4.20496491e+02  2.74429913e+01 -6.12167954e-03 
 4.30193027e+02  2.74429913e+01 -6.26284381e-03 
 4.40113162e+02  2.74429913e+01 -6.40726330e-03 
 4.50262052e+02  2.74429913e+01 -6.55501306e-03 
 4.60644974e+02  2.74429913e+01 -6.70616989e-03 
 4.71267322e+02  2.74429913e+01 -6.86081235e-03 
 4.82134619e+02  2.74429913e+01 -7.01902083e-03 
 4.93252513e+02  2.74429913e+01 -7.18087755e-03 
 5.04626783e+02  2.74429913e+01 -7.34646665e-03 
 5.16263340e+02  2.74429913e+01 -7.51587418e-03 
 5.28168234e+02  2.74429913e+01 -7.68918821e-03 
 5.40347650e+02  2.74429912e+01 -7.86649881e-03 
 5.52807921e+02  2.74429912e+01 -8.04789814e-03 
 5.65555523e+02  2.74429912e+01 -8.23348050e-03 
 5.78597080e+02  2.74429912e+01 -8.42334233e-03 
 5.91939372e+02  2.74429912e+01 -8.61758233e-03 
 6.05589334e+02  2.74429912e+01 -8.81630145e-03 
 6.19554061e+02  2.74429912e+01 -9.01960297e-03 
 6.33840810e+02  2.74429912e+01 -9.22759258e-03 
 6.48457008e+02  2.74429912e+01 -9.44037836e-03 
 6.63410251e+02  2.74429912e+01 -9.65807093e-03 
 6.78708313e+02  2.74429912e+01 -9.88078344e-03 
 6.94359143e+02  2.74429912e+01 -1.01086316e-02 
 7.10370877e+02  2.74429912e+01 -1.03417339e-02 
 7.26751838e+02  2.74429912e+01 -1.05802115e-02 
 7.43510539e+02  2.74429912e+01 -1.08241883e-02 
 7.60655691e+02  2.74429912e+01 -1.10737912e-02 
 7.78196206e+02  2.74429912e+01 -1.13291498e-02 
 7.96141200e+02  2.74429912e+01 -1.15903969e-02 
 8.14500001e+02  2.74429911e+01 -1.18576684e-02 
 8.33282151e+02  2.74429911e+01 -1.21311030e-02 
 8.52497412e+02  2.74429911e+01 -1.24108429e-02 
 8.72155772e+02  2.74429911e+01 -1.26970336e-02 
 8.92267449e+02  2.74429911e+01 -1.29898238e-02 
 9.12842895e+02  2.74429911e+01 -1.32893656e-02 
 9.33892805e+02  2.74429911e+01 -1.35958147e-02 
 9.55428121e+02  2.74429911e+01 -1.39093306e-02 
 9.77460036e+02  2.74429911e+01 -1.42300759e-02 
 1.00000000e+03  2.74429911e+01 -1.45582176e-02 
 1.02305973e+03  2.74429910e+01 -1.48939262e-02 
 1.04665121e+03  2.74429910e+01 -1.52373761e-02 
