 frequency       v(Amag_dB)      v(Aarg)        
 1.00000000e+00 -4.52546072e-01 -2.55367386e-04 
 1.02305973e+00 -4.52546072e-01 -2.61256089e-04 
 1.04665121e+00 -4.52546072e-01 -2.67280584e-04 
 1.07078670e+00 -4.52546072e-01 -2.73444002e-04 
 1.09547876e+00 -4.52546072e-01 -2.79749546e-04 
 1.12074020e+00 -4.52546072e-01 -2.86200495e-04 
 1.14658417e+00 -4.52546072e-01 -2.92800201e-04 
 1.17302409e+00 -4.52546072e-01 -2.99552095e-04 
 1.20007371e+00 -4.52546072e-01 -3.06459685e-04 
 1.22774708e+00 -4.52546072e-01 -3.13526563e-04 
 1.25605860e+00 -4.52546072e-01 -3.20756401e-04 
 1.28502297e+00 -4.52546072e-01 -3.28152957e-04 
 1.31465525e+00 -4.52546072e-01 -3.35720075e-04 
 1.34497085e+00 -4.52546072e-01 -3.43461689e-04 
 1.37598551e+00 -4.52546072e-01 -3.51381823e-04 
 1.40771537e+00 -4.52546072e-01 -3.59484593e-04 
 1.44017690e+00 -4.52546072e-01 -3.67774211e-04 
 1.47338699e+00 -4.52546072e-01 -3.76254985e-04 
 1.50736290e+00 -4.52546072e-01 -3.84931323e-04 
 1.54212228e+00 -4.52546072e-01 -3.93807735e-04 
 1.57768320e+00 -4.52546072e-01 -4.02888835e-04 
 1.61406415e+00 -4.52546072e-01 -4.12179343e-04 
 1.65128404e+00 -4.52546072e-01 -4.21684087e-04 
 1.68936220e+00 -4.52546072e-01 -4.31408008e-04 
 1.72831844e+00 -4.52546072e-01 -4.41356161e-04 
 1.76817299e+00 -4.52546072e-01 -4.51533714e-04 
 1.80894658e+00 -4.52546072e-01 -4.61945960e-04 
 1.85066040e+00 -4.52546072e-01 -4.72598309e-04 
 1.89333613e+00 -4.52546072e-01 -4.83496298e-04 
 1.93699595e+00 -4.52546072e-01 -4.94645592e-04 
 1.98166255e+00 -4.52546072e-01 -5.06051986e-04 
 2.02735916e+00 -4.52546072e-01 -5.17721408e-04 
 2.07410951e+00 -4.52546072e-01 -5.29659924e-04 
 2.12193792e+00 -4.52546072e-01 -5.41873739e-04 
 2.17086923e+00 -4.52546072e-01 -5.54369201e-04 
 2.22092889e+00 -4.52546072e-01 -5.67152805e-04 
 2.27214291e+00 -4.52546072e-01 -5.80231195e-04 
 2.32453791e+00 -4.52546072e-01 -5.93611170e-04 
 2.37814113e+00 -4.52546072e-01 -6.07299683e-04 
 2.43298042e+00 -4.52546072e-01 -6.21303849e-04 
 2.48908429e+00 -4.52546072e-01 -6.35630948e-04 
 2.54648190e+00 -4.52546072e-01 -6.50288426e-04 
 2.60520309e+00 -4.52546072e-01 -6.65283902e-04 
 2.66527837e+00 -4.52546072e-01 -6.80625169e-04 
 2.72673897e+00 -4.52546072e-01 -6.96320201e-04 
 2.78961683e+00 -4.52546072e-01 -7.12377157e-04 
 2.85394464e+00 -4.52546072e-01 -7.28804382e-04 
 2.91975583e+00 -4.52546072e-01 -7.45610414e-04 
 2.98708461e+00 -4.52546072e-01 -7.62803989e-04 
 3.05596598e+00 -4.52546072e-01 -7.80394043e-04 
 3.12643573e+00 -4.52546072e-01 -7.98389718e-04 
 3.19853049e+00 -4.52546072e-01 -8.16800370e-04 
 3.27228774e+00 -4.52546072e-01 -8.35635565e-04 
 3.34774581e+00 -4.52546072e-01 -8.54905096e-04 
 3.42494392e+00 -4.52546072e-01 -8.74618976e-04 
 3.50392221e+00 -4.52546072e-01 -8.94787454e-04 
 3.58472171e+00 -4.52546072e-01 -9.15421011e-04 
 3.66738442e+00 -4.52546072e-01 -9.36530372e-04 
 3.75195331e+00 -4.52546072e-01 -9.58126509e-04 
 3.83847234e+00 -4.52546072e-01 -9.80220648e-04 
 3.92698648e+00 -4.52546072e-01 -1.00282427e-03 
 4.01754173e+00 -4.52546072e-01 -1.02594913e-03 
 4.11018515e+00 -4.52546072e-01 -1.04960724e-03 
 4.20496491e+00 -4.52546072e-01 -1.07381090e-03 
 4.30193027e+00 -4.52546072e-01 -1.09857269e-03 
 4.40113162e+00 -4.52546072e-01 -1.12390548e-03 
 4.50262052e+00 -4.52546072e-01 -1.14982243e-03 
 4.60644974e+00 -4.52546072e-01 -1.17633703e-03 
 4.71267322e+00 -4.52546072e-01 -1.20346304e-03 
 4.82134619e+00 -4.52546072e-01 -1.23121457e-03 
 4.93252513e+00 -4.52546072e-01 -1.25960605e-03 
 5.04626783e+00 -4.52546072e-01 -1.28865222e-03 
 5.16263340e+00 -4.52546072e-01 -1.31836820e-03 
 5.28168234e+00 -4.52546072e-01 -1.34876941e-03 
 5.40347650e+00 -4.52546072e-01 -1.37987167e-03 
 5.52807921e+00 -4.52546072e-01 -1.41169114e-03 
 5.65555523e+00 -4.52546072e-01 -1.44424435e-03 
 5.78597080e+00 -4.52546072e-01 -1.47754824e-03 
 5.91939372e+00 -4.52546072e-01 -1.51162010e-03 
 6.05589334e+00 -4.52546072e-01 -1.54647765e-03 
 6.19554061e+00 -4.52546072e-01 -1.58213901e-03 
 6.33840810e+00 -4.52546072e-01 -1.61862271e-03 
 6.48457008e+00 -4.52546072e-01 -1.65594771e-03 
 6.63410251e+00 -4.52546072e-01 -1.69413342e-03 
 6.78708313e+00 -4.52546072e-01 -1.73319967e-03 
 6.94359143e+00 -4.52546072e-01 -1.77316679e-03 
 7.10370877e+00 -4.52546072e-01 -1.81405554e-03 
 7.26751838e+00 -4.52546072e-01 -1.85588717e-03 
 7.43510539e+00 -4.52546072e-01 -1.89868343e-03 
 7.60655691e+00 -4.52546072e-01 -1.94246655e-03 
 7.78196206e+00 -4.52546072e-01 -1.98725931e-03 
 7.96141200e+00 -4.52546072e-01 -2.03308497e-03 
 8.14500001e+00 -4.52546072e-01 -2.07996736e-03 
 8.33282151e+00 -4.52546072e-01 -2.12793084e-03 
 8.52497412e+00 -4.52546072e-01 -2.17700036e-03 
 8.72155772e+00 -4.52546072e-01 -2.22720140e-03 
 8.92267449e+00 -4.52546072e-01 -2.27856006e-03 
 9.12842895e+00 -4.52546072e-01 -2.33110304e-03 
 9.33892805e+00 -4.52546072e-01 -2.38485764e-03 
 9.55428121e+00 -4.52546072e-01 -2.43985182e-03 
 9.77460036e+00 -4.52546072e-01 -2.49611414e-03 
 1.00000000e+01 -4.52546072e-01 -2.55367386e-03 
 1.02305973e+01 -4.52546072e-01 -2.61256089e-03 
 1.04665121e+01 -4.52546072e-01 -2.67280584e-03 
 1.07078670e+01 -4.52546072e-01 -2.73444002e-03 
 1.09547876e+01 -4.52546072e-01 -2.79749546e-03 
 1.12074020e+01 -4.52546072e-01 -2.86200495e-03 
 1.14658417e+01 -4.52546072e-01 -2.92800201e-03 
 1.17302409e+01 -4.52546072e-01 -2.99552095e-03 
 1.20007371e+01 -4.52546072e-01 -3.06459685e-03 
 1.22774708e+01 -4.52546072e-01 -3.13526563e-03 
 1.25605860e+01 -4.52546072e-01 -3.20756401e-03 
 1.28502297e+01 -4.52546072e-01 -3.28152957e-03 
 1.31465525e+01 -4.52546072e-01 -3.35720075e-03 
 1.34497085e+01 -4.52546072e-01 -3.43461690e-03 
 1.37598551e+01 -4.52546072e-01 -3.51381823e-03 
 1.40771537e+01 -4.52546072e-01 -3.59484593e-03 
 1.44017690e+01 -4.52546072e-01 -3.67774211e-03 
 1.47338699e+01 -4.52546072e-01 -3.76254985e-03 
 1.50736290e+01 -4.52546072e-01 -3.84931323e-03 
 1.54212228e+01 -4.52546072e-01 -3.93807735e-03 
 1.57768320e+01 -4.52546072e-01 -4.02888835e-03 
 1.61406415e+01 -4.52546072e-01 -4.12179343e-03 
 1.65128404e+01 -4.52546072e-01 -4.21684087e-03 
 1.68936220e+01 -4.52546072e-01 -4.31408009e-03 
 1.72831844e+01 -4.52546072e-01 -4.41356161e-03 
 1.76817299e+01 -4.52546072e-01 -4.51533715e-03 
 1.80894658e+01 -4.52546072e-01 -4.61945960e-03 
 1.85066040e+01 -4.52546072e-01 -4.72598309e-03 
 1.89333613e+01 -4.52546072e-01 -4.83496298e-03 
 1.93699595e+01 -4.52546072e-01 -4.94645592e-03 
 1.98166255e+01 -4.52546072e-01 -5.06051986e-03 
 2.02735916e+01 -4.52546072e-01 -5.17721408e-03 
 2.07410951e+01 -4.52546072e-01 -5.29659924e-03 
 2.12193792e+01 -4.52546072e-01 -5.41873739e-03 
 2.17086923e+01 -4.52546072e-01 -5.54369201e-03 
 2.22092889e+01 -4.52546072e-01 -5.67152805e-03 
 2.27214291e+01 -4.52546072e-01 -5.80231195e-03 
 2.32453791e+01 -4.52546072e-01 -5.93611170e-03 
 2.37814113e+01 -4.52546072e-01 -6.07299683e-03 
 2.43298042e+01 -4.52546072e-01 -6.21303850e-03 
 2.48908429e+01 -4.52546073e-01 -6.35630949e-03 
 2.54648190e+01 -4.52546073e-01 -6.50288427e-03 
 2.60520309e+01 -4.52546073e-01 -6.65283902e-03 
 2.66527837e+01 -4.52546073e-01 -6.80625170e-03 
 2.72673897e+01 -4.52546073e-01 -6.96320202e-03 
 2.78961683e+01 -4.52546073e-01 -7.12377158e-03 
 2.85394464e+01 -4.52546073e-01 -7.28804383e-03 
 2.91975583e+01 -4.52546073e-01 -7.45610415e-03 
 2.98708461e+01 -4.52546073e-01 -7.62803990e-03 
 3.05596598e+01 -4.52546073e-01 -7.80394044e-03 
 3.12643573e+01 -4.52546073e-01 -7.98389720e-03 
 3.19853049e+01 -4.52546073e-01 -8.16800371e-03 
 3.27228774e+01 -4.52546073e-01 -8.35635567e-03 
 3.34774581e+01 -4.52546073e-01 -8.54905097e-03 
 3.42494392e+01 -4.52546073e-01 -8.74618978e-03 
 3.50392221e+01 -4.52546073e-01 -8.94787455e-03 
 3.58472171e+01 -4.52546074e-01 -9.15421012e-03 
 3.66738442e+01 -4.52546074e-01 -9.36530374e-03 
 3.75195331e+01 -4.52546074e-01 -9.58126511e-03 
 3.83847234e+01 -4.52546074e-01 -9.80220650e-03 
 3.92698648e+01 -4.52546074e-01 -1.00282427e-02 
 4.01754173e+01 -4.52546074e-01 -1.02594913e-02 
 4.11018515e+01 -4.52546074e-01 -1.04960724e-02 
 4.20496491e+01 -4.52546074e-01 -1.07381090e-02 
 4.30193027e+01 -4.52546074e-01 -1.09857269e-02 
 4.40113162e+01 -4.52546075e-01 -1.12390548e-02 
 4.50262052e+01 -4.52546075e-01 -1.14982244e-02 
 4.60644974e+01 -4.52546075e-01 -1.17633703e-02 
 4.71267322e+01 -4.52546075e-01 -1.20346304e-02 
 4.82134619e+01 -4.52546075e-01 -1.23121458e-02 
 4.93252513e+01 -4.52546075e-01 -1.25960605e-02 
 5.04626783e+01 -4.52546076e-01 -1.28865223e-02 
 5.16263340e+01 -4.52546076e-01 -1.31836820e-02 
 5.28168234e+01 -4.52546076e-01 -1.34876942e-02 
 5.40347650e+01 -4.52546076e-01 -1.37987167e-02 
 5.52807921e+01 -4.52546076e-01 -1.41169114e-02 
 5.65555523e+01 -4.52546077e-01 -1.44424436e-02 
 5.78597080e+01 -4.52546077e-01 -1.47754824e-02 
 5.91939372e+01 -4.52546077e-01 -1.51162011e-02 
 6.05589334e+01 -4.52546077e-01 -1.54647766e-02 
 6.19554061e+01 -4.52546078e-01 -1.58213902e-02 
 6.33840810e+01 -4.52546078e-01 -1.61862272e-02 
 6.48457008e+01 -4.52546078e-01 -1.65594772e-02 
 6.63410251e+01 -4.52546078e-01 -1.69413343e-02 
 6.78708313e+01 -4.52546079e-01 -1.73319969e-02 
 6.94359143e+01 -4.52546079e-01 -1.77316680e-02 
 7.10370877e+01 -4.52546080e-01 -1.81405555e-02 
 7.26751838e+01 -4.52546080e-01 -1.85588718e-02 
 7.43510539e+01 -4.52546080e-01 -1.89868344e-02 
 7.60655691e+01 -4.52546081e-01 -1.94246657e-02 
 7.78196206e+01 -4.52546081e-01 -1.98725932e-02 
 7.96141200e+01 -4.52546082e-01 -2.03308499e-02 
 8.14500001e+01 -4.52546082e-01 -2.07996738e-02 
 8.33282151e+01 -4.52546082e-01 -2.12793087e-02 
 8.52497412e+01 -4.52546083e-01 -2.17700038e-02 
 8.72155772e+01 -4.52546084e-01 -2.22720142e-02 
 8.92267449e+01 -4.52546084e-01 -2.27856008e-02 
 9.12842895e+01 -4.52546085e-01 -2.33110307e-02 
 9.33892805e+01 -4.52546085e-01 -2.38485767e-02 
 9.55428121e+01 -4.52546086e-01 -2.43985185e-02 
 9.77460036e+01 -4.52546087e-01 -2.49611418e-02 
 1.00000000e+02 -4.52546087e-01 -2.55367390e-02 
 1.02305973e+02 -4.52546088e-01 -2.61256093e-02 
 1.04665121e+02 -4.52546089e-01 -2.67280588e-02 
 1.07078670e+02 -4.52546090e-01 -2.73444006e-02 
 1.09547876e+02 -4.52546090e-01 -2.79749551e-02 
 1.12074020e+02 -4.52546091e-01 -2.86200501e-02 
 1.14658417e+02 -4.52546092e-01 -2.92800207e-02 
 1.17302409e+02 -4.52546093e-01 -2.99552101e-02 
 1.20007371e+02 -4.52546094e-01 -3.06459692e-02 
 1.22774708e+02 -4.52546095e-01 -3.13526570e-02 
 1.25605860e+02 -4.52546096e-01 -3.20756408e-02 
 1.28502297e+02 -4.52546098e-01 -3.28152965e-02 
 1.31465525e+02 -4.52546099e-01 -3.35720084e-02 
 1.34497085e+02 -4.52546100e-01 -3.43461699e-02 
 1.37598551e+02 -4.52546101e-01 -3.51381833e-02 
 1.40771537e+02 -4.52546103e-01 -3.59484604e-02 
 1.44017690e+02 -4.52546104e-01 -3.67774222e-02 
 1.47338699e+02 -4.52546106e-01 -3.76254997e-02 
 1.50736290e+02 -4.52546108e-01 -3.84931336e-02 
 1.54212228e+02 -4.52546109e-01 -3.93807749e-02 
 1.57768320e+02 -4.52546111e-01 -4.02888850e-02 
 1.61406415e+02 -4.52546113e-01 -4.12179359e-02 
 1.65128404e+02 -4.52546115e-01 -4.21684105e-02 
 1.68936220e+02 -4.52546117e-01 -4.31408027e-02 
 1.72831844e+02 -4.52546119e-01 -4.41356180e-02 
 1.76817299e+02 -4.52546121e-01 -4.51533736e-02 
 1.80894658e+02 -4.52546123e-01 -4.61945983e-02 
 1.85066040e+02 -4.52546126e-01 -4.72598333e-02 
 1.89333613e+02 -4.52546128e-01 -4.83496324e-02 
 1.93699595e+02 -4.52546131e-01 -4.94645620e-02 
 1.98166255e+02 -4.52546134e-01 -5.06052016e-02 
 2.02735916e+02 -4.52546137e-01 -5.17721440e-02 
 2.07410951e+02 -4.52546140e-01 -5.29659958e-02 
 2.12193792e+02 -4.52546143e-01 -5.41873775e-02 
 2.17086923e+02 -4.52546146e-01 -5.54369240e-02 
 2.22092889e+02 -4.52546150e-01 -5.67152847e-02 
 2.27214291e+02 -4.52546153e-01 -5.80231240e-02 
 2.32453791e+02 -4.52546157e-01 -5.93611218e-02 
 2.37814113e+02 -4.52546161e-01 -6.07299735e-02 
 2.43298042e+02 -4.52546165e-01 -6.21303905e-02 
 2.48908429e+02 -4.52546170e-01 -6.35631008e-02 
 2.54648190e+02 -4.52546174e-01 -6.50288490e-02 
 2.60520309e+02 -4.52546179e-01 -6.65283970e-02 
 2.66527837e+02 -4.52546184e-01 -6.80625242e-02 
 2.72673897e+02 -4.52546189e-01 -6.96320280e-02 
 2.78961683e+02 -4.52546195e-01 -7.12377241e-02 
 2.85394464e+02 -4.52546201e-01 -7.28804471e-02 
 2.91975583e+02 -4.52546207e-01 -7.45610510e-02 
 2.98708461e+02 -4.52546213e-01 -7.62804092e-02 
 3.05596598e+02 -4.52546219e-01 -7.80394153e-02 
 3.12643573e+02 -4.52546226e-01 -7.98389836e-02 
 3.19853049e+02 -4.52546234e-01 -8.16800496e-02 
 3.27228774e+02 -4.52546241e-01 -8.35635701e-02 
 3.34774581e+02 -4.52546249e-01 -8.54905241e-02 
 3.42494392e+02 -4.52546257e-01 -8.74619131e-02 
 3.50392221e+02 -4.52546266e-01 -8.94787620e-02 
 3.58472171e+02 -4.52546275e-01 -9.15421188e-02 
 3.66738442e+02 -4.52546285e-01 -9.36530562e-02 
 3.75195331e+02 -4.52546295e-01 -9.58126713e-02 
 3.83847234e+02 -4.52546305e-01 -9.80220866e-02 
 3.92698648e+02 -4.52546316e-01 -1.00282450e-01 
 4.01754173e+02 -4.52546327e-01 -1.02594938e-01 
 4.11018515e+02 -4.52546339e-01 -1.04960751e-01 
 4.20496491e+02 -4.52546352e-01 -1.07381118e-01 
 4.30193027e+02 -4.52546365e-01 -1.09857299e-01 
 4.40113162e+02 -4.52546378e-01 -1.12390580e-01 
 4.50262052e+02 -4.52546393e-01 -1.14982278e-01 
 4.60644974e+02 -4.52546408e-01 -1.17633740e-01 
 4.71267322e+02 -4.52546423e-01 -1.20346344e-01 
 4.82134619e+02 -4.52546440e-01 -1.23121501e-01 
 4.93252513e+02 -4.52546457e-01 -1.25960651e-01 
 5.04626783e+02 -4.52546475e-01 -1.28865272e-01 
 5.16263340e+02 -4.52546494e-01 -1.31836873e-01 
 5.28168234e+02 -4.52546513e-01 -1.34876998e-01 
 5.40347650e+02 -4.52546534e-01 -1.37987228e-01 
 5.52807921e+02 -4.52546556e-01 -1.41169179e-01 
 5.65555523e+02 -4.52546578e-01 -1.44424505e-01 
 5.78597080e+02 -4.52546602e-01 -1.47754898e-01 
 5.91939372e+02 -4.52546627e-01 -1.51162090e-01 
 6.05589334e+02 -4.52546653e-01 -1.54647851e-01 
 6.19554061e+02 -4.52546680e-01 -1.58213993e-01 
 6.33840810e+02 -4.52546708e-01 -1.61862369e-01 
 6.48457008e+02 -4.52546738e-01 -1.65594876e-01 
 6.63410251e+02 -4.52546769e-01 -1.69413454e-01 
 6.78708313e+02 -4.52546801e-01 -1.73320088e-01 
 6.94359143e+02 -4.52546835e-01 -1.77316808e-01 
 7.10370877e+02 -4.52546871e-01 -1.81405692e-01 
 7.26751838e+02 -4.52546908e-01 -1.85588865e-01 
 7.43510539e+02 -4.52546947e-01 -1.89868501e-01 
 7.60655691e+02 -4.52546988e-01 -1.94246825e-01 
 7.78196206e+02 -4.52547031e-01 -1.98726112e-01 
 7.96141200e+02 -4.52547076e-01 -2.03308692e-01 
 8.14500001e+02 -4.52547123e-01 -2.07996944e-01 
 8.33282151e+02 -4.52547172e-01 -2.12793308e-01 
 8.52497412e+02 -4.52547223e-01 -2.17700274e-01 
 8.72155772e+02 -4.52547277e-01 -2.22720395e-01 
 8.92267449e+02 -4.52547333e-01 -2.27856280e-01 
 9.12842895e+02 -4.52547392e-01 -2.33110597e-01 
 9.33892805e+02 -4.52547453e-01 -2.38486079e-01 
 9.55428121e+02 -4.52547518e-01 -2.43985518e-01 
 9.77460036e+02 -4.52547585e-01 -2.49611774e-01 
 1.00000000e+03 -4.52547656e-01 -2.55367772e-01 
 1.02305973e+03 -4.52547730e-01 -2.61256502e-01 
 1.04665121e+03 -4.52547807e-01 -2.67281026e-01 
 1.07078670e+03 -4.52547888e-01 -2.73444475e-01 
 1.09547876e+03 -4.52547973e-01 -2.79750053e-01 
 1.12074020e+03 -4.52548062e-01 -2.86201038e-01 
 1.14658417e+03 -4.52548155e-01 -2.92800783e-01 
 1.17302409e+03 -4.52548252e-01 -2.99552718e-01 
 1.20007371e+03 -4.52548353e-01 -3.06460352e-01 
 1.22774708e+03 -4.52548460e-01 -3.13527277e-01 
 1.25605860e+03 -4.52548571e-01 -3.20757165e-01 
 1.28502297e+03 -4.52548688e-01 -3.28153775e-01 
 1.31465525e+03 -4.52548810e-01 -3.35720952e-01 
 1.34497085e+03 -4.52548938e-01 -3.43462628e-01 
 1.37598551e+03 -4.52549072e-01 -3.51382828e-01 
 1.40771537e+03 -4.52549212e-01 -3.59485669e-01 
 1.44017690e+03 -4.52549358e-01 -3.67775363e-01 
 1.47338699e+03 -4.52549512e-01 -3.76256219e-01 
 1.50736290e+03 -4.52549672e-01 -3.84932644e-01 
 1.54212228e+03 -4.52549840e-01 -3.93809150e-01 
 1.57768320e+03 -4.52550016e-01 -4.02890350e-01 
 1.61406415e+03 -4.52550200e-01 -4.12180965e-01 
 1.65128404e+03 -4.52550393e-01 -4.21685824e-01 
 1.68936220e+03 -4.52550594e-01 -4.31409868e-01 
 1.72831844e+03 -4.52550805e-01 -4.41358152e-01 
 1.76817299e+03 -4.52551026e-01 -4.51535847e-01 
 1.80894658e+03 -4.52551257e-01 -4.61948243e-01 
 1.85066040e+03 -4.52551499e-01 -4.72600754e-01 
 1.89333613e+03 -4.52551753e-01 -4.83498916e-01 
 1.93699595e+03 -4.52552018e-01 -4.94648396e-01 
 1.98166255e+03 -4.52552295e-01 -5.06054988e-01 
 2.02735916e+03 -4.52552586e-01 -5.17724622e-01 
 2.07410951e+03 -4.52552890e-01 -5.29663366e-01 
 2.12193792e+03 -4.52553208e-01 -5.41877424e-01 
 2.17086923e+03 -4.52553541e-01 -5.54373147e-01 
 2.22092889e+03 -4.52553890e-01 -5.67157030e-01 
 2.27214291e+03 -4.52554254e-01 -5.80235720e-01 
 2.32453791e+03 -4.52554636e-01 -5.93616015e-01 
 2.37814113e+03 -4.52555036e-01 -6.07304871e-01 
 2.43298042e+03 -4.52555455e-01 -6.21309405e-01 
 2.48908429e+03 -4.52555893e-01 -6.35636897e-01 
 2.54648190e+03 -4.52556351e-01 -6.50294796e-01 
 2.60520309e+03 -4.52556831e-01 -6.65290722e-01 
 2.66527837e+03 -4.52557333e-01 -6.80632472e-01 
 2.72673897e+03 -4.52557859e-01 -6.96328022e-01 
 2.78961683e+03 -4.52558409e-01 -7.12385531e-01 
 2.85394464e+03 -4.52558985e-01 -7.28813349e-01 
 2.91975583e+03 -4.52559588e-01 -7.45620016e-01 
 2.98708461e+03 -4.52560219e-01 -7.62814270e-01 
 3.05596598e+03 -4.52560880e-01 -7.80405052e-01 
 3.12643573e+03 -4.52561571e-01 -7.98401507e-01 
 3.19853049e+03 -4.52562295e-01 -8.16812992e-01 
 3.27228774e+03 -4.52563052e-01 -8.35649082e-01 
 3.34774581e+03 -4.52563845e-01 -8.54919569e-01 
 3.42494392e+03 -4.52564675e-01 -8.74634474e-01 
 3.50392221e+03 -4.52565544e-01 -8.94804048e-01 
 3.58472171e+03 -4.52566453e-01 -9.15438780e-01 
 3.66738442e+03 -4.52567405e-01 -9.36549399e-01 
 3.75195331e+03 -4.52568402e-01 -9.58146883e-01 
 3.83847234e+03 -4.52569445e-01 -9.80242464e-01 
 3.92698648e+03 -4.52570537e-01 -1.00284763e+00 
 4.01754173e+03 -4.52571680e-01 -1.02597414e+00 
 4.11018515e+03 -4.52572876e-01 -1.04963402e+00 
 4.20496491e+03 -4.52574129e-01 -1.07383958e+00 
 4.30193027e+03 -4.52575440e-01 -1.09860340e+00 
 4.40113162e+03 -4.52576812e-01 -1.12393836e+00 
 4.50262052e+03 -4.52578249e-01 -1.14985764e+00 
 4.60644974e+03 -4.52579753e-01 -1.17637473e+00 
 4.71267322e+03 -4.52581327e-01 -1.20350341e+00 
 4.82134619e+03 -4.52582975e-01 -1.23125780e+00 
 4.93252513e+03 -4.52584700e-01 -1.25965234e+00 
 5.04626783e+03 -4.52586507e-01 -1.28870179e+00 
 5.16263340e+03 -4.52588397e-01 -1.31842127e+00 
 5.28168234e+03 -4.52590377e-01 -1.34882624e+00 
 5.40347650e+03 -4.52592449e-01 -1.37993252e+00 
 5.52807921e+03 -4.52594618e-01 -1.41175630e+00 
 5.65555523e+03 -4.52596889e-01 -1.44431413e+00 
 5.78597080e+03 -4.52599267e-01 -1.47762295e+00 
 5.91939372e+03 -4.52601756e-01 -1.51170010e+00 
 6.05589334e+03 -4.52604362e-01 -1.54656332e+00 
 6.19554061e+03 -4.52607091e-01 -1.58223074e+00 
 6.33840810e+03 -4.52609948e-01 -1.61872093e+00 
 6.48457008e+03 -4.52612939e-01 -1.65605288e+00 
 6.63410251e+03 -4.52616070e-01 -1.69424603e+00 
 6.78708313e+03 -4.52619349e-01 -1.73332026e+00 
 6.94359143e+03 -4.52622782e-01 -1.77329592e+00 
 7.10370877e+03 -4.52626376e-01 -1.81419380e+00 
 7.26751838e+03 -4.52630140e-01 -1.85603522e+00 
 7.43510539e+03 -4.52634081e-01 -1.89884196e+00 
 7.60655691e+03 -4.52638207e-01 -1.94263630e+00 
 7.78196206e+03 -4.52642528e-01 -1.98744107e+00 
 7.96141200e+03 -4.52647053e-01 -2.03327960e+00 
 8.14500001e+03 -4.52651791e-01 -2.08017577e+00 
 8.33282151e+03 -4.52656753e-01 -2.12815400e+00 
 8.52497412e+03 -4.52661950e-01 -2.17723931e+00 
 8.72155772e+03 -4.52667392e-01 -2.22745726e+00 
 8.92267449e+03 -4.52673091e-01 -2.27883403e+00 
 9.12842895e+03 -4.52679060e-01 -2.33139640e+00 
 9.33892805e+03 -4.52685311e-01 -2.38517177e+00 
 9.55428121e+03 -4.52691859e-01 -2.44018817e+00 
 9.77460036e+03 -4.52698717e-01 -2.49647430e+00 
 1.00000000e+04 -4.52705900e-01 -2.55405951e+00 
 1.02305973e+04 -4.52713424e-01 -2.61297383e+00 
 1.04665121e+04 -4.52721306e-01 -2.67324801e+00 
