 frequency       v(Amag_dB)      v(Aarg)        
 1.00000000e+00 -1.01297855e+01 -5.07263759e-04 
 1.02305973e+00 -1.01297855e+01 -5.18961125e-04 
 1.04665121e+00 -1.01297855e+01 -5.30928228e-04 
 1.07078670e+00 -1.01297855e+01 -5.43171289e-04 
 1.09547876e+00 -1.01297855e+01 -5.55696673e-04 
 1.12074020e+00 -1.01297855e+01 -5.68510888e-04 
 1.14658417e+00 -1.01297855e+01 -5.81620595e-04 
 1.17302409e+00 -1.01297855e+01 -5.95032609e-04 
 1.20007371e+00 -1.01297855e+01 -6.08753900e-04 
 1.22774708e+00 -1.01297855e+01 -6.22791601e-04 
 1.25605860e+00 -1.01297855e+01 -6.37153007e-04 
 1.28502297e+00 -1.01297855e+01 -6.51845583e-04 
 1.31465525e+00 -1.01297855e+01 -6.66876966e-04 
 1.34497085e+00 -1.01297855e+01 -6.82254969e-04 
 1.37598551e+00 -1.01297855e+01 -6.97987584e-04 
 1.40771537e+00 -1.01297855e+01 -7.14082989e-04 
 1.44017690e+00 -1.01297855e+01 -7.30549550e-04 
 1.47338699e+00 -1.01297855e+01 -7.47395825e-04 
 1.50736290e+00 -1.01297855e+01 -7.64630571e-04 
 1.54212228e+00 -1.01297855e+01 -7.82262745e-04 
 1.57768320e+00 -1.01297855e+01 -8.00301513e-04 
 1.61406415e+00 -1.01297855e+01 -8.18756250e-04 
 1.65128404e+00 -1.01297855e+01 -8.37636548e-04 
 1.68936220e+00 -1.01297855e+01 -8.56952220e-04 
 1.72831844e+00 -1.01297855e+01 -8.76713307e-04 
 1.76817299e+00 -1.01297855e+01 -8.96930079e-04 
 1.80894658e+00 -1.01297855e+01 -9.17613044e-04 
 1.85066040e+00 -1.01297855e+01 -9.38772953e-04 
 1.89333613e+00 -1.01297855e+01 -9.60420804e-04 
 1.93699595e+00 -1.01297855e+01 -9.82567848e-04 
 1.98166255e+00 -1.01297855e+01 -1.00522560e-03 
 2.02735916e+00 -1.01297855e+01 -1.02840583e-03 
 2.07410951e+00 -1.01297855e+01 -1.05212059e-03 
 2.12193792e+00 -1.01297855e+01 -1.07638220e-03 
 2.17086923e+00 -1.01297855e+01 -1.10120329e-03 
 2.22092889e+00 -1.01297855e+01 -1.12659674e-03 
 2.27214291e+00 -1.01297855e+01 -1.15257575e-03 
 2.32453791e+00 -1.01297855e+01 -1.17915384e-03 
 2.37814113e+00 -1.01297855e+01 -1.20634481e-03 
 2.43298042e+00 -1.01297855e+01 -1.23416279e-03 
 2.48908429e+00 -1.01297855e+01 -1.26262225e-03 
 2.54648190e+00 -1.01297855e+01 -1.29173798e-03 
 2.60520309e+00 -1.01297855e+01 -1.32152511e-03 
 2.66527837e+00 -1.01297855e+01 -1.35199912e-03 
 2.72673897e+00 -1.01297855e+01 -1.38317586e-03 
 2.78961683e+00 -1.01297855e+01 -1.41507152e-03 
 2.85394464e+00 -1.01297855e+01 -1.44770269e-03 
 2.91975583e+00 -1.01297855e+01 -1.48108632e-03 
 2.98708461e+00 -1.01297855e+01 -1.51523977e-03 
 3.05596598e+00 -1.01297855e+01 -1.55018079e-03 
 3.12643573e+00 -1.01297855e+01 -1.58592754e-03 
 3.19853049e+00 -1.01297855e+01 -1.62249860e-03 
 3.27228774e+00 -1.01297855e+01 -1.65991298e-03 
 3.34774581e+00 -1.01297855e+01 -1.69819013e-03 
 3.42494392e+00 -1.01297855e+01 -1.73734993e-03 
 3.50392221e+00 -1.01297855e+01 -1.77741275e-03 
 3.58472171e+00 -1.01297855e+01 -1.81839941e-03 
 3.66738442e+00 -1.01297855e+01 -1.86033121e-03 
 3.75195331e+00 -1.01297855e+01 -1.90322994e-03 
 3.83847234e+00 -1.01297855e+01 -1.94711791e-03 
 3.92698648e+00 -1.01297855e+01 -1.99201792e-03 
 4.01754173e+00 -1.01297855e+01 -2.03795332e-03 
 4.11018515e+00 -1.01297855e+01 -2.08494797e-03 
 4.20496491e+00 -1.01297855e+01 -2.13302631e-03 
 4.30193027e+00 -1.01297855e+01 -2.18221332e-03 
 4.40113162e+00 -1.01297855e+01 -2.23253457e-03 
 4.50262052e+00 -1.01297855e+01 -2.28401621e-03 
 4.60644974e+00 -1.01297855e+01 -2.33668501e-03 
 4.71267322e+00 -1.01297855e+01 -2.39056834e-03 
 4.82134619e+00 -1.01297855e+01 -2.44569420e-03 
 4.93252513e+00 -1.01297855e+01 -2.50209124e-03 
 5.04626783e+00 -1.01297855e+01 -2.55978879e-03 
 5.16263340e+00 -1.01297855e+01 -2.61881683e-03 
 5.28168234e+00 -1.01297855e+01 -2.67920604e-03 
 5.40347650e+00 -1.01297855e+01 -2.74098780e-03 
 5.52807921e+00 -1.01297855e+01 -2.80419424e-03 
 5.65555523e+00 -1.01297855e+01 -2.86885820e-03 
 5.78597080e+00 -1.01297855e+01 -2.93501330e-03 
 5.91939372e+00 -1.01297855e+01 -3.00269391e-03 
 6.05589334e+00 -1.01297855e+01 -3.07193522e-03 
 6.19554061e+00 -1.01297855e+01 -3.14277322e-03 
 6.33840810e+00 -1.01297855e+01 -3.21524472e-03 
 6.48457008e+00 -1.01297855e+01 -3.28938740e-03 
 6.63410251e+00 -1.01297855e+01 -3.36523978e-03 
 6.78708313e+00 -1.01297855e+01 -3.44284130e-03 
 6.94359143e+00 -1.01297855e+01 -3.52223229e-03 
 7.10370877e+00 -1.01297855e+01 -3.60345402e-03 
 7.26751838e+00 -1.01297855e+01 -3.68654869e-03 
 7.43510539e+00 -1.01297855e+01 -3.77155951e-03 
 7.60655691e+00 -1.01297855e+01 -3.85853065e-03 
 7.78196206e+00 -1.01297855e+01 -3.94750733e-03 
 7.96141200e+00 -1.01297855e+01 -4.03853578e-03 
 8.14500001e+00 -1.01297855e+01 -4.13166332e-03 
 8.33282151e+00 -1.01297855e+01 -4.22693836e-03 
 8.52497412e+00 -1.01297855e+01 -4.32441042e-03 
 8.72155772e+00 -1.01297855e+01 -4.42413016e-03 
 8.92267449e+00 -1.01297855e+01 -4.52614940e-03 
 9.12842895e+00 -1.01297855e+01 -4.63052118e-03 
 9.33892805e+00 -1.01297855e+01 -4.73729975e-03 
 9.55428121e+00 -1.01297855e+01 -4.84654060e-03 
 9.77460036e+00 -1.01297855e+01 -4.95830052e-03 
 1.00000000e+01 -1.01297855e+01 -5.07263759e-03 
 1.02305973e+01 -1.01297855e+01 -5.18961124e-03 
 1.04665121e+01 -1.01297855e+01 -5.30928228e-03 
 1.07078670e+01 -1.01297855e+01 -5.43171289e-03 
 1.09547876e+01 -1.01297855e+01 -5.55696672e-03 
 1.12074020e+01 -1.01297855e+01 -5.68510888e-03 
 1.14658417e+01 -1.01297855e+01 -5.81620595e-03 
 1.17302409e+01 -1.01297855e+01 -5.95032609e-03 
 1.20007371e+01 -1.01297855e+01 -6.08753900e-03 
 1.22774708e+01 -1.01297855e+01 -6.22791600e-03 
 1.25605860e+01 -1.01297855e+01 -6.37153007e-03 
 1.28502297e+01 -1.01297855e+01 -6.51845583e-03 
 1.31465525e+01 -1.01297855e+01 -6.66876966e-03 
 1.34497085e+01 -1.01297855e+01 -6.82254968e-03 
 1.37598551e+01 -1.01297855e+01 -6.97987584e-03 
 1.40771537e+01 -1.01297855e+01 -7.14082989e-03 
 1.44017690e+01 -1.01297855e+01 -7.30549549e-03 
 1.47338699e+01 -1.01297855e+01 -7.47395825e-03 
 1.50736290e+01 -1.01297855e+01 -7.64630570e-03 
 1.54212228e+01 -1.01297855e+01 -7.82262745e-03 
 1.57768320e+01 -1.01297855e+01 -8.00301512e-03 
 1.61406415e+01 -1.01297855e+01 -8.18756249e-03 
 1.65128404e+01 -1.01297855e+01 -8.37636547e-03 
 1.68936220e+01 -1.01297855e+01 -8.56952219e-03 
 1.72831844e+01 -1.01297855e+01 -8.76713306e-03 
 1.76817299e+01 -1.01297855e+01 -8.96930078e-03 
 1.80894658e+01 -1.01297855e+01 -9.17613043e-03 
 1.85066040e+01 -1.01297855e+01 -9.38772952e-03 
 1.89333613e+01 -1.01297855e+01 -9.60420803e-03 
 1.93699595e+01 -1.01297855e+01 -9.82567847e-03 
 1.98166255e+01 -1.01297855e+01 -1.00522560e-02 
 2.02735916e+01 -1.01297855e+01 -1.02840583e-02 
 2.07410951e+01 -1.01297855e+01 -1.05212059e-02 
 2.12193792e+01 -1.01297855e+01 -1.07638220e-02 
 2.17086923e+01 -1.01297856e+01 -1.10120329e-02 
 2.22092889e+01 -1.01297856e+01 -1.12659674e-02 
 2.27214291e+01 -1.01297856e+01 -1.15257575e-02 
 2.32453791e+01 -1.01297856e+01 -1.17915384e-02 
 2.37814113e+01 -1.01297856e+01 -1.20634481e-02 
 2.43298042e+01 -1.01297856e+01 -1.23416279e-02 
 2.48908429e+01 -1.01297856e+01 -1.26262225e-02 
 2.54648190e+01 -1.01297856e+01 -1.29173798e-02 
 2.60520309e+01 -1.01297856e+01 -1.32152511e-02 
 2.66527837e+01 -1.01297856e+01 -1.35199912e-02 
 2.72673897e+01 -1.01297856e+01 -1.38317586e-02 
 2.78961683e+01 -1.01297856e+01 -1.41507152e-02 
 2.85394464e+01 -1.01297856e+01 -1.44770268e-02 
 2.91975583e+01 -1.01297856e+01 -1.48108632e-02 
 2.98708461e+01 -1.01297856e+01 -1.51523977e-02 
 3.05596598e+01 -1.01297856e+01 -1.55018079e-02 
 3.12643573e+01 -1.01297856e+01 -1.58592754e-02 
 3.19853049e+01 -1.01297856e+01 -1.62249860e-02 
 3.27228774e+01 -1.01297856e+01 -1.65991297e-02 
 3.34774581e+01 -1.01297856e+01 -1.69819012e-02 
 3.42494392e+01 -1.01297856e+01 -1.73734992e-02 
 3.50392221e+01 -1.01297856e+01 -1.77741274e-02 
 3.58472171e+01 -1.01297857e+01 -1.81839940e-02 
 3.66738442e+01 -1.01297857e+01 -1.86033120e-02 
 3.75195331e+01 -1.01297857e+01 -1.90322993e-02 
 3.83847234e+01 -1.01297857e+01 -1.94711790e-02 
 3.92698648e+01 -1.01297857e+01 -1.99201791e-02 
 4.01754173e+01 -1.01297857e+01 -2.03795331e-02 
 4.11018515e+01 -1.01297857e+01 -2.08494796e-02 
 4.20496491e+01 -1.01297857e+01 -2.13302630e-02 
 4.30193027e+01 -1.01297857e+01 -2.18221331e-02 
 4.40113162e+01 -1.01297857e+01 -2.23253455e-02 
 4.50262052e+01 -1.01297857e+01 -2.28401620e-02 
 4.60644974e+01 -1.01297858e+01 -2.33668499e-02 
 4.71267322e+01 -1.01297858e+01 -2.39056832e-02 
 4.82134619e+01 -1.01297858e+01 -2.44569418e-02 
 4.93252513e+01 -1.01297858e+01 -2.50209122e-02 
 5.04626783e+01 -1.01297858e+01 -2.55978877e-02 
 5.16263340e+01 -1.01297858e+01 -2.61881681e-02 
 5.28168234e+01 -1.01297858e+01 -2.67920601e-02 
 5.40347650e+01 -1.01297859e+01 -2.74098778e-02 
 5.52807921e+01 -1.01297859e+01 -2.80419421e-02 
 5.65555523e+01 -1.01297859e+01 -2.86885817e-02 
 5.78597080e+01 -1.01297859e+01 -2.93501327e-02 
 5.91939372e+01 -1.01297859e+01 -3.00269388e-02 
 6.05589334e+01 -1.01297859e+01 -3.07193519e-02 
 6.19554061e+01 -1.01297860e+01 -3.14277318e-02 
 6.33840810e+01 -1.01297860e+01 -3.21524468e-02 
 6.48457008e+01 -1.01297860e+01 -3.28938735e-02 
 6.63410251e+01 -1.01297860e+01 -3.36523973e-02 
 6.78708313e+01 -1.01297861e+01 -3.44284125e-02 
 6.94359143e+01 -1.01297861e+01 -3.52223223e-02 
 7.10370877e+01 -1.01297861e+01 -3.60345396e-02 
 7.26751838e+01 -1.01297861e+01 -3.68654863e-02 
 7.43510539e+01 -1.01297862e+01 -3.77155944e-02 
 7.60655691e+01 -1.01297862e+01 -3.85853058e-02 
 7.78196206e+01 -1.01297862e+01 -3.94750725e-02 
 7.96141200e+01 -1.01297863e+01 -4.03853569e-02 
 8.14500001e+01 -1.01297863e+01 -4.13166323e-02 
 8.33282151e+01 -1.01297864e+01 -4.22693826e-02 
 8.52497412e+01 -1.01297864e+01 -4.32441031e-02 
 8.72155772e+01 -1.01297864e+01 -4.42413004e-02 
 8.92267449e+01 -1.01297865e+01 -4.52614928e-02 
 9.12842895e+01 -1.01297865e+01 -4.63052106e-02 
 9.33892805e+01 -1.01297866e+01 -4.73729961e-02 
 9.55428121e+01 -1.01297866e+01 -4.84654046e-02 
 9.77460036e+01 -1.01297867e+01 -4.95830036e-02 
 1.00000000e+02 -1.01297867e+01 -5.07263742e-02 
 1.02305973e+02 -1.01297868e+01 -5.18961106e-02 
 1.04665121e+02 -1.01297868e+01 -5.30928208e-02 
 1.07078670e+02 -1.01297869e+01 -5.43171268e-02 
 1.09547876e+02 -1.01297870e+01 -5.55696650e-02 
 1.12074020e+02 -1.01297870e+01 -5.68510864e-02 
 1.14658417e+02 -1.01297871e+01 -5.81620569e-02 
 1.17302409e+02 -1.01297872e+01 -5.95032581e-02 
 1.20007371e+02 -1.01297873e+01 -6.08753871e-02 
 1.22774708e+02 -1.01297874e+01 -6.22791569e-02 
 1.25605860e+02 -1.01297874e+01 -6.37152973e-02 
 1.28502297e+02 -1.01297875e+01 -6.51845546e-02 
 1.31465525e+02 -1.01297876e+01 -6.66876927e-02 
 1.34497085e+02 -1.01297877e+01 -6.82254927e-02 
 1.37598551e+02 -1.01297878e+01 -6.97987539e-02 
 1.40771537e+02 -1.01297879e+01 -7.14082941e-02 
 1.44017690e+02 -1.01297881e+01 -7.30549498e-02 
 1.47338699e+02 -1.01297882e+01 -7.47395770e-02 
 1.50736290e+02 -1.01297883e+01 -7.64630512e-02 
 1.54212228e+02 -1.01297884e+01 -7.82262682e-02 
 1.57768320e+02 -1.01297886e+01 -8.00301445e-02 
 1.61406415e+02 -1.01297887e+01 -8.18756177e-02 
 1.65128404e+02 -1.01297889e+01 -8.37636470e-02 
 1.68936220e+02 -1.01297890e+01 -8.56952137e-02 
 1.72831844e+02 -1.01297892e+01 -8.76713218e-02 
 1.76817299e+02 -1.01297894e+01 -8.96929984e-02 
 1.80894658e+02 -1.01297895e+01 -9.17612942e-02 
 1.85066040e+02 -1.01297897e+01 -9.38772844e-02 
 1.89333613e+02 -1.01297899e+01 -9.60420687e-02 
 1.93699595e+02 -1.01297901e+01 -9.82567723e-02 
 1.98166255e+02 -1.01297904e+01 -1.00522546e-01 
 2.02735916e+02 -1.01297906e+01 -1.02840568e-01 
 2.07410951e+02 -1.01297908e+01 -1.05212043e-01 
 2.12193792e+02 -1.01297911e+01 -1.07638204e-01 
 2.17086923e+02 -1.01297913e+01 -1.10120311e-01 
 2.22092889e+02 -1.01297916e+01 -1.12659655e-01 
 2.27214291e+02 -1.01297919e+01 -1.15257555e-01 
 2.32453791e+02 -1.01297922e+01 -1.17915362e-01 
 2.37814113e+02 -1.01297925e+01 -1.20634458e-01 
 2.43298042e+02 -1.01297928e+01 -1.23416255e-01 
 2.48908429e+02 -1.01297932e+01 -1.26262199e-01 
 2.54648190e+02 -1.01297935e+01 -1.29173770e-01 
 2.60520309e+02 -1.01297939e+01 -1.32152481e-01 
 2.66527837e+02 -1.01297943e+01 -1.35199880e-01 
 2.72673897e+02 -1.01297947e+01 -1.38317551e-01 
 2.78961683e+02 -1.01297951e+01 -1.41507115e-01 
 2.85394464e+02 -1.01297956e+01 -1.44770229e-01 
 2.91975583e+02 -1.01297960e+01 -1.48108589e-01 
 2.98708461e+02 -1.01297965e+01 -1.51523931e-01 
 3.05596598e+02 -1.01297970e+01 -1.55018030e-01 
 3.12643573e+02 -1.01297976e+01 -1.58592701e-01 
 3.19853049e+02 -1.01297981e+01 -1.62249804e-01 
 3.27228774e+02 -1.01297987e+01 -1.65991238e-01 
 3.34774581e+02 -1.01297994e+01 -1.69818948e-01 
 3.42494392e+02 -1.01298000e+01 -1.73734924e-01 
 3.50392221e+02 -1.01298007e+01 -1.77741201e-01 
 3.58472171e+02 -1.01298014e+01 -1.81839861e-01 
 3.66738442e+02 -1.01298021e+01 -1.86033036e-01 
 3.75195331e+02 -1.01298029e+01 -1.90322903e-01 
 3.83847234e+02 -1.01298037e+01 -1.94711694e-01 
 3.92698648e+02 -1.01298046e+01 -1.99201688e-01 
 4.01754173e+02 -1.01298055e+01 -2.03795220e-01 
 4.11018515e+02 -1.01298064e+01 -2.08494678e-01 
 4.20496491e+02 -1.01298074e+01 -2.13302503e-01 
 4.30193027e+02 -1.01298084e+01 -2.18221195e-01 
 4.40113162e+02 -1.01298095e+01 -2.23253310e-01 
 4.50262052e+02 -1.01298106e+01 -2.28401464e-01 
 4.60644974e+02 -1.01298117e+01 -2.33668332e-01 
 4.71267322e+02 -1.01298130e+01 -2.39056653e-01 
 4.82134619e+02 -1.01298142e+01 -2.44569226e-01 
 4.93252513e+02 -1.01298156e+01 -2.50208917e-01 
 5.04626783e+02 -1.01298170e+01 -2.55978658e-01 
 5.16263340e+02 -1.01298185e+01 -2.61881446e-01 
 5.28168234e+02 -1.01298200e+01 -2.67920350e-01 
 5.40347650e+02 -1.01298216e+01 -2.74098508e-01 
 5.52807921e+02 -1.01298233e+01 -2.80419133e-01 
 5.65555523e+02 -1.01298251e+01 -2.86885509e-01 
 5.78597080e+02 -1.01298269e+01 -2.93500996e-01 
 5.91939372e+02 -1.01298288e+01 -3.00269034e-01 
 6.05589334e+02 -1.01298309e+01 -3.07193139e-01 
 6.19554061e+02 -1.01298330e+01 -3.14276912e-01 
 6.33840810e+02 -1.01298352e+01 -3.21524033e-01 
 6.48457008e+02 -1.01298375e+01 -3.28938269e-01 
 6.63410251e+02 -1.01298399e+01 -3.36523475e-01 
 6.78708313e+02 -1.01298425e+01 -3.44283591e-01 
 6.94359143e+02 -1.01298451e+01 -3.52222652e-01 
 7.10370877e+02 -1.01298479e+01 -3.60344784e-01 
 7.26751838e+02 -1.01298508e+01 -3.68654207e-01 
 7.43510539e+02 -1.01298539e+01 -3.77155242e-01 
 7.60655691e+02 -1.01298571e+01 -3.85852306e-01 
 7.78196206e+02 -1.01298604e+01 -3.94749920e-01 
 7.96141200e+02 -1.01298639e+01 -4.03852708e-01 
 8.14500001e+02 -1.01298676e+01 -4.13165401e-01 
 8.33282151e+02 -1.01298714e+01 -4.22692839e-01 
 8.52497412e+02 -1.01298754e+01 -4.32439974e-01 
 8.72155772e+02 -1.01298796e+01 -4.42411872e-01 
 8.92267449e+02 -1.01298840e+01 -4.52613715e-01 
 9.12842895e+02 -1.01298886e+01 -4.63050807e-01 
 9.33892805e+02 -1.01298934e+01 -4.73728571e-01 
 9.55428121e+02 -1.01298984e+01 -4.84652557e-01 
 9.77460036e+02 -1.01299037e+01 -4.95828442e-01 
 1.00000000e+03 -1.01299092e+01 -5.07262035e-01 
 1.02305973e+03 -1.01299150e+01 -5.18959278e-01 
 1.04665121e+03 -1.01299210e+01 -5.30926251e-01 
 1.07078670e+03 -1.01299273e+01 -5.43169172e-01 
 1.09547876e+03 -1.01299339e+01 -5.55694406e-01 
 1.12074020e+03 -1.01299409e+01 -5.68508460e-01 
 1.14658417e+03 -1.01299481e+01 -5.81617996e-01 
 1.17302409e+03 -1.01299557e+01 -5.95029826e-01 
 1.20007371e+03 -1.01299636e+01 -6.08750920e-01 
 1.22774708e+03 -1.01299720e+01 -6.22788410e-01 
 1.25605860e+03 -1.01299807e+01 -6.37149590e-01 
 1.28502297e+03 -1.01299898e+01 -6.51841924e-01 
 1.31465525e+03 -1.01299993e+01 -6.66873048e-01 
 1.34497085e+03 -1.01300093e+01 -6.82250773e-01 
 1.37598551e+03 -1.01300197e+01 -6.97983092e-01 
 1.40771537e+03 -1.01300306e+01 -7.14078179e-01 
 1.44017690e+03 -1.01300421e+01 -7.30544399e-01 
 1.47338699e+03 -1.01300540e+01 -7.47390310e-01 
 1.50736290e+03 -1.01300666e+01 -7.64624665e-01 
 1.54212228e+03 -1.01300797e+01 -7.82256422e-01 
 1.57768320e+03 -1.01300934e+01 -8.00294741e-01 
 1.61406415e+03 -1.01301078e+01 -8.18748999e-01 
 1.65128404e+03 -1.01301228e+01 -8.37628783e-01 
 1.68936220e+03 -1.01301385e+01 -8.56943906e-01 
 1.72831844e+03 -1.01301550e+01 -8.76704405e-01 
 1.76817299e+03 -1.01301722e+01 -8.96920546e-01 
 1.80894658e+03 -1.01301903e+01 -9.17602837e-01 
 1.85066040e+03 -1.01302092e+01 -9.38762023e-01 
 1.89333613e+03 -1.01302289e+01 -9.60409100e-01 
 1.93699595e+03 -1.01302496e+01 -9.82555316e-01 
 1.98166255e+03 -1.01302713e+01 -1.00521218e+00 
 2.02735916e+03 -1.01302939e+01 -1.02839146e+00 
 2.07410951e+03 -1.01303176e+01 -1.05210520e+00 
 2.12193792e+03 -1.01303425e+01 -1.07636573e+00 
 2.17086923e+03 -1.01303685e+01 -1.10118565e+00 
 2.22092889e+03 -1.01303957e+01 -1.12657785e+00 
 2.27214291e+03 -1.01304241e+01 -1.15255553e+00 
 2.32453791e+03 -1.01304539e+01 -1.17913218e+00 
 2.37814113e+03 -1.01304851e+01 -1.20632162e+00 
 2.43298042e+03 -1.01305177e+01 -1.23413796e+00 
 2.48908429e+03 -1.01305519e+01 -1.26259566e+00 
 2.54648190e+03 -1.01305876e+01 -1.29170951e+00 
 2.60520309e+03 -1.01306251e+01 -1.32149462e+00 
 2.66527837e+03 -1.01306642e+01 -1.35196648e+00 
 2.72673897e+03 -1.01307052e+01 -1.38314090e+00 
 2.78961683e+03 -1.01307481e+01 -1.41503409e+00 
 2.85394464e+03 -1.01307930e+01 -1.44766260e+00 
 2.91975583e+03 -1.01308400e+01 -1.48104340e+00 
 2.98708461e+03 -1.01308892e+01 -1.51519381e+00 
 3.05596598e+03 -1.01309407e+01 -1.55013158e+00 
 3.12643573e+03 -1.01309946e+01 -1.58587485e+00 
 3.19853049e+03 -1.01310510e+01 -1.62244218e+00 
 3.27228774e+03 -1.01311100e+01 -1.65985256e+00 
 3.34774581e+03 -1.01311718e+01 -1.69812543e+00 
 3.42494392e+03 -1.01312365e+01 -1.73728066e+00 
 3.50392221e+03 -1.01313042e+01 -1.77733857e+00 
 3.58472171e+03 -1.01313750e+01 -1.81831998e+00 
 3.66738442e+03 -1.01314492e+01 -1.86024616e+00 
 3.75195331e+03 -1.01315268e+01 -1.90313887e+00 
 3.83847234e+03 -1.01316080e+01 -1.94702039e+00 
 3.92698648e+03 -1.01316930e+01 -1.99191350e+00 
 4.01754173e+03 -1.01317820e+01 -2.03784151e+00 
 4.11018515e+03 -1.01318751e+01 -2.08482825e+00 
 4.20496491e+03 -1.01319726e+01 -2.13289811e+00 
 4.30193027e+03 -1.01320746e+01 -2.18207604e+00 
 4.40113162e+03 -1.01321814e+01 -2.23238758e+00 
 4.50262052e+03 -1.01322932e+01 -2.28385882e+00 
 4.60644974e+03 -1.01324102e+01 -2.33651647e+00 
 4.71267322e+03 -1.01325326e+01 -2.39038787e+00 
 4.82134619e+03 -1.01326607e+01 -2.44550095e+00 
 4.93252513e+03 -1.01327949e+01 -2.50188432e+00 
 5.04626783e+03 -1.01329352e+01 -2.55956723e+00 
 5.16263340e+03 -1.01330821e+01 -2.61857958e+00 
 5.28168234e+03 -1.01332359e+01 -2.67895200e+00 
 5.40347650e+03 -1.01333969e+01 -2.74071578e+00 
 5.52807921e+03 -1.01335653e+01 -2.80390297e+00 
 5.65555523e+03 -1.01337416e+01 -2.86854631e+00 
 5.78597080e+03 -1.01339262e+01 -2.93467933e+00 
 5.91939372e+03 -1.01341193e+01 -3.00233631e+00 
 6.05589334e+03 -1.01343214e+01 -3.07155231e+00 
 6.19554061e+03 -1.01345330e+01 -3.14236320e+00 
 6.33840810e+03 -1.01347544e+01 -3.21480568e+00 
 6.48457008e+03 -1.01349862e+01 -3.28891728e+00 
 6.63410251e+03 -1.01352288e+01 -3.36473639e+00 
 6.78708313e+03 -1.01354827e+01 -3.44230228e+00 
 6.94359143e+03 -1.01357484e+01 -3.52165512e+00 
 7.10370877e+03 -1.01360265e+01 -3.60283600e+00 
 7.26751838e+03 -1.01363176e+01 -3.68588693e+00 
 7.43510539e+03 -1.01366222e+01 -3.77085092e+00 
 7.60655691e+03 -1.01369411e+01 -3.85777191e+00 
 7.78196206e+03 -1.01372748e+01 -3.94669488e+00 
 7.96141200e+03 -1.01376241e+01 -4.03766583e+00 
 8.14500001e+03 -1.01379897e+01 -4.13073181e+00 
 8.33282151e+03 -1.01383723e+01 -4.22594092e+00 
 8.52497412e+03 -1.01387727e+01 -4.32334239e+00 
 8.72155772e+03 -1.01391918e+01 -4.42298654e+00 
 8.92267449e+03 -1.01396305e+01 -4.52492485e+00 
 9.12842895e+03 -1.01400896e+01 -4.62920997e+00 
 9.33892805e+03 -1.01405701e+01 -4.73589574e+00 
 9.55428121e+03 -1.01410730e+01 -4.84503724e+00 
 9.77460036e+03 -1.01415993e+01 -4.95669076e+00 
 1.00000000e+04 -1.01421502e+01 -5.07091392e+00 
 1.02305973e+04 -1.01427268e+01 -5.18776559e+00 
 1.04665121e+04 -1.01433302e+01 -5.30730602e+00 
