 frequency       v(Amag_dB)      v(Aarg)        
 1.00000000e+00 -6.28913741e+00 -2.58849172e-04 
 1.02305973e+00 -6.28913741e+00 -2.64818164e-04 
 1.04665121e+00 -6.28913741e+00 -2.70924799e-04 
 1.07078670e+00 -6.28913741e+00 -2.77172252e-04 
 1.09547876e+00 -6.28913741e+00 -2.83563769e-04 
 1.12074020e+00 -6.28913741e+00 -2.90102673e-04 
 1.14658417e+00 -6.28913741e+00 -2.96792363e-04 
 1.17302409e+00 -6.28913741e+00 -3.03636314e-04 
 1.20007371e+00 -6.28913741e+00 -3.10638086e-04 
 1.22774708e+00 -6.28913741e+00 -3.17801316e-04 
 1.25605860e+00 -6.28913741e+00 -3.25129728e-04 
 1.28502297e+00 -6.28913741e+00 -3.32627132e-04 
 1.31465525e+00 -6.28913741e+00 -3.40297424e-04 
 1.34497085e+00 -6.28913741e+00 -3.48144591e-04 
 1.37598551e+00 -6.28913741e+00 -3.56172711e-04 
 1.40771537e+00 -6.28913741e+00 -3.64385957e-04 
 1.44017690e+00 -6.28913741e+00 -3.72788599e-04 
 1.47338699e+00 -6.28913741e+00 -3.81385003e-04 
 1.50736290e+00 -6.28913741e+00 -3.90179639e-04 
 1.54212228e+00 -6.28913741e+00 -3.99177076e-04 
 1.57768320e+00 -6.28913741e+00 -4.08381991e-04 
 1.61406415e+00 -6.28913741e+00 -4.17799170e-04 
 1.65128404e+00 -6.28913741e+00 -4.27433506e-04 
 1.68936220e+00 -6.28913741e+00 -4.37290007e-04 
 1.72831844e+00 -6.28913741e+00 -4.47373796e-04 
 1.76817299e+00 -6.28913741e+00 -4.57690115e-04 
 1.80894658e+00 -6.28913741e+00 -4.68244325e-04 
 1.85066040e+00 -6.28913741e+00 -4.79041913e-04 
 1.89333613e+00 -6.28913741e+00 -4.90088490e-04 
 1.93699595e+00 -6.28913741e+00 -5.01389798e-04 
 1.98166255e+00 -6.28913741e+00 -5.12951712e-04 
 2.02735916e+00 -6.28913741e+00 -5.24780239e-04 
 2.07410951e+00 -6.28913741e+00 -5.36881530e-04 
 2.12193792e+00 -6.28913741e+00 -5.49261873e-04 
 2.17086923e+00 -6.28913741e+00 -5.61927703e-04 
 2.22092889e+00 -6.28913741e+00 -5.74885605e-04 
 2.27214291e+00 -6.28913741e+00 -5.88142311e-04 
 2.32453791e+00 -6.28913741e+00 -6.01704714e-04 
 2.37814113e+00 -6.28913741e+00 -6.15579862e-04 
 2.43298042e+00 -6.28913741e+00 -6.29774968e-04 
 2.48908429e+00 -6.28913741e+00 -6.44297408e-04 
 2.54648190e+00 -6.28913741e+00 -6.59154732e-04 
 2.60520309e+00 -6.28913741e+00 -6.74354662e-04 
 2.66527837e+00 -6.28913741e+00 -6.89905099e-04 
 2.72673897e+00 -6.28913741e+00 -7.05814124e-04 
 2.78961683e+00 -6.28913741e+00 -7.22090007e-04 
 2.85394464e+00 -6.28913741e+00 -7.38741207e-04 
 2.91975583e+00 -6.28913741e+00 -7.55776380e-04 
 2.98708461e+00 -6.28913741e+00 -7.73204379e-04 
 3.05596598e+00 -6.28913741e+00 -7.91034263e-04 
 3.12643573e+00 -6.28913741e+00 -8.09275300e-04 
 3.19853049e+00 -6.28913741e+00 -8.27936969e-04 
 3.27228774e+00 -6.28913741e+00 -8.47028972e-04 
 3.34774581e+00 -6.28913741e+00 -8.66561232e-04 
 3.42494392e+00 -6.28913741e+00 -8.86543899e-04 
 3.50392221e+00 -6.28913741e+00 -9.06987362e-04 
 3.58472171e+00 -6.28913741e+00 -9.27902246e-04 
 3.66738442e+00 -6.28913741e+00 -9.49299421e-04 
 3.75195331e+00 -6.28913741e+00 -9.71190009e-04 
 3.83847234e+00 -6.28913741e+00 -9.93585388e-04 
 3.92698648e+00 -6.28913741e+00 -1.01649720e-03 
 4.01754173e+00 -6.28913741e+00 -1.03993735e-03 
 4.11018515e+00 -6.28913741e+00 -1.06391802e-03 
 4.20496491e+00 -6.28913741e+00 -1.08845169e-03 
 4.30193027e+00 -6.28913741e+00 -1.11355109e-03 
 4.40113162e+00 -6.28913741e+00 -1.13922928e-03 
 4.50262052e+00 -6.28913741e+00 -1.16549959e-03 
 4.60644974e+00 -6.28913741e+00 -1.19237570e-03 
 4.71267322e+00 -6.28913741e+00 -1.21987156e-03 
 4.82134619e+00 -6.28913741e+00 -1.24800147e-03 
 4.93252513e+00 -6.28913741e+00 -1.27678005e-03 
 5.04626783e+00 -6.28913741e+00 -1.30622225e-03 
 5.16263340e+00 -6.28913741e+00 -1.33634338e-03 
 5.28168234e+00 -6.28913741e+00 -1.36715910e-03 
 5.40347650e+00 -6.28913741e+00 -1.39868542e-03 
 5.52807921e+00 -6.28913741e+00 -1.43093873e-03 
 5.65555523e+00 -6.28913741e+00 -1.46393579e-03 
 5.78597080e+00 -6.28913741e+00 -1.49769375e-03 
 5.91939372e+00 -6.28913741e+00 -1.53223017e-03 
 6.05589334e+00 -6.28913741e+00 -1.56756298e-03 
 6.19554061e+00 -6.28913741e+00 -1.60371056e-03 
 6.33840810e+00 -6.28913741e+00 -1.64069169e-03 
 6.48457008e+00 -6.28913741e+00 -1.67852560e-03 
 6.63410251e+00 -6.28913741e+00 -1.71723194e-03 
 6.78708313e+00 -6.28913741e+00 -1.75683085e-03 
 6.94359143e+00 -6.28913741e+00 -1.79734289e-03 
 7.10370877e+00 -6.28913741e+00 -1.83878913e-03 
 7.26751838e+00 -6.28913741e+00 -1.88119112e-03 
 7.43510539e+00 -6.28913741e+00 -1.92457087e-03 
 7.60655691e+00 -6.28913741e+00 -1.96895096e-03 
 7.78196206e+00 -6.28913741e+00 -2.01435444e-03 
 7.96141200e+00 -6.28913741e+00 -2.06080491e-03 
 8.14500001e+00 -6.28913741e+00 -2.10832651e-03 
 8.33282151e+00 -6.28913741e+00 -2.15694395e-03 
 8.52497412e+00 -6.28913741e+00 -2.20668249e-03 
 8.72155772e+00 -6.28913741e+00 -2.25756800e-03 
 8.92267449e+00 -6.28913741e+00 -2.30962690e-03 
 9.12842895e+00 -6.28913741e+00 -2.36288628e-03 
 9.33892805e+00 -6.28913741e+00 -2.41737380e-03 
 9.55428121e+00 -6.28913741e+00 -2.47311778e-03 
 9.77460036e+00 -6.28913741e+00 -2.53014721e-03 
 1.00000000e+01 -6.28913741e+00 -2.58849172e-03 
 1.02305973e+01 -6.28913741e+00 -2.64818164e-03 
 1.04665121e+01 -6.28913741e+00 -2.70924799e-03 
 1.07078670e+01 -6.28913741e+00 -2.77172252e-03 
 1.09547876e+01 -6.28913741e+00 -2.83563769e-03 
 1.12074020e+01 -6.28913741e+00 -2.90102673e-03 
 1.14658417e+01 -6.28913741e+00 -2.96792363e-03 
 1.17302409e+01 -6.28913741e+00 -3.03636314e-03 
 1.20007371e+01 -6.28913741e+00 -3.10638086e-03 
 1.22774708e+01 -6.28913741e+00 -3.17801316e-03 
 1.25605860e+01 -6.28913741e+00 -3.25129729e-03 
 1.28502297e+01 -6.28913741e+00 -3.32627132e-03 
 1.31465525e+01 -6.28913741e+00 -3.40297424e-03 
 1.34497085e+01 -6.28913741e+00 -3.48144591e-03 
 1.37598551e+01 -6.28913741e+00 -3.56172711e-03 
 1.40771537e+01 -6.28913741e+00 -3.64385957e-03 
 1.44017690e+01 -6.28913741e+00 -3.72788599e-03 
 1.47338699e+01 -6.28913741e+00 -3.81385004e-03 
 1.50736290e+01 -6.28913741e+00 -3.90179639e-03 
 1.54212228e+01 -6.28913741e+00 -3.99177076e-03 
 1.57768320e+01 -6.28913741e+00 -4.08381991e-03 
 1.61406415e+01 -6.28913741e+00 -4.17799170e-03 
 1.65128404e+01 -6.28913741e+00 -4.27433506e-03 
 1.68936220e+01 -6.28913741e+00 -4.37290007e-03 
 1.72831844e+01 -6.28913741e+00 -4.47373796e-03 
 1.76817299e+01 -6.28913741e+00 -4.57690115e-03 
 1.80894658e+01 -6.28913741e+00 -4.68244326e-03 
 1.85066040e+01 -6.28913741e+00 -4.79041913e-03 
 1.89333613e+01 -6.28913741e+00 -4.90088490e-03 
 1.93699595e+01 -6.28913741e+00 -5.01389799e-03 
 1.98166255e+01 -6.28913741e+00 -5.12951712e-03 
 2.02735916e+01 -6.28913741e+00 -5.24780240e-03 
 2.07410951e+01 -6.28913741e+00 -5.36881530e-03 
 2.12193792e+01 -6.28913741e+00 -5.49261873e-03 
 2.17086923e+01 -6.28913741e+00 -5.61927704e-03 
 2.22092889e+01 -6.28913741e+00 -5.74885605e-03 
 2.27214291e+01 -6.28913741e+00 -5.88142312e-03 
 2.32453791e+01 -6.28913741e+00 -6.01704715e-03 
 2.37814113e+01 -6.28913741e+00 -6.15579863e-03 
 2.43298042e+01 -6.28913741e+00 -6.29774968e-03 
 2.48908429e+01 -6.28913741e+00 -6.44297409e-03 
 2.54648190e+01 -6.28913741e+00 -6.59154733e-03 
 2.60520309e+01 -6.28913741e+00 -6.74354663e-03 
 2.66527837e+01 -6.28913741e+00 -6.89905100e-03 
 2.72673897e+01 -6.28913741e+00 -7.05814125e-03 
 2.78961683e+01 -6.28913741e+00 -7.22090008e-03 
 2.85394464e+01 -6.28913741e+00 -7.38741208e-03 
 2.91975583e+01 -6.28913741e+00 -7.55776381e-03 
 2.98708461e+01 -6.28913741e+00 -7.73204380e-03 
 3.05596598e+01 -6.28913740e+00 -7.91034265e-03 
 3.12643573e+01 -6.28913740e+00 -8.09275301e-03 
 3.19853049e+01 -6.28913740e+00 -8.27936971e-03 
 3.27228774e+01 -6.28913740e+00 -8.47028974e-03 
 3.34774581e+01 -6.28913740e+00 -8.66561233e-03 
 3.42494392e+01 -6.28913740e+00 -8.86543901e-03 
 3.50392221e+01 -6.28913740e+00 -9.06987364e-03 
 3.58472171e+01 -6.28913740e+00 -9.27902248e-03 
 3.66738442e+01 -6.28913740e+00 -9.49299423e-03 
 3.75195331e+01 -6.28913740e+00 -9.71190011e-03 
 3.83847234e+01 -6.28913740e+00 -9.93585391e-03 
 3.92698648e+01 -6.28913740e+00 -1.01649720e-02 
 4.01754173e+01 -6.28913740e+00 -1.03993735e-02 
 4.11018515e+01 -6.28913740e+00 -1.06391803e-02 
 4.20496491e+01 -6.28913740e+00 -1.08845169e-02 
 4.30193027e+01 -6.28913740e+00 -1.11355109e-02 
 4.40113162e+01 -6.28913740e+00 -1.13922928e-02 
 4.50262052e+01 -6.28913740e+00 -1.16549960e-02 
 4.60644974e+01 -6.28913739e+00 -1.19237570e-02 
 4.71267322e+01 -6.28913739e+00 -1.21987157e-02 
 4.82134619e+01 -6.28913739e+00 -1.24800148e-02 
 4.93252513e+01 -6.28913739e+00 -1.27678005e-02 
 5.04626783e+01 -6.28913739e+00 -1.30622226e-02 
 5.16263340e+01 -6.28913739e+00 -1.33634339e-02 
 5.28168234e+01 -6.28913739e+00 -1.36715911e-02 
 5.40347650e+01 -6.28913739e+00 -1.39868543e-02 
 5.52807921e+01 -6.28913739e+00 -1.43093873e-02 
 5.65555523e+01 -6.28913739e+00 -1.46393580e-02 
 5.78597080e+01 -6.28913738e+00 -1.49769376e-02 
 5.91939372e+01 -6.28913738e+00 -1.53223017e-02 
 6.05589334e+01 -6.28913738e+00 -1.56756299e-02 
 6.19554061e+01 -6.28913738e+00 -1.60371057e-02 
 6.33840810e+01 -6.28913738e+00 -1.64069170e-02 
 6.48457008e+01 -6.28913738e+00 -1.67852561e-02 
 6.63410251e+01 -6.28913738e+00 -1.71723196e-02 
 6.78708313e+01 -6.28913737e+00 -1.75683086e-02 
 6.94359143e+01 -6.28913737e+00 -1.79734291e-02 
 7.10370877e+01 -6.28913737e+00 -1.83878915e-02 
 7.26751838e+01 -6.28913737e+00 -1.88119113e-02 
 7.43510539e+01 -6.28913737e+00 -1.92457089e-02 
 7.60655691e+01 -6.28913736e+00 -1.96895098e-02 
 7.78196206e+01 -6.28913736e+00 -2.01435446e-02 
 7.96141200e+01 -6.28913736e+00 -2.06080493e-02 
 8.14500001e+01 -6.28913736e+00 -2.10832653e-02 
 8.33282151e+01 -6.28913735e+00 -2.15694397e-02 
 8.52497412e+01 -6.28913735e+00 -2.20668252e-02 
 8.72155772e+01 -6.28913735e+00 -2.25756803e-02 
 8.92267449e+01 -6.28913735e+00 -2.30962694e-02 
 9.12842895e+01 -6.28913734e+00 -2.36288631e-02 
 9.33892805e+01 -6.28913734e+00 -2.41737383e-02 
 9.55428121e+01 -6.28913734e+00 -2.47311782e-02 
 9.77460036e+01 -6.28913733e+00 -2.53014725e-02 
 1.00000000e+02 -6.28913733e+00 -2.58849177e-02 
 1.02305973e+02 -6.28913733e+00 -2.64818169e-02 
 1.04665121e+02 -6.28913732e+00 -2.70924804e-02 
 1.07078670e+02 -6.28913732e+00 -2.77172258e-02 
 1.09547876e+02 -6.28913731e+00 -2.83563775e-02 
 1.12074020e+02 -6.28913731e+00 -2.90102679e-02 
 1.14658417e+02 -6.28913730e+00 -2.96792369e-02 
 1.17302409e+02 -6.28913730e+00 -3.03636321e-02 
 1.20007371e+02 -6.28913729e+00 -3.10638093e-02 
 1.22774708e+02 -6.28913729e+00 -3.17801324e-02 
 1.25605860e+02 -6.28913728e+00 -3.25129737e-02 
 1.28502297e+02 -6.28913728e+00 -3.32627142e-02 
 1.31465525e+02 -6.28913727e+00 -3.40297434e-02 
 1.34497085e+02 -6.28913726e+00 -3.48144601e-02 
 1.37598551e+02 -6.28913726e+00 -3.56172722e-02 
 1.40771537e+02 -6.28913725e+00 -3.64385970e-02 
 1.44017690e+02 -6.28913724e+00 -3.72788612e-02 
 1.47338699e+02 -6.28913723e+00 -3.81385018e-02 
 1.50736290e+02 -6.28913722e+00 -3.90179654e-02 
 1.54212228e+02 -6.28913721e+00 -3.99177092e-02 
 1.57768320e+02 -6.28913721e+00 -4.08382008e-02 
 1.61406415e+02 -6.28913720e+00 -4.17799188e-02 
 1.65128404e+02 -6.28913719e+00 -4.27433525e-02 
 1.68936220e+02 -6.28913718e+00 -4.37290028e-02 
 1.72831844e+02 -6.28913716e+00 -4.47373819e-02 
 1.76817299e+02 -6.28913715e+00 -4.57690139e-02 
 1.80894658e+02 -6.28913714e+00 -4.68244351e-02 
 1.85066040e+02 -6.28913713e+00 -4.79041941e-02 
 1.89333613e+02 -6.28913711e+00 -4.90088520e-02 
 1.93699595e+02 -6.28913710e+00 -5.01389830e-02 
 1.98166255e+02 -6.28913709e+00 -5.12951746e-02 
 2.02735916e+02 -6.28913707e+00 -5.24780276e-02 
 2.07410951e+02 -6.28913706e+00 -5.36881569e-02 
 2.12193792e+02 -6.28913704e+00 -5.49261915e-02 
 2.17086923e+02 -6.28913702e+00 -5.61927749e-02 
 2.22092889e+02 -6.28913700e+00 -5.74885653e-02 
 2.27214291e+02 -6.28913698e+00 -5.88142363e-02 
 2.32453791e+02 -6.28913696e+00 -6.01704769e-02 
 2.37814113e+02 -6.28913694e+00 -6.15579922e-02 
 2.43298042e+02 -6.28913692e+00 -6.29775031e-02 
 2.48908429e+02 -6.28913690e+00 -6.44297476e-02 
 2.54648190e+02 -6.28913687e+00 -6.59154805e-02 
 2.60520309e+02 -6.28913685e+00 -6.74354740e-02 
 2.66527837e+02 -6.28913682e+00 -6.89905182e-02 
 2.72673897e+02 -6.28913679e+00 -7.05814213e-02 
 2.78961683e+02 -6.28913677e+00 -7.22090103e-02 
 2.85394464e+02 -6.28913674e+00 -7.38741310e-02 
 2.91975583e+02 -6.28913670e+00 -7.55776490e-02 
 2.98708461e+02 -6.28913667e+00 -7.73204497e-02 
 3.05596598e+02 -6.28913664e+00 -7.91034389e-02 
 3.12643573e+02 -6.28913660e+00 -8.09275434e-02 
 3.19853049e+02 -6.28913656e+00 -8.27937114e-02 
 3.27228774e+02 -6.28913652e+00 -8.47029127e-02 
 3.34774581e+02 -6.28913648e+00 -8.66561397e-02 
 3.42494392e+02 -6.28913644e+00 -8.86544077e-02 
 3.50392221e+02 -6.28913639e+00 -9.06987552e-02 
 3.58472171e+02 -6.28913634e+00 -9.27902449e-02 
 3.66738442e+02 -6.28913629e+00 -9.49299638e-02 
 3.75195331e+02 -6.28913624e+00 -9.71190242e-02 
 3.83847234e+02 -6.28913619e+00 -9.93585638e-02 
 3.92698648e+02 -6.28913613e+00 -1.01649747e-01 
 4.01754173e+02 -6.28913607e+00 -1.03993764e-01 
 4.11018515e+02 -6.28913601e+00 -1.06391833e-01 
 4.20496491e+02 -6.28913594e+00 -1.08845201e-01 
 4.30193027e+02 -6.28913587e+00 -1.11355144e-01 
 4.40113162e+02 -6.28913580e+00 -1.13922965e-01 
 4.50262052e+02 -6.28913573e+00 -1.16550000e-01 
 4.60644974e+02 -6.28913565e+00 -1.19237613e-01 
 4.71267322e+02 -6.28913557e+00 -1.21987202e-01 
 4.82134619e+02 -6.28913548e+00 -1.24800196e-01 
 4.93252513e+02 -6.28913539e+00 -1.27678058e-01 
 5.04626783e+02 -6.28913530e+00 -1.30622282e-01 
 5.16263340e+02 -6.28913520e+00 -1.33634399e-01 
 5.28168234e+02 -6.28913509e+00 -1.36715975e-01 
 5.40347650e+02 -6.28913499e+00 -1.39868612e-01 
 5.52807921e+02 -6.28913487e+00 -1.43093947e-01 
 5.65555523e+02 -6.28913475e+00 -1.46393659e-01 
 5.78597080e+02 -6.28913463e+00 -1.49769461e-01 
 5.91939372e+02 -6.28913450e+00 -1.53223108e-01 
 6.05589334e+02 -6.28913436e+00 -1.56756396e-01 
 6.19554061e+02 -6.28913422e+00 -1.60371161e-01 
 6.33840810e+02 -6.28913407e+00 -1.64069281e-01 
 6.48457008e+02 -6.28913392e+00 -1.67852680e-01 
 6.63410251e+02 -6.28913375e+00 -1.71723323e-01 
 6.78708313e+02 -6.28913358e+00 -1.75683223e-01 
 6.94359143e+02 -6.28913341e+00 -1.79734437e-01 
 7.10370877e+02 -6.28913322e+00 -1.83879072e-01 
 7.26751838e+02 -6.28913302e+00 -1.88119281e-01 
 7.43510539e+02 -6.28913282e+00 -1.92457269e-01 
 7.60655691e+02 -6.28913260e+00 -1.96895290e-01 
 7.78196206e+02 -6.28913238e+00 -2.01435651e-01 
 7.96141200e+02 -6.28913214e+00 -2.06080713e-01 
 8.14500001e+02 -6.28913190e+00 -2.10832889e-01 
 8.33282151e+02 -6.28913164e+00 -2.15694650e-01 
 8.52497412e+02 -6.28913137e+00 -2.20668523e-01 
 8.72155772e+02 -6.28913109e+00 -2.25757092e-01 
 8.92267449e+02 -6.28913080e+00 -2.30963004e-01 
 9.12842895e+02 -6.28913049e+00 -2.36288963e-01 
 9.33892805e+02 -6.28913016e+00 -2.41737739e-01 
 9.55428121e+02 -6.28912983e+00 -2.47312163e-01 
 9.77460036e+02 -6.28912947e+00 -2.53015133e-01 
 1.00000000e+03 -6.28912910e+00 -2.58849613e-01 
 1.02305973e+03 -6.28912871e+00 -2.64818636e-01 
 1.04665121e+03 -6.28912831e+00 -2.70925305e-01 
 1.07078670e+03 -6.28912788e+00 -2.77172794e-01 
 1.09547876e+03 -6.28912744e+00 -2.83564349e-01 
 1.12074020e+03 -6.28912697e+00 -2.90103294e-01 
 1.14658417e+03 -6.28912649e+00 -2.96793027e-01 
 1.17302409e+03 -6.28912598e+00 -3.03637026e-01 
 1.20007371e+03 -6.28912544e+00 -3.10638848e-01 
 1.22774708e+03 -6.28912488e+00 -3.17802132e-01 
 1.25605860e+03 -6.28912430e+00 -3.25130602e-01 
 1.28502297e+03 -6.28912369e+00 -3.32628068e-01 
 1.31465525e+03 -6.28912305e+00 -3.40298426e-01 
 1.34497085e+03 -6.28912238e+00 -3.48145664e-01 
 1.37598551e+03 -6.28912168e+00 -3.56173860e-01 
 1.40771537e+03 -6.28912094e+00 -3.64387188e-01 
 1.44017690e+03 -6.28912017e+00 -3.72789916e-01 
 1.47338699e+03 -6.28911937e+00 -3.81386414e-01 
 1.50736290e+03 -6.28911853e+00 -3.90181149e-01 
 1.54212228e+03 -6.28911765e+00 -3.99178693e-01 
 1.57768320e+03 -6.28911673e+00 -4.08383723e-01 
 1.61406415e+03 -6.28911576e+00 -4.17801024e-01 
 1.65128404e+03 -6.28911475e+00 -4.27435491e-01 
 1.68936220e+03 -6.28911369e+00 -4.37292133e-01 
 1.72831844e+03 -6.28911259e+00 -4.47376073e-01 
 1.76817299e+03 -6.28911143e+00 -4.57692553e-01 
 1.80894658e+03 -6.28911022e+00 -4.68246936e-01 
 1.85066040e+03 -6.28910895e+00 -4.79044708e-01 
 1.89333613e+03 -6.28910762e+00 -4.90091483e-01 
 1.93699595e+03 -6.28910623e+00 -5.01393003e-01 
 1.98166255e+03 -6.28910478e+00 -5.12955143e-01 
 2.02735916e+03 -6.28910325e+00 -5.24783914e-01 
 2.07410951e+03 -6.28910166e+00 -5.36885465e-01 
 2.12193792e+03 -6.28909999e+00 -5.49266087e-01 
 2.17086923e+03 -6.28909825e+00 -5.61932215e-01 
 2.22092889e+03 -6.28909642e+00 -5.74890436e-01 
 2.27214291e+03 -6.28909451e+00 -5.88147484e-01 
 2.32453791e+03 -6.28909251e+00 -6.01710253e-01 
 2.37814113e+03 -6.28909041e+00 -6.15585794e-01 
 2.43298042e+03 -6.28908822e+00 -6.29781319e-01 
 2.48908429e+03 -6.28908592e+00 -6.44304209e-01 
 2.54648190e+03 -6.28908352e+00 -6.59162015e-01 
 2.60520309e+03 -6.28908101e+00 -6.74362460e-01 
 2.66527837e+03 -6.28907838e+00 -6.89913448e-01 
 2.72673897e+03 -6.28907562e+00 -7.05823065e-01 
 2.78961683e+03 -6.28907274e+00 -7.22099581e-01 
 2.85394464e+03 -6.28906972e+00 -7.38751459e-01 
 2.91975583e+03 -6.28906657e+00 -7.55787357e-01 
 2.98708461e+03 -6.28906326e+00 -7.73216133e-01 
 3.05596598e+03 -6.28905980e+00 -7.91046849e-01 
 3.12643573e+03 -6.28905618e+00 -8.09288777e-01 
 3.19853049e+03 -6.28905239e+00 -8.27951401e-01 
 3.27228774e+03 -6.28904843e+00 -8.47044425e-01 
 3.34774581e+03 -6.28904428e+00 -8.66577778e-01 
 3.42494392e+03 -6.28903993e+00 -8.86561617e-01 
 3.50392221e+03 -6.28903538e+00 -9.07006334e-01 
 3.58472171e+03 -6.28903063e+00 -9.27922561e-01 
 3.66738442e+03 -6.28902564e+00 -9.49321174e-01 
 3.75195331e+03 -6.28902043e+00 -9.71213302e-01 
 3.83847234e+03 -6.28901497e+00 -9.93610330e-01 
 3.92698648e+03 -6.28900926e+00 -1.01652391e+00 
 4.01754173e+03 -6.28900329e+00 -1.03996595e+00 
 4.11018515e+03 -6.28899703e+00 -1.06394865e+00 
 4.20496491e+03 -6.28899048e+00 -1.08848448e+00 
 4.30193027e+03 -6.28898363e+00 -1.11358620e+00 
 4.40113162e+03 -6.28897646e+00 -1.13926687e+00 
 4.50262052e+03 -6.28896895e+00 -1.16553985e+00 
 4.60644974e+03 -6.28896109e+00 -1.19241881e+00 
 4.71267322e+03 -6.28895287e+00 -1.21991772e+00 
 4.82134619e+03 -6.28894426e+00 -1.24805090e+00 
 4.93252513e+03 -6.28893525e+00 -1.27683297e+00 
 5.04626783e+03 -6.28892582e+00 -1.30627892e+00 
 5.16263340e+03 -6.28891595e+00 -1.33640407e+00 
 5.28168234e+03 -6.28890562e+00 -1.36722408e+00 
 5.40347650e+03 -6.28889481e+00 -1.39875500e+00 
 5.52807921e+03 -6.28888350e+00 -1.43101323e+00 
 5.65555523e+03 -6.28887166e+00 -1.46401557e+00 
 5.78597080e+03 -6.28885926e+00 -1.49777918e+00 
 5.91939372e+03 -6.28884629e+00 -1.53232164e+00 
 6.05589334e+03 -6.28883272e+00 -1.56766093e+00 
 6.19554061e+03 -6.28881851e+00 -1.60381544e+00 
 6.33840810e+03 -6.28880363e+00 -1.64080400e+00 
 6.48457008e+03 -6.28878807e+00 -1.67864586e+00 
 6.63410251e+03 -6.28877178e+00 -1.71736072e+00 
 6.78708313e+03 -6.28875473e+00 -1.75696874e+00 
 6.94359143e+03 -6.28873688e+00 -1.79749054e+00 
 7.10370877e+03 -6.28871821e+00 -1.83894724e+00 
 7.26751838e+03 -6.28869866e+00 -1.88136041e+00 
 7.43510539e+03 -6.28867820e+00 -1.92475215e+00 
 7.60655691e+03 -6.28865679e+00 -1.96914507e+00 
 7.78196206e+03 -6.28863438e+00 -2.01456229e+00 
 7.96141200e+03 -6.28861093e+00 -2.06102747e+00 
 8.14500001e+03 -6.28858638e+00 -2.10856483e+00 
 8.33282151e+03 -6.28856070e+00 -2.15719914e+00 
 8.52497412e+03 -6.28853381e+00 -2.20695575e+00 
 8.72155772e+03 -6.28850567e+00 -2.25786060e+00 
 8.92267449e+03 -6.28847622e+00 -2.30994022e+00 
 9.12842895e+03 -6.28844540e+00 -2.36322178e+00 
 9.33892805e+03 -6.28841314e+00 -2.41773305e+00 
 9.55428121e+03 -6.28837938e+00 -2.47350247e+00 
 9.77460036e+03 -6.28834405e+00 -2.53055913e+00 
 1.00000000e+04 -6.28830707e+00 -2.58893280e+00 
 1.02305973e+04 -6.28826837e+00 -2.64865395e+00 
 1.04665121e+04 -6.28822787e+00 -2.70975374e+00 
