 frequency       v(inoise_spectrum) v(onoise_spectrum)
 1.00000000e+00  3.48692781e-05  3.38077355e-05 
 1.02305973e+00  3.43959910e-05  3.33488568e-05 
 1.04665121e+00  3.39291322e-05  3.28962108e-05 
 1.07078670e+00  3.34686144e-05  3.24497129e-05 
 1.09547876e+00  3.30143516e-05  3.20092794e-05 
 1.12074020e+00  3.25662588e-05  3.15748281e-05 
 1.14658417e+00  3.21242521e-05  3.11462777e-05 
 1.17302409e+00  3.16882490e-05  3.07235480e-05 
 1.20007371e+00  3.12581679e-05  3.03065601e-05 
 1.22774708e+00  3.08339284e-05  2.98952359e-05 
 1.25605860e+00  3.04154511e-05  2.94894985e-05 
 1.28502297e+00  3.00026578e-05  2.90892721e-05 
 1.31465525e+00  2.95954713e-05  2.86944817e-05 
 1.34497085e+00  2.91938154e-05  2.83050536e-05 
 1.37598551e+00  2.87976150e-05  2.79209150e-05 
 1.40771537e+00  2.84067961e-05  2.75419940e-05 
 1.44017690e+00  2.80212856e-05  2.71682198e-05 
 1.47338699e+00  2.76410113e-05  2.67995224e-05 
 1.50736290e+00  2.72659022e-05  2.64358329e-05 
 1.54212228e+00  2.68958881e-05  2.60770833e-05 
 1.57768320e+00  2.65308999e-05  2.57232066e-05 
 1.61406415e+00  2.61708692e-05  2.53741365e-05 
 1.65128404e+00  2.58157288e-05  2.50298078e-05 
 1.68936220e+00  2.54654122e-05  2.46901561e-05 
 1.72831844e+00  2.51198540e-05  2.43551179e-05 
 1.76817299e+00  2.47789895e-05  2.40246305e-05 
 1.80894658e+00  2.44427550e-05  2.36986321e-05 
 1.85066040e+00  2.41110875e-05  2.33770618e-05 
 1.89333613e+00  2.37839252e-05  2.30598595e-05 
 1.93699595e+00  2.34612068e-05  2.27469657e-05 
 1.98166255e+00  2.31428720e-05  2.24383221e-05 
 2.02735916e+00  2.28288613e-05  2.21338710e-05 
 2.07410951e+00  2.25191158e-05  2.18335553e-05 
 2.12193792e+00  2.22135778e-05  2.15373189e-05 
 2.17086923e+00  2.19121901e-05  2.12451065e-05 
 2.22092889e+00  2.16148963e-05  2.09568634e-05 
 2.27214291e+00  2.13216409e-05  2.06725357e-05 
 2.32453791e+00  2.10323690e-05  2.03920702e-05 
 2.37814113e+00  2.07470265e-05  2.01154146e-05 
 2.43298042e+00  2.04655601e-05  1.98425170e-05 
 2.48908429e+00  2.01879171e-05  1.95733264e-05 
 2.54648190e+00  1.99140457e-05  1.93077926e-05 
 2.60520309e+00  1.96438946e-05  1.90458658e-05 
 2.66527837e+00  1.93774133e-05  1.87874972e-05 
 2.72673897e+00  1.91145520e-05  1.85326383e-05 
 2.78961683e+00  1.88552616e-05  1.82812416e-05 
 2.85394464e+00  1.85994935e-05  1.80332599e-05 
 2.91975583e+00  1.83472000e-05  1.77886471e-05 
 2.98708461e+00  1.80983338e-05  1.75473573e-05 
 3.05596598e+00  1.78528485e-05  1.73093454e-05 
 3.12643573e+00  1.76106981e-05  1.70745669e-05 
 3.19853049e+00  1.73718374e-05  1.68429780e-05 
 3.27228774e+00  1.71362217e-05  1.66145352e-05 
 3.34774581e+00  1.69038069e-05  1.63891960e-05 
 3.42494392e+00  1.66745497e-05  1.61669182e-05 
 3.50392221e+00  1.64484071e-05  1.59476601e-05 
 3.58472171e+00  1.62253369e-05  1.57313810e-05 
 3.66738442e+00  1.60052973e-05  1.55180402e-05 
 3.75195331e+00  1.57882473e-05  1.53075979e-05 
 3.83847234e+00  1.55741462e-05  1.51000148e-05 
 3.92698648e+00  1.53629540e-05  1.48952520e-05 
 4.01754173e+00  1.51546313e-05  1.46932714e-05 
 4.11018515e+00  1.49491390e-05  1.44940350e-05 
 4.20496491e+00  1.47464388e-05  1.42975057e-05 
 4.30193027e+00  1.45464928e-05  1.41036468e-05 
 4.40113162e+00  1.43492636e-05  1.39124219e-05 
 4.50262052e+00  1.41547143e-05  1.37237953e-05 
 4.60644974e+00  1.39628085e-05  1.35377319e-05 
 4.71267322e+00  1.37735104e-05  1.33541967e-05 
 4.82134619e+00  1.35867847e-05  1.31731555e-05 
 4.93252513e+00  1.34025962e-05  1.29945744e-05 
 5.04626783e+00  1.32209108e-05  1.28184201e-05 
 5.16263340e+00  1.30416943e-05  1.26446595e-05 
 5.28168234e+00  1.28649133e-05  1.24732604e-05 
 5.40347650e+00  1.26905347e-05  1.23041905e-05 
 5.52807921e+00  1.25185259e-05  1.21374183e-05 
 5.65555523e+00  1.23488549e-05  1.19729126e-05 
 5.78597080e+00  1.21814897e-05  1.18106426e-05 
 5.91939372e+00  1.20163993e-05  1.16505781e-05 
 6.05589334e+00  1.18535527e-05  1.14926891e-05 
 6.19554061e+00  1.16929194e-05  1.13369461e-05 
 6.33840810e+00  1.15344695e-05  1.11833200e-05 
 6.48457008e+00  1.13781733e-05  1.10317820e-05 
 6.63410251e+00  1.12240017e-05  1.08823038e-05 
 6.78708313e+00  1.10719257e-05  1.07348576e-05 
 6.94359143e+00  1.09219169e-05  1.05894156e-05 
 7.10370877e+00  1.07739474e-05  1.04459508e-05 
 7.26751838e+00  1.06279895e-05  1.03044364e-05 
 7.43510539e+00  1.04840158e-05  1.01648458e-05 
 7.60655691e+00  1.03419995e-05  1.00271529e-05 
 7.78196206e+00  1.02019141e-05  9.89133216e-06 
 7.96141200e+00  1.00637332e-05  9.75735804e-06 
 8.14500001e+00  9.92743121e-06  9.62520552e-06 
 8.33282151e+00  9.79298252e-06  9.49484992e-06 
 8.52497412e+00  9.66036204e-06  9.36626687e-06 
 8.72155772e+00  9.52954497e-06  9.23943233e-06 
 8.92267449e+00  9.40050686e-06  9.11432259e-06 
 9.12842895e+00  9.27322359e-06  8.99091427e-06 
 9.33892805e+00  9.14767138e-06  8.86918431e-06 
 9.55428121e+00  9.02382676e-06  8.74910995e-06 
 9.77460036e+00  8.90166658e-06  8.63066875e-06 
 1.00000000e+01  8.78116800e-06  8.51383857e-06 
 1.02305973e+01  8.66230851e-06  8.39859758e-06 
 1.04665121e+01  8.54506590e-06  8.28492424e-06 
 1.07078670e+01  8.42941824e-06  8.17279730e-06 
 1.09547876e+01  8.31534392e-06  8.06219580e-06 
 1.12074020e+01  8.20282163e-06  7.95309908e-06 
 1.14658417e+01  8.09183033e-06  7.84548674e-06 
 1.17302409e+01  7.98234928e-06  7.73933868e-06 
 1.20007371e+01  7.87435802e-06  7.63463505e-06 
 1.22774708e+01  7.76783636e-06  7.53135628e-06 
 1.25605860e+01  7.66276440e-06  7.42948308e-06 
 1.28502297e+01  7.55912250e-06  7.32899641e-06 
 1.31465525e+01  7.45689130e-06  7.22987748e-06 
 1.34497085e+01  7.35605168e-06  7.13210777e-06 
 1.37598551e+01  7.25658480e-06  7.03566901e-06 
 1.40771537e+01  7.15847207e-06  6.94054317e-06 
 1.44017690e+01  7.06169516e-06  6.84671249e-06 
 1.47338699e+01  6.96623597e-06  6.75415941e-06 
 1.50736290e+01  6.87207668e-06  6.66286666e-06 
 1.54212228e+01  6.77919968e-06  6.57281716e-06 
 1.57768320e+01  6.68758762e-06  6.48399409e-06 
 1.61406415e+01  6.59722338e-06  6.39638086e-06 
 1.65128404e+01  6.50809007e-06  6.30996107e-06 
 1.68936220e+01  6.42017103e-06  6.22471860e-06 
 1.72831844e+01  6.33344984e-06  6.14063750e-06 
 1.76817299e+01  6.24791029e-06  6.05770207e-06 
 1.80894658e+01  6.16353639e-06  5.97589681e-06 
 1.85066040e+01  6.08031237e-06  5.89520643e-06 
 1.89333613e+01  5.99822270e-06  5.81561585e-06 
 1.93699595e+01  5.91725202e-06  5.73711020e-06 
 1.98166255e+01  5.83738520e-06  5.65967481e-06 
 2.02735916e+01  5.75860733e-06  5.58329520e-06 
 2.07410951e+01  5.68090367e-06  5.50795712e-06 
 2.12193792e+01  5.60425972e-06  5.43364648e-06 
 2.17086923e+01  5.52866115e-06  5.36034939e-06 
 2.22092889e+01  5.45409383e-06  5.28805216e-06 
 2.27214291e+01  5.38054383e-06  5.21674128e-06 
 2.32453791e+01  5.30799740e-06  5.14640342e-06 
 2.37814113e+01  5.23644100e-06  5.07702544e-06 
 2.43298042e+01  5.16586124e-06  5.00859438e-06 
 2.48908429e+01  5.09624495e-06  4.94109745e-06 
 2.54648190e+01  5.02757911e-06  4.87452204e-06 
 2.60520309e+01  4.95985090e-06  4.80885571e-06 
 2.66527837e+01  4.89304765e-06  4.74408619e-06 
 2.72673897e+01  4.82715689e-06  4.68020137e-06 
 2.78961683e+01  4.76216630e-06  4.61718933e-06 
 2.85394464e+01  4.69806375e-06  4.55503828e-06 
 2.91975583e+01  4.63483724e-06  4.49373661e-06 
 2.98708461e+01  4.57247498e-06  4.43327287e-06 
 3.05596598e+01  4.51096531e-06  4.37363577e-06 
 3.12643573e+01  4.45029673e-06  4.31481415e-06 
 3.19853049e+01  4.39045791e-06  4.25679703e-06 
 3.27228774e+01  4.33143766e-06  4.19957357e-06 
 3.34774581e+01  4.27322497e-06  4.14313308e-06 
 3.42494392e+01  4.21580895e-06  4.08746500e-06 
 3.50392221e+01  4.15917888e-06  4.03255895e-06 
 3.58472171e+01  4.10332417e-06  3.97840465e-06 
 3.66738442e+01  4.04823439e-06  3.92499200e-06 
 3.75195331e+01  3.99389924e-06  3.87231100e-06 
 3.83847234e+01  3.94030857e-06  3.82035182e-06 
 3.92698648e+01  3.88745238e-06  3.76910475e-06 
 4.01754173e+01  3.83532077e-06  3.71856022e-06 
 4.11018515e+01  3.78390402e-06  3.66870877e-06 
 4.20496491e+01  3.73319251e-06  3.61954110e-06 
 4.30193027e+01  3.68317677e-06  3.57104801e-06 
 4.40113162e+01  3.63384746e-06  3.52322045e-06 
 4.50262052e+01  3.58519534e-06  3.47604948e-06 
 4.60644974e+01  3.53721134e-06  3.42952628e-06 
 4.71267322e+01  3.48988649e-06  3.38364217e-06 
 4.82134619e+01  3.44321195e-06  3.33838856e-06 
 4.93252513e+01  3.39717898e-06  3.29375700e-06 
 5.04626783e+01  3.35177900e-06  3.24973915e-06 
 5.16263340e+01  3.30700351e-06  3.20632678e-06 
 5.28168234e+01  3.26284415e-06  3.16351179e-06 
 5.40347650e+01  3.21929267e-06  3.12128616e-06 
 5.52807921e+01  3.17634092e-06  3.07964202e-06 
 5.65555523e+01  3.13398088e-06  3.03857156e-06 
 5.78597080e+01  3.09220463e-06  2.99806713e-06 
 5.91939372e+01  3.05100437e-06  2.95812115e-06 
 6.05589334e+01  3.01037239e-06  2.91872615e-06 
 6.19554061e+01  2.97030110e-06  2.87987478e-06 
 6.33840810e+01  2.93078301e-06  2.84155976e-06 
 6.48457008e+01  2.89181074e-06  2.80377393e-06 
 6.63410251e+01  2.85337699e-06  2.76651024e-06 
 6.78708313e+01  2.81547458e-06  2.72976171e-06 
 6.94359143e+01  2.77809642e-06  2.69352148e-06 
 7.10370877e+01  2.74123554e-06  2.65778277e-06 
 7.26751838e+01  2.70488503e-06  2.62253890e-06 
 7.43510539e+01  2.66903810e-06  2.58778327e-06 
 7.60655691e+01  2.63368804e-06  2.55350940e-06 
 7.78196206e+01  2.59882825e-06  2.51971086e-06 
 7.96141200e+01  2.56445221e-06  2.48638135e-06 
 8.14500001e+01  2.53055348e-06  2.45351461e-06 
 8.33282151e+01  2.49712573e-06  2.42110452e-06 
 8.52497412e+01  2.46416270e-06  2.38914500e-06 
 8.72155772e+01  2.43165823e-06  2.35763008e-06 
 8.92267449e+01  2.39960623e-06  2.32655386e-06 
 9.12842895e+01  2.36800071e-06  2.29591052e-06 
 9.33892805e+01  2.33683575e-06  2.26569434e-06 
 9.55428121e+01  2.30610553e-06  2.23589964e-06 
 9.77460036e+01  2.27580428e-06  2.20652087e-06 
 1.00000000e+02  2.24592634e-06  2.17755252e-06 
 1.02305973e+02  2.21646610e-06  2.14898916e-06 
 1.04665121e+02  2.18741807e-06  2.12082545e-06 
 1.07078670e+02  2.15877679e-06  2.09305611e-06 
 1.09547876e+02  2.13053690e-06  2.06567595e-06 
 1.12074020e+02  2.10269311e-06  2.03867982e-06 
 1.14658417e+02  2.07524021e-06  2.01206268e-06 
 1.17302409e+02  2.04817304e-06  1.98581954e-06 
 1.20007371e+02  2.02148654e-06  1.95994547e-06 
 1.22774708e+02  1.99517570e-06  1.93443562e-06 
 1.25605860e+02  1.96923559e-06  1.90928522e-06 
 1.28502297e+02  1.94366135e-06  1.88448954e-06 
 1.31465525e+02  1.91844816e-06  1.86004394e-06 
 1.34497085e+02  1.89359131e-06  1.83594382e-06 
 1.37598551e+02  1.86908613e-06  1.81218467e-06 
 1.40771537e+02  1.84492802e-06  1.78876201e-06 
 1.44017690e+02  1.82111243e-06  1.76567145e-06 
 1.47338699e+02  1.79763490e-06  1.74290866e-06 
 1.50736290e+02  1.77449101e-06  1.72046936e-06 
 1.54212228e+02  1.75167642e-06  1.69834932e-06 
 1.57768320e+02  1.72918682e-06  1.67654439e-06 
 1.61406415e+02  1.70701799e-06  1.65505046e-06 
 1.65128404e+02  1.68516576e-06  1.63386349e-06 
 1.68936220e+02  1.66362602e-06  1.61297949e-06 
 1.72831844e+02  1.64239469e-06  1.59239452e-06 
 1.76817299e+02  1.62146779e-06  1.57210471e-06 
 1.80894658e+02  1.60084137e-06  1.55210623e-06 
 1.85066040e+02  1.58051153e-06  1.53239530e-06 
 1.89333613e+02  1.56047443e-06  1.51296821e-06 
 1.93699595e+02  1.54072630e-06  1.49382128e-06 
 1.98166255e+02  1.52126340e-06  1.47495090e-06 
 2.02735916e+02  1.50208205e-06  1.45635350e-06 
 2.07410951e+02  1.48317862e-06  1.43802556e-06 
 2.12193792e+02  1.46454952e-06  1.41996360e-06 
 2.17086923e+02  1.44619124e-06  1.40216421e-06 
 2.22092889e+02  1.42810028e-06  1.38462400e-06 
 2.27214291e+02  1.41027321e-06  1.36733966e-06 
 2.32453791e+02  1.39270665e-06  1.35030788e-06 
 2.37814113e+02  1.37539725e-06  1.33352545e-06 
 2.43298042e+02  1.35834172e-06  1.31698915e-06 
 2.48908429e+02  1.34153681e-06  1.30069585e-06 
 2.54648190e+02  1.32497932e-06  1.28464243e-06 
 2.60520309e+02  1.30866608e-06  1.26882582e-06 
 2.66527837e+02  1.29259397e-06  1.25324301e-06 
 2.72673897e+02  1.27675993e-06  1.23789102e-06 
 2.78961683e+02  1.26116091e-06  1.22276689e-06 
 2.85394464e+02  1.24579392e-06  1.20786773e-06 
 2.91975583e+02  1.23065602e-06  1.19319068e-06 
 2.98708461e+02  1.21574428e-06  1.17873291e-06 
 3.05596598e+02  1.20105583e-06  1.16449164e-06 
 3.12643573e+02  1.18658784e-06  1.15046411e-06 
 3.19853049e+02  1.17233752e-06  1.13664762e-06 
 3.27228774e+02  1.15830209e-06  1.12303949e-06 
 3.34774581e+02  1.14447885e-06  1.10963707e-06 
 3.42494392e+02  1.13086509e-06  1.09643778e-06 
 3.50392221e+02  1.11745818e-06  1.08343903e-06 
 3.58472171e+02  1.10425550e-06  1.07063828e-06 
 3.66738442e+02  1.09125446e-06  1.05803304e-06 
 3.75195331e+02  1.07845251e-06  1.04562084e-06 
 3.83847234e+02  1.06584714e-06  1.03339923e-06 
 3.92698648e+02  1.05343588e-06  1.02136581e-06 
 4.01754173e+02  1.04121626e-06  1.00951821e-06 
 4.11018515e+02  1.02918587e-06  9.97854075e-07 
 4.20496491e+02  1.01734233e-06  9.86371096e-07 
 4.30193027e+02  1.00568326e-06  9.75066986e-07 
 4.40113162e+02  9.94206363e-07  9.63939489e-07 
 4.50262052e+02  9.82909321e-07  9.52986378e-07 
 4.60644974e+02  9.71789871e-07  9.42205451e-07 
 4.71267322e+02  9.60845771e-07  9.31594537e-07 
 4.82134619e+02  9.50074809e-07  9.21151490e-07 
 4.93252513e+02  9.39474799e-07  9.10874191e-07 
 5.04626783e+02  9.29043582e-07  9.00760546e-07 
 5.16263340e+02  9.18779025e-07  8.90808489e-07 
 5.28168234e+02  9.08679021e-07  8.81015975e-07 
 5.40347650e+02  8.98741488e-07  8.71380986e-07 
 5.52807921e+02  8.88964369e-07  8.61901529e-07 
 5.65555523e+02  8.79345632e-07  8.52575632e-07 
 5.78597080e+02  8.69883268e-07  8.43401347e-07 
 5.91939372e+02  8.60575290e-07  8.34376750e-07 
 6.05589334e+02  8.51419737e-07  8.25499937e-07 
 6.19554061e+02  8.42414668e-07  8.16769028e-07 
 6.33840810e+02  8.33558164e-07  8.08182161e-07 
 6.48457008e+02  8.24848329e-07  7.99737499e-07 
 6.63410251e+02  8.16283287e-07  7.91433223e-07 
 6.78708313e+02  8.07861183e-07  7.83267533e-07 
 6.94359143e+02  7.99580182e-07  7.75238652e-07 
 7.10370877e+02  7.91438469e-07  7.67344818e-07 
 7.26751838e+02  7.83434249e-07  7.59584293e-07 
 7.43510539e+02  7.75565746e-07  7.51955353e-07 
 7.60655691e+02  7.67831200e-07  7.44456293e-07 
 7.78196206e+02  7.60228873e-07  7.37085428e-07 
 7.96141200e+02  7.52757044e-07  7.29841088e-07 
 8.14500001e+02  7.45414007e-07  7.22721621e-07 
 8.33282151e+02  7.38198076e-07  7.15725390e-07 
 8.52497412e+02  7.31107580e-07  7.08850778e-07 
 8.72155772e+02  7.24140867e-07  7.02096180e-07 
 8.92267449e+02  7.17296298e-07  6.95460009e-07 
 9.12842895e+02  7.10572252e-07  6.88940693e-07 
 9.33892805e+02  7.03967122e-07  6.82536674e-07 
 9.55428121e+02  6.97479319e-07  6.76246411e-07 
 9.77460036e+02  6.91107265e-07  6.70068374e-07 
 1.00000000e+03  6.84849401e-07  6.64001052e-07 
 1.02305973e+03  6.78704178e-07  6.58042943e-07 
 1.04665121e+03  6.72670065e-07  6.52192563e-07 
 1.07078670e+03  6.66745542e-07  6.46448438e-07 
 1.09547876e+03  6.60929105e-07  6.40809109e-07 
 1.12074020e+03  6.55219262e-07  6.35273131e-07 
 1.14658417e+03  6.49614534e-07  6.29839070e-07 
 1.17302409e+03  6.44113457e-07  6.24505505e-07 
 1.20007371e+03  6.38714577e-07  6.19271028e-07 
 1.22774708e+03  6.33416455e-07  6.14134243e-07 
 1.25605860e+03  6.28217663e-07  6.09093766e-07 
 1.28502297e+03  6.23116786e-07  6.04148225e-07 
 1.31465525e+03  6.18112422e-07  5.99296261e-07 
 1.34497085e+03  6.13203179e-07  5.94536524e-07 
 1.37598551e+03  6.08387679e-07  5.89867677e-07 
 1.40771537e+03  6.03664553e-07  5.85288396e-07 
 1.44017690e+03  5.99032447e-07  5.80797366e-07 
 1.47338699e+03  5.94490017e-07  5.76393283e-07 
 1.50736290e+03  5.90035929e-07  5.72074856e-07 
 1.54212228e+03  5.85668863e-07  5.67840805e-07 
 1.57768320e+03  5.81387509e-07  5.63689858e-07 
 1.61406415e+03  5.77190568e-07  5.59620758e-07 
 1.65128404e+03  5.73076753e-07  5.55632255e-07 
 1.68936220e+03  5.69044787e-07  5.51723113e-07 
 1.72831844e+03  5.65093405e-07  5.47892105e-07 
 1.76817299e+03  5.61221353e-07  5.44138016e-07 
 1.80894658e+03  5.57427388e-07  5.40459639e-07 
 1.85066040e+03  5.53710277e-07  5.36855782e-07 
 1.89333613e+03  5.50068801e-07  5.33325259e-07 
 1.93699595e+03  5.46501748e-07  5.29866899e-07 
 1.98166255e+03  5.43007921e-07  5.26479538e-07 
 2.02735916e+03  5.39586130e-07  5.23162026e-07 
 2.07410951e+03  5.36235200e-07  5.19913222e-07 
 2.12193792e+03  5.32953964e-07  5.16731995e-07 
 2.17086923e+03  5.29741268e-07  5.13617226e-07 
 2.22092889e+03  5.26595969e-07  5.10567807e-07 
 2.27214291e+03  5.23516933e-07  5.07582640e-07 
 2.32453791e+03  5.20503040e-07  5.04660638e-07 
 2.37814113e+03  5.17553181e-07  5.01800727e-07 
 2.43298042e+03  5.14666256e-07  4.99001840e-07 
 2.48908429e+03  5.11841179e-07  4.96262924e-07 
 2.54648190e+03  5.09076873e-07  4.93582936e-07 
 2.60520309e+03  5.06372274e-07  4.90960845e-07 
 2.66527837e+03  5.03726329e-07  4.88395630e-07 
 2.72673897e+03  5.01137998e-07  4.85886282e-07 
 2.78961683e+03  4.98606250e-07  4.83431802e-07 
 2.85394464e+03  4.96130067e-07  4.81031204e-07 
 2.91975583e+03  4.93708442e-07  4.78683514e-07 
 2.98708461e+03  4.91340382e-07  4.76387765e-07 
 3.05596598e+03  4.89024903e-07  4.74143007e-07 
 3.12643573e+03  4.86761035e-07  4.71948298e-07 
 3.19853049e+03  4.84547817e-07  4.69802708e-07 
 3.27228774e+03  4.82384303e-07  4.67705321e-07 
 3.34774581e+03  4.80269558e-07  4.65655228e-07 
 3.42494392e+03  4.78202658e-07  4.63651537e-07 
 3.50392221e+03  4.76182693e-07  4.61693363e-07 
 3.58472171e+03  4.74208763e-07  4.59779837e-07 
 3.66738442e+03  4.72279980e-07  4.57910098e-07 
 3.75195331e+03  4.70395472e-07  4.56083298e-07 
 3.83847234e+03  4.68554373e-07  4.54298603e-07 
 3.92698648e+03  4.66755835e-07  4.52555188e-07 
 4.01754173e+03  4.64999019e-07  4.50852241e-07 
 4.11018515e+03  4.63283099e-07  4.49188963e-07 
 4.20496491e+03  4.61607261e-07  4.47564564e-07 
 4.30193027e+03  4.59970703e-07  4.45978268e-07 
 4.40113162e+03  4.58372636e-07  4.44429311e-07 
 4.50262052e+03  4.56812283e-07  4.42916941e-07 
 4.60644974e+03  4.55288880e-07  4.41440416e-07 
 4.71267322e+03  4.53801672e-07  4.39999008e-07 
 4.82134619e+03  4.52349920e-07  4.38592000e-07 
 4.93252513e+03  4.50932896e-07  4.37218687e-07 
 5.04626783e+03  4.49549882e-07  4.35878376e-07 
 5.16263340e+03  4.48200177e-07  4.34570385e-07 
 5.28168234e+03  4.46883086e-07  4.33294044e-07 
 5.40347650e+03  4.45597932e-07  4.32048697e-07 
 5.52807921e+03  4.44344045e-07  4.30833696e-07 
 5.65555523e+03  4.43120771e-07  4.29648408e-07 
 5.78597080e+03  4.41927465e-07  4.28492209e-07 
 5.91939372e+03  4.40763495e-07  4.27364490e-07 
 6.05589334e+03  4.39628243e-07  4.26264649e-07 
 6.19554061e+03  4.38521098e-07  4.25192101e-07 
 6.33840810e+03  4.37441466e-07  4.24146267e-07 
 6.48457008e+03  4.36388762e-07  4.23126583e-07 
 6.63410251e+03  4.35362412e-07  4.22132496e-07 
 6.78708313e+03  4.34361856e-07  4.21163463e-07 
 6.94359143e+03  4.33386543e-07  4.20218954e-07 
 7.10370877e+03  4.32435935e-07  4.19298448e-07 
 7.26751838e+03  4.31509506e-07  4.18401438e-07 
 7.43510539e+03  4.30606740e-07  4.17527426e-07 
 7.60655691e+03  4.29727133e-07  4.16675926e-07 
 7.78196206e+03  4.28870191e-07  4.15846462e-07 
 7.96141200e+03  4.28035434e-07  4.15038571e-07 
 8.14500001e+03  4.27222391e-07  4.14251799e-07 
 8.33282151e+03  4.26430602e-07  4.13485704e-07 
 8.52497412e+03  4.25659619e-07  4.12739854e-07 
 8.72155772e+03  4.24909004e-07  4.12013828e-07 
 8.92267449e+03  4.24178330e-07  4.11307216e-07 
 9.12842895e+03  4.23467182e-07  4.10619618e-07 
 9.33892805e+03  4.22775155e-07  4.09950647e-07 
 9.55428121e+03  4.22101854e-07  4.09299923e-07 
 9.77460036e+03  4.21446896e-07  4.08667078e-07 
 1.00000000e+04  4.20809907e-07  4.08051756e-07 
 1.02305973e+04  4.20190525e-07  4.07453610e-07 
 1.04665121e+04  4.19588399e-07  4.06872302e-07 
