 v-sweep         v(vinp)         v(voutp)        v(voutn)       
-1.80000000e+00  0.00000000e+00  8.87827492e-02  1.70555780e+00 
-1.79900000e+00  5.00000000e-04  8.87966512e-02  1.70556494e+00 
-1.79800000e+00  1.00000000e-03  8.88105708e-02  1.70557210e+00 
-1.79700000e+00  1.50000000e-03  8.88245081e-02  1.70557925e+00 
-1.79600000e+00  2.00000000e-03  8.88384630e-02  1.70558642e+00 
-1.79500000e+00  2.50000000e-03  8.88524355e-02  1.70559359e+00 
-1.79400000e+00  3.00000000e-03  8.88664256e-02  1.70560077e+00 
-1.79300000e+00  3.50000000e-03  8.88804334e-02  1.70560795e+00 
-1.79200000e+00  4.00000000e-03  8.88944588e-02  1.70561514e+00 
-1.79100000e+00  4.50000000e-03  8.89085018e-02  1.70562234e+00 
-1.79000000e+00  5.00000000e-03  8.89225625e-02  1.70562954e+00 
-1.78900000e+00  5.50000000e-03  8.89366407e-02  1.70563675e+00 
-1.78800000e+00  6.00000000e-03  8.89507366e-02  1.70564397e+00 
-1.78700000e+00  6.50000000e-03  8.89648502e-02  1.70565119e+00 
-1.78600000e+00  7.00000000e-03  8.89789813e-02  1.70565842e+00 
-1.78500000e+00  7.50000000e-03  8.89931301e-02  1.70566565e+00 
-1.78400000e+00  8.00000000e-03  8.90072965e-02  1.70567289e+00 
-1.78300000e+00  8.50000000e-03  8.90214806e-02  1.70568013e+00 
-1.78200000e+00  9.00000000e-03  8.90356823e-02  1.70568739e+00 
-1.78100000e+00  9.50000000e-03  8.90499016e-02  1.70569464e+00 
-1.78000000e+00  1.00000000e-02  8.90641386e-02  1.70570191e+00 
-1.77900000e+00  1.05000000e-02  8.90783931e-02  1.70570918e+00 
-1.77800000e+00  1.10000000e-02  8.90926654e-02  1.70571645e+00 
-1.77700000e+00  1.15000000e-02  8.91069552e-02  1.70572373e+00 
-1.77600000e+00  1.20000000e-02  8.91212627e-02  1.70573102e+00 
-1.77500000e+00  1.25000000e-02  8.91355878e-02  1.70573832e+00 
-1.77400000e+00  1.30000000e-02  8.91499305e-02  1.70574561e+00 
-1.77300000e+00  1.35000000e-02  8.91642908e-02  1.70575292e+00 
-1.77200000e+00  1.40000000e-02  8.91786688e-02  1.70576023e+00 
-1.77100000e+00  1.45000000e-02  8.91930644e-02  1.70576755e+00 
-1.77000000e+00  1.50000000e-02  8.92074776e-02  1.70577487e+00 
-1.76900000e+00  1.55000000e-02  8.92219084e-02  1.70578220e+00 
-1.76800000e+00  1.60000000e-02  8.92363568e-02  1.70578953e+00 
-1.76700000e+00  1.65000000e-02  8.92508228e-02  1.70579687e+00 
-1.76600000e+00  1.70000000e-02  8.92653065e-02  1.70580422e+00 
-1.76500000e+00  1.75000000e-02  8.92798077e-02  1.70581157e+00 
-1.76400000e+00  1.80000000e-02  8.92943266e-02  1.70581893e+00 
-1.76300000e+00  1.85000000e-02  8.93088631e-02  1.70582629e+00 
-1.76200000e+00  1.90000000e-02  8.93234171e-02  1.70583366e+00 
-1.76100000e+00  1.95000000e-02  8.93379888e-02  1.70584103e+00 
-1.76000000e+00  2.00000000e-02  8.93525780e-02  1.70584841e+00 
-1.75900000e+00  2.05000000e-02  8.93671848e-02  1.70585580e+00 
-1.75800000e+00  2.10000000e-02  8.93818092e-02  1.70586319e+00 
-1.75700000e+00  2.15000000e-02  8.93964512e-02  1.70587058e+00 
-1.75600000e+00  2.20000000e-02  8.94111107e-02  1.70587798e+00 
-1.75500000e+00  2.25000000e-02  8.94257878e-02  1.70588539e+00 
-1.75400000e+00  2.30000000e-02  8.94404825e-02  1.70589280e+00 
-1.75300000e+00  2.35000000e-02  8.94551947e-02  1.70590022e+00 
-1.75200000e+00  2.40000000e-02  8.94699245e-02  1.70590764e+00 
-1.75100000e+00  2.45000000e-02  8.94846718e-02  1.70591507e+00 
-1.75000000e+00  2.50000000e-02  8.94994367e-02  1.70592250e+00 
-1.74900000e+00  2.55000000e-02  8.95142191e-02  1.70592994e+00 
-1.74800000e+00  2.60000000e-02  8.95290190e-02  1.70593739e+00 
-1.74700000e+00  2.65000000e-02  8.95438365e-02  1.70594483e+00 
-1.74600000e+00  2.70000000e-02  8.95586714e-02  1.70595229e+00 
-1.74500000e+00  2.75000000e-02  8.95735239e-02  1.70595975e+00 
-1.74400000e+00  2.80000000e-02  8.95883939e-02  1.70596721e+00 
-1.74300000e+00  2.85000000e-02  8.96032814e-02  1.70597468e+00 
-1.74200000e+00  2.90000000e-02  8.96181863e-02  1.70598216e+00 
-1.74100000e+00  2.95000000e-02  8.96331088e-02  1.70598964e+00 
-1.74000000e+00  3.00000000e-02  8.96480487e-02  1.70599712e+00 
-1.73900000e+00  3.05000000e-02  8.96630061e-02  1.70600461e+00 
-1.73800000e+00  3.10000000e-02  8.96779810e-02  1.70601211e+00 
-1.73700000e+00  3.15000000e-02  8.96929733e-02  1.70601961e+00 
-1.73600000e+00  3.20000000e-02  8.97079830e-02  1.70602711e+00 
-1.73500000e+00  3.25000000e-02  8.97230102e-02  1.70603462e+00 
-1.73400000e+00  3.30000000e-02  8.97380548e-02  1.70604213e+00 
-1.73300000e+00  3.35000000e-02  8.97531168e-02  1.70604965e+00 
-1.73200000e+00  3.40000000e-02  8.97681963e-02  1.70605718e+00 
-1.73100000e+00  3.45000000e-02  8.97832931e-02  1.70606470e+00 
-1.73000000e+00  3.50000000e-02  8.97984073e-02  1.70607224e+00 
-1.72900000e+00  3.55000000e-02  8.98135389e-02  1.70607977e+00 
-1.72800000e+00  3.60000000e-02  8.98286879e-02  1.70608732e+00 
-1.72700000e+00  3.65000000e-02  8.98438542e-02  1.70609486e+00 
-1.72600000e+00  3.70000000e-02  8.98590379e-02  1.70610242e+00 
-1.72500000e+00  3.75000000e-02  8.98742389e-02  1.70610997e+00 
-1.72400000e+00  3.80000000e-02  8.98894572e-02  1.70611753e+00 
-1.72300000e+00  3.85000000e-02  8.99046928e-02  1.70612510e+00 
-1.72200000e+00  3.90000000e-02  8.99199458e-02  1.70613267e+00 
-1.72100000e+00  3.95000000e-02  8.99352160e-02  1.70614024e+00 
-1.72000000e+00  4.00000000e-02  8.99505036e-02  1.70614782e+00 
-1.71900000e+00  4.05000000e-02  8.99658084e-02  1.70615540e+00 
-1.71800000e+00  4.10000000e-02  8.99811304e-02  1.70616299e+00 
-1.71700000e+00  4.15000000e-02  8.99964697e-02  1.70617058e+00 
-1.71600000e+00  4.20000000e-02  9.00118263e-02  1.70617817e+00 
-1.71500000e+00  4.25000000e-02  9.00272000e-02  1.70618577e+00 
-1.71400000e+00  4.30000000e-02  9.00425910e-02  1.70619338e+00 
-1.71300000e+00  4.35000000e-02  9.00579991e-02  1.70620099e+00 
-1.71200000e+00  4.40000000e-02  9.00734244e-02  1.70620860e+00 
-1.71100000e+00  4.45000000e-02  9.00888669e-02  1.70621621e+00 
-1.71000000e+00  4.50000000e-02  9.01043266e-02  1.70622383e+00 
-1.70900000e+00  4.55000000e-02  9.01198033e-02  1.70623146e+00 
-1.70800000e+00  4.60000000e-02  9.01352972e-02  1.70623908e+00 
-1.70700000e+00  4.65000000e-02  9.01508083e-02  1.70624672e+00 
-1.70600000e+00  4.70000000e-02  9.01663364e-02  1.70625435e+00 
-1.70500000e+00  4.75000000e-02  9.01818815e-02  1.70626199e+00 
-1.70400000e+00  4.80000000e-02  9.01974440e-02  1.70626963e+00 
-1.70300000e+00  4.85000000e-02  9.02130233e-02  1.70627728e+00 
-1.70200000e+00  4.90000000e-02  9.02286196e-02  1.70628493e+00 
-1.70100000e+00  4.95000000e-02  9.02442329e-02  1.70629258e+00 
-1.70000000e+00  5.00000000e-02  9.02598633e-02  1.70630024e+00 
-1.69900000e+00  5.05000000e-02  9.02755106e-02  1.70630790e+00 
-1.69800000e+00  5.10000000e-02  9.02911748e-02  1.70631557e+00 
-1.69700000e+00  5.15000000e-02  9.03068561e-02  1.70632324e+00 
-1.69600000e+00  5.20000000e-02  9.03225542e-02  1.70633091e+00 
-1.69500000e+00  5.25000000e-02  9.03382693e-02  1.70633858e+00 
-1.69400000e+00  5.30000000e-02  9.03540012e-02  1.70634626e+00 
-1.69300000e+00  5.35000000e-02  9.03697501e-02  1.70635394e+00 
-1.69200000e+00  5.40000000e-02  9.03855158e-02  1.70636163e+00 
-1.69100000e+00  5.45000000e-02  9.04012983e-02  1.70636932e+00 
-1.69000000e+00  5.50000000e-02  9.04170976e-02  1.70637701e+00 
-1.68900000e+00  5.55000000e-02  9.04329138e-02  1.70638470e+00 
-1.68800000e+00  5.60000000e-02  9.04487467e-02  1.70639240e+00 
-1.68700000e+00  5.65000000e-02  9.04645964e-02  1.70640010e+00 
-1.68600000e+00  5.70000000e-02  9.04804628e-02  1.70640780e+00 
-1.68500000e+00  5.75000000e-02  9.04963458e-02  1.70641551e+00 
-1.68400000e+00  5.80000000e-02  9.05122458e-02  1.70642322e+00 
-1.68300000e+00  5.85000000e-02  9.05281623e-02  1.70643093e+00 
-1.68200000e+00  5.90000000e-02  9.05440955e-02  1.70643865e+00 
-1.68100000e+00  5.95000000e-02  9.05600453e-02  1.70644637e+00 
-1.68000000e+00  6.00000000e-02  9.05760118e-02  1.70645409e+00 
-1.67900000e+00  6.05000000e-02  9.05919948e-02  1.70646181e+00 
-1.67800000e+00  6.10000000e-02  9.06079944e-02  1.70646954e+00 
-1.67700000e+00  6.15000000e-02  9.06240105e-02  1.70647726e+00 
-1.67600000e+00  6.20000000e-02  9.06400432e-02  1.70648500e+00 
-1.67500000e+00  6.25000000e-02  9.06560923e-02  1.70649273e+00 
-1.67400000e+00  6.30000000e-02  9.06721580e-02  1.70650046e+00 
-1.67300000e+00  6.35000000e-02  9.06882401e-02  1.70650820e+00 
-1.67200000e+00  6.40000000e-02  9.07043386e-02  1.70651594e+00 
-1.67100000e+00  6.45000000e-02  9.07204535e-02  1.70652369e+00 
-1.67000000e+00  6.50000000e-02  9.07365848e-02  1.70653143e+00 
-1.66900000e+00  6.55000000e-02  9.07527325e-02  1.70653918e+00 
-1.66800000e+00  6.60000000e-02  9.07688965e-02  1.70654693e+00 
-1.66700000e+00  6.65000000e-02  9.07850768e-02  1.70655468e+00 
-1.66600000e+00  6.70000000e-02  9.08012734e-02  1.70656244e+00 
-1.66500000e+00  6.75000000e-02  9.08174862e-02  1.70657019e+00 
-1.66400000e+00  6.80000000e-02  9.08337153e-02  1.70657795e+00 
-1.66300000e+00  6.85000000e-02  9.08499606e-02  1.70658571e+00 
-1.66200000e+00  6.90000000e-02  9.08662220e-02  1.70659347e+00 
-1.66100000e+00  6.95000000e-02  9.08824996e-02  1.70660123e+00 
-1.66000000e+00  7.00000000e-02  9.08987933e-02  1.70660900e+00 
-1.65900000e+00  7.05000000e-02  9.09151031e-02  1.70661676e+00 
-1.65800000e+00  7.10000000e-02  9.09314290e-02  1.70662453e+00 
-1.65700000e+00  7.15000000e-02  9.09477709e-02  1.70663230e+00 
-1.65600000e+00  7.20000000e-02  9.09641288e-02  1.70664007e+00 
-1.65500000e+00  7.25000000e-02  9.09805027e-02  1.70664785e+00 
-1.65400000e+00  7.30000000e-02  9.09968925e-02  1.70665562e+00 
-1.65300000e+00  7.35000000e-02  9.10132983e-02  1.70666340e+00 
-1.65200000e+00  7.40000000e-02  9.10297199e-02  1.70667117e+00 
-1.65100000e+00  7.45000000e-02  9.10461574e-02  1.70667895e+00 
-1.65000000e+00  7.50000000e-02  9.10626108e-02  1.70668673e+00 
-1.64900000e+00  7.55000000e-02  9.10790799e-02  1.70669451e+00 
-1.64800000e+00  7.60000000e-02  9.10955648e-02  1.70670229e+00 
-1.64700000e+00  7.65000000e-02  9.11120654e-02  1.70671007e+00 
-1.64600000e+00  7.70000000e-02  9.11285817e-02  1.70671786e+00 
-1.64500000e+00  7.75000000e-02  9.11451137e-02  1.70672564e+00 
-1.64400000e+00  7.80000000e-02  9.11616614e-02  1.70673342e+00 
-1.64300000e+00  7.85000000e-02  9.11782246e-02  1.70674121e+00 
-1.64200000e+00  7.90000000e-02  9.11948035e-02  1.70674900e+00 
-1.64100000e+00  7.95000000e-02  9.12113978e-02  1.70675678e+00 
-1.64000000e+00  8.00000000e-02  9.12280077e-02  1.70676457e+00 
-1.63900000e+00  8.05000000e-02  9.12446330e-02  1.70677236e+00 
-1.63800000e+00  8.10000000e-02  9.12612738e-02  1.70678015e+00 
-1.63700000e+00  8.15000000e-02  9.12779300e-02  1.70678794e+00 
-1.63600000e+00  8.20000000e-02  9.12946015e-02  1.70679573e+00 
-1.63500000e+00  8.25000000e-02  9.13112884e-02  1.70680351e+00 
-1.63400000e+00  8.30000000e-02  9.13279906e-02  1.70681130e+00 
-1.63300000e+00  8.35000000e-02  9.13447080e-02  1.70681909e+00 
-1.63200000e+00  8.40000000e-02  9.13614407e-02  1.70682688e+00 
-1.63100000e+00  8.45000000e-02  9.13781885e-02  1.70683467e+00 
-1.63000000e+00  8.50000000e-02  9.13949515e-02  1.70684246e+00 
-1.62900000e+00  8.55000000e-02  9.14117296e-02  1.70685025e+00 
-1.62800000e+00  8.60000000e-02  9.14285228e-02  1.70685804e+00 
-1.62700000e+00  8.65000000e-02  9.14453310e-02  1.70686583e+00 
-1.62600000e+00  8.70000000e-02  9.14621542e-02  1.70687362e+00 
-1.62500000e+00  8.75000000e-02  9.14789924e-02  1.70688141e+00 
-1.62400000e+00  8.80000000e-02  9.14958455e-02  1.70688920e+00 
-1.62300000e+00  8.85000000e-02  9.15127135e-02  1.70689698e+00 
-1.62200000e+00  8.90000000e-02  9.15295963e-02  1.70690477e+00 
-1.62100000e+00  8.95000000e-02  9.15464939e-02  1.70691256e+00 
-1.62000000e+00  9.00000000e-02  9.15634063e-02  1.70692034e+00 
-1.61900000e+00  9.05000000e-02  9.15803335e-02  1.70692813e+00 
-1.61800000e+00  9.10000000e-02  9.15972752e-02  1.70693591e+00 
-1.61700000e+00  9.15000000e-02  9.16142317e-02  1.70694369e+00 
-1.61600000e+00  9.20000000e-02  9.16312027e-02  1.70695148e+00 
-1.61500000e+00  9.25000000e-02  9.16481883e-02  1.70695926e+00 
-1.61400000e+00  9.30000000e-02  9.16651884e-02  1.70696704e+00 
-1.61300000e+00  9.35000000e-02  9.16822029e-02  1.70697481e+00 
-1.61200000e+00  9.40000000e-02  9.16992319e-02  1.70698259e+00 
-1.61100000e+00  9.45000000e-02  9.17162753e-02  1.70699037e+00 
-1.61000000e+00  9.50000000e-02  9.17333330e-02  1.70699814e+00 
-1.60900000e+00  9.55000000e-02  9.17504050e-02  1.70700591e+00 
-1.60800000e+00  9.60000000e-02  9.17674913e-02  1.70701368e+00 
-1.60700000e+00  9.65000000e-02  9.17845917e-02  1.70702145e+00 
-1.60600000e+00  9.70000000e-02  9.18017063e-02  1.70702922e+00 
-1.60500000e+00  9.75000000e-02  9.18188351e-02  1.70703699e+00 
-1.60400000e+00  9.80000000e-02  9.18359779e-02  1.70704475e+00 
-1.60300000e+00  9.85000000e-02  9.18531347e-02  1.70705251e+00 
-1.60200000e+00  9.90000000e-02  9.18703055e-02  1.70706027e+00 
-1.60100000e+00  9.95000000e-02  9.18874902e-02  1.70706803e+00 
-1.60000000e+00  1.00000000e-01  9.19046888e-02  1.70707579e+00 
-1.59900000e+00  1.00500000e-01  9.19219013e-02  1.70708354e+00 
-1.59800000e+00  1.01000000e-01  9.19391275e-02  1.70709129e+00 
-1.59700000e+00  1.01500000e-01  9.19563675e-02  1.70709904e+00 
-1.59600000e+00  1.02000000e-01  9.19736211e-02  1.70710679e+00 
-1.59500000e+00  1.02500000e-01  9.19908884e-02  1.70711453e+00 
-1.59400000e+00  1.03000000e-01  9.20081693e-02  1.70712227e+00 
-1.59300000e+00  1.03500000e-01  9.20254637e-02  1.70713001e+00 
-1.59200000e+00  1.04000000e-01  9.20427716e-02  1.70713774e+00 
-1.59100000e+00  1.04500000e-01  9.20600929e-02  1.70714548e+00 
-1.59000000e+00  1.05000000e-01  9.20774277e-02  1.70715321e+00 
-1.58900000e+00  1.05500000e-01  9.20947757e-02  1.70716093e+00 
-1.58800000e+00  1.06000000e-01  9.21121371e-02  1.70716865e+00 
-1.58700000e+00  1.06500000e-01  9.21295116e-02  1.70717637e+00 
-1.58600000e+00  1.07000000e-01  9.21468994e-02  1.70718409e+00 
-1.58500000e+00  1.07500000e-01  9.21643003e-02  1.70719180e+00 
-1.58400000e+00  1.08000000e-01  9.21817142e-02  1.70719951e+00 
-1.58300000e+00  1.08500000e-01  9.21991412e-02  1.70720722e+00 
-1.58200000e+00  1.09000000e-01  9.22165811e-02  1.70721492e+00 
-1.58100000e+00  1.09500000e-01  9.22340340e-02  1.70722262e+00 
-1.58000000e+00  1.10000000e-01  9.22514997e-02  1.70723031e+00 
-1.57900000e+00  1.10500000e-01  9.22689782e-02  1.70723801e+00 
-1.57800000e+00  1.11000000e-01  9.22864694e-02  1.70724569e+00 
-1.57700000e+00  1.11500000e-01  9.23039733e-02  1.70725338e+00 
-1.57600000e+00  1.12000000e-01  9.23214899e-02  1.70726105e+00 
-1.57500000e+00  1.12500000e-01  9.23390190e-02  1.70726873e+00 
-1.57400000e+00  1.13000000e-01  9.23565607e-02  1.70727640e+00 
-1.57300000e+00  1.13500000e-01  9.23741148e-02  1.70728406e+00 
-1.57200000e+00  1.14000000e-01  9.23916814e-02  1.70729172e+00 
-1.57100000e+00  1.14500000e-01  9.24092602e-02  1.70729938e+00 
-1.57000000e+00  1.15000000e-01  9.24268514e-02  1.70730703e+00 
-1.56900000e+00  1.15500000e-01  9.24444548e-02  1.70731468e+00 
-1.56800000e+00  1.16000000e-01  9.24620704e-02  1.70732232e+00 
-1.56700000e+00  1.16500000e-01  9.24796980e-02  1.70732996e+00 
-1.56600000e+00  1.17000000e-01  9.24973378e-02  1.70733759e+00 
-1.56500000e+00  1.17500000e-01  9.25149895e-02  1.70734521e+00 
-1.56400000e+00  1.18000000e-01  9.25326531e-02  1.70735284e+00 
-1.56300000e+00  1.18500000e-01  9.25503286e-02  1.70736045e+00 
-1.56200000e+00  1.19000000e-01  9.25680160e-02  1.70736806e+00 
-1.56100000e+00  1.19500000e-01  9.25857150e-02  1.70737567e+00 
-1.56000000e+00  1.20000000e-01  9.26034258e-02  1.70738327e+00 
-1.55900000e+00  1.20500000e-01  9.26211481e-02  1.70739086e+00 
-1.55800000e+00  1.21000000e-01  9.26388821e-02  1.70739845e+00 
-1.55700000e+00  1.21500000e-01  9.26566275e-02  1.70740603e+00 
-1.55600000e+00  1.22000000e-01  9.26743844e-02  1.70741360e+00 
-1.55500000e+00  1.22500000e-01  9.26921526e-02  1.70742117e+00 
-1.55400000e+00  1.23000000e-01  9.27099321e-02  1.70742874e+00 
-1.55300000e+00  1.23500000e-01  9.27277229e-02  1.70743629e+00 
-1.55200000e+00  1.24000000e-01  9.27455248e-02  1.70744384e+00 
-1.55100000e+00  1.24500000e-01  9.27633379e-02  1.70745139e+00 
-1.55000000e+00  1.25000000e-01  9.27811620e-02  1.70745893e+00 
-1.54900000e+00  1.25500000e-01  9.27989970e-02  1.70746646e+00 
-1.54800000e+00  1.26000000e-01  9.28168430e-02  1.70747398e+00 
-1.54700000e+00  1.26500000e-01  9.28346998e-02  1.70748150e+00 
-1.54600000e+00  1.27000000e-01  9.28525674e-02  1.70748901e+00 
-1.54500000e+00  1.27500000e-01  9.28704457e-02  1.70749651e+00 
-1.54400000e+00  1.28000000e-01  9.28883347e-02  1.70750400e+00 
-1.54300000e+00  1.28500000e-01  9.29062342e-02  1.70751149e+00 
-1.54200000e+00  1.29000000e-01  9.29241442e-02  1.70751897e+00 
-1.54100000e+00  1.29500000e-01  9.29420646e-02  1.70752645e+00 
-1.54000000e+00  1.30000000e-01  9.29599955e-02  1.70753391e+00 
-1.53900000e+00  1.30500000e-01  9.29779366e-02  1.70754137e+00 
-1.53800000e+00  1.31000000e-01  9.29958879e-02  1.70754882e+00 
-1.53700000e+00  1.31500000e-01  9.30138494e-02  1.70755626e+00 
-1.53600000e+00  1.32000000e-01  9.30318210e-02  1.70756369e+00 
-1.53500000e+00  1.32500000e-01  9.30498026e-02  1.70757112e+00 
-1.53400000e+00  1.33000000e-01  9.30677941e-02  1.70757854e+00 
-1.53300000e+00  1.33500000e-01  9.30857955e-02  1.70758595e+00 
-1.53200000e+00  1.34000000e-01  9.31038067e-02  1.70759335e+00 
-1.53100000e+00  1.34500000e-01  9.31218276e-02  1.70760074e+00 
-1.53000000e+00  1.35000000e-01  9.31398582e-02  1.70760812e+00 
-1.52900000e+00  1.35500000e-01  9.31578983e-02  1.70761549e+00 
-1.52800000e+00  1.36000000e-01  9.31759480e-02  1.70762286e+00 
-1.52700000e+00  1.36500000e-01  9.31940070e-02  1.70763022e+00 
-1.52600000e+00  1.37000000e-01  9.32120755e-02  1.70763756e+00 
-1.52500000e+00  1.37500000e-01  9.32301532e-02  1.70764490e+00 
-1.52400000e+00  1.38000000e-01  9.32482401e-02  1.70765223e+00 
-1.52300000e+00  1.38500000e-01  9.32663362e-02  1.70765955e+00 
-1.52200000e+00  1.39000000e-01  9.32844413e-02  1.70766686e+00 
-1.52100000e+00  1.39500000e-01  9.33025554e-02  1.70767416e+00 
-1.52000000e+00  1.40000000e-01  9.33206784e-02  1.70768145e+00 
-1.51900000e+00  1.40500000e-01  9.33388102e-02  1.70768873e+00 
-1.51800000e+00  1.41000000e-01  9.33569508e-02  1.70769600e+00 
-1.51700000e+00  1.41500000e-01  9.33751001e-02  1.70770325e+00 
-1.51600000e+00  1.42000000e-01  9.33932579e-02  1.70771050e+00 
-1.51500000e+00  1.42500000e-01  9.34114243e-02  1.70771774e+00 
-1.51400000e+00  1.43000000e-01  9.34295991e-02  1.70772497e+00 
-1.51300000e+00  1.43500000e-01  9.34477822e-02  1.70773219e+00 
-1.51200000e+00  1.44000000e-01  9.34659737e-02  1.70773939e+00 
-1.51100000e+00  1.44500000e-01  9.34841733e-02  1.70774659e+00 
-1.51000000e+00  1.45000000e-01  9.35023811e-02  1.70775378e+00 
-1.50900000e+00  1.45500000e-01  9.35205969e-02  1.70776095e+00 
-1.50800000e+00  1.46000000e-01  9.35388207e-02  1.70776811e+00 
-1.50700000e+00  1.46500000e-01  9.35570523e-02  1.70777526e+00 
-1.50600000e+00  1.47000000e-01  9.35752918e-02  1.70778240e+00 
-1.50500000e+00  1.47500000e-01  9.35935390e-02  1.70778953e+00 
-1.50400000e+00  1.48000000e-01  9.36117938e-02  1.70779665e+00 
-1.50300000e+00  1.48500000e-01  9.36300562e-02  1.70780375e+00 
-1.50200000e+00  1.49000000e-01  9.36483259e-02  1.70781084e+00 
-1.50100000e+00  1.49500000e-01  9.36666032e-02  1.70781792e+00 
-1.50000000e+00  1.50000000e-01  9.36848878e-02  1.70782499e+00 
-1.49900000e+00  1.50500000e-01  9.37031796e-02  1.70783205e+00 
-1.49800000e+00  1.51000000e-01  9.37214785e-02  1.70783909e+00 
-1.49700000e+00  1.51500000e-01  9.37397845e-02  1.70784612e+00 
-1.49600000e+00  1.52000000e-01  9.37580975e-02  1.70785314e+00 
-1.49500000e+00  1.52500000e-01  9.37764173e-02  1.70786015e+00 
