 frequency       v(Adm_dB)       v(Adm_arg)      v(Acm_dB)       v(Acm_arg)      v(CMRR_dB)      v(CMRR_arg)    
 1.00000000e-01  3.10505503e+01 -1.12650996e-05 -1.23496987e+01 -1.35268853e-07  4.34002491e+01 -1.11298308e-05 
 1.02305973e-01  3.10505503e+01 -1.15248698e-05 -1.23496987e+01 -1.38388116e-07  4.34002491e+01 -1.13864816e-05 
 1.04665121e-01  3.10505503e+01 -1.17906301e-05 -1.23496987e+01 -1.41579308e-07  4.34002491e+01 -1.16490508e-05 
 1.07078670e-01  3.10505503e+01 -1.20625189e-05 -1.23496987e+01 -1.44844089e-07  4.34002491e+01 -1.19176748e-05 
 1.09547876e-01  3.10505503e+01 -1.23406773e-05 -1.23496987e+01 -1.48184155e-07  4.34002491e+01 -1.21924932e-05 
 1.12074020e-01  3.10505503e+01 -1.26252500e-05 -1.23496987e+01 -1.51601241e-07  4.34002491e+01 -1.24736488e-05 
 1.14658417e-01  3.10505503e+01 -1.29163849e-05 -1.23496987e+01 -1.55097125e-07  4.34002491e+01 -1.27612877e-05 
 1.17302409e-01  3.10505503e+01 -1.32142332e-05 -1.23496987e+01 -1.58673623e-07  4.34002491e+01 -1.30555596e-05 
 1.20007371e-01  3.10505503e+01 -1.35189499e-05 -1.23496987e+01 -1.62332593e-07  4.34002491e+01 -1.33566173e-05 
 1.22774708e-01  3.10505503e+01 -1.38306932e-05 -1.23496987e+01 -1.66075939e-07  4.34002491e+01 -1.36646172e-05 
 1.25605860e-01  3.10505503e+01 -1.41496252e-05 -1.23496987e+01 -1.69905606e-07  4.34002491e+01 -1.39797196e-05 
 1.28502297e-01  3.10505503e+01 -1.44759118e-05 -1.23496987e+01 -1.73823583e-07  4.34002491e+01 -1.43020882e-05 
 1.31465525e-01  3.10505503e+01 -1.48097224e-05 -1.23496987e+01 -1.77831908e-07  4.34002491e+01 -1.46318905e-05 
 1.34497085e-01  3.10505503e+01 -1.51512306e-05 -1.23496987e+01 -1.81932663e-07  4.34002491e+01 -1.49692979e-05 
 1.37598551e-01  3.10505503e+01 -1.55006139e-05 -1.23496987e+01 -1.86127982e-07  4.34002491e+01 -1.53144859e-05 
 1.40771537e-01  3.10505503e+01 -1.58580538e-05 -1.23496987e+01 -1.90420043e-07  4.34002491e+01 -1.56676338e-05 
 1.44017690e-01  3.10505503e+01 -1.62237363e-05 -1.23496987e+01 -1.94811077e-07  4.34002491e+01 -1.60289252e-05 
 1.47338699e-01  3.10505503e+01 -1.65978512e-05 -1.23496987e+01 -1.99303368e-07  4.34002491e+01 -1.63985479e-05 
 1.50736290e-01  3.10505503e+01 -1.69805932e-05 -1.23496987e+01 -2.03899250e-07  4.34002491e+01 -1.67766940e-05 
 1.54212228e-01  3.10505503e+01 -1.73721611e-05 -1.23496987e+01 -2.08601112e-07  4.34002491e+01 -1.71635600e-05 
 1.57768320e-01  3.10505503e+01 -1.77727584e-05 -1.23496987e+01 -2.13411397e-07  4.34002491e+01 -1.75593470e-05 
 1.61406415e-01  3.10505503e+01 -1.81825934e-05 -1.23496987e+01 -2.18332606e-07  4.34002491e+01 -1.79642608e-05 
 1.65128404e-01  3.10505503e+01 -1.86018791e-05 -1.23496987e+01 -2.23367297e-07  4.34002491e+01 -1.83785118e-05 
 1.68936220e-01  3.10505503e+01 -1.90308334e-05 -1.23496987e+01 -2.28518086e-07  4.34002491e+01 -1.88023154e-05 
 1.72831844e-01  3.10505503e+01 -1.94696793e-05 -1.23496987e+01 -2.33787652e-07  4.34002491e+01 -1.92358917e-05 
 1.76817299e-01  3.10505503e+01 -1.99186449e-05 -1.23496987e+01 -2.39178732e-07  4.34002491e+01 -1.96794661e-05 
 1.80894658e-01  3.10505503e+01 -2.03779634e-05 -1.23496987e+01 -2.44694129e-07  4.34002491e+01 -2.01332693e-05 
 1.85066040e-01  3.10505503e+01 -2.08478738e-05 -1.23496987e+01 -2.50336709e-07  4.34002491e+01 -2.05975371e-05 
 1.89333613e-01  3.10505503e+01 -2.13286201e-05 -1.23496987e+01 -2.56109406e-07  4.34002491e+01 -2.10725107e-05 
 1.93699595e-01  3.10505503e+01 -2.18204523e-05 -1.23496987e+01 -2.62015220e-07  4.34002491e+01 -2.15584371e-05 
 1.98166255e-01  3.10505503e+01 -2.23236261e-05 -1.23496987e+01 -2.68057220e-07  4.34002491e+01 -2.20555688e-05 
 2.02735916e-01  3.10505503e+01 -2.28384029e-05 -1.23496987e+01 -2.74238547e-07  4.34002491e+01 -2.25641643e-05 
 2.07410951e-01  3.10505503e+01 -2.33650502e-05 -1.23496987e+01 -2.80562414e-07  4.34002491e+01 -2.30844878e-05 
 2.12193792e-01  3.10505503e+01 -2.39038420e-05 -1.23496987e+01 -2.87032107e-07  4.34002491e+01 -2.36168099e-05 
 2.17086923e-01  3.10505503e+01 -2.44550581e-05 -1.23496987e+01 -2.93650990e-07  4.34002491e+01 -2.41614071e-05 
 2.22092889e-01  3.10505503e+01 -2.50189852e-05 -1.23496987e+01 -3.00422503e-07  4.34002491e+01 -2.47185627e-05 
 2.27214291e-01  3.10505503e+01 -2.55959162e-05 -1.23496987e+01 -3.07350164e-07  4.34002491e+01 -2.52885660e-05 
 2.32453791e-01  3.10505503e+01 -2.61861511e-05 -1.23496987e+01 -3.14437576e-07  4.34002491e+01 -2.58717135e-05 
 2.37814113e-01  3.10505503e+01 -2.67899967e-05 -1.23496987e+01 -3.21688422e-07  4.34002491e+01 -2.64683083e-05 
 2.43298042e-01  3.10505503e+01 -2.74077668e-05 -1.23496987e+01 -3.29106470e-07  4.34002491e+01 -2.70786603e-05 
 2.48908429e-01  3.10505503e+01 -2.80397825e-05 -1.23496987e+01 -3.36695576e-07  4.34002491e+01 -2.77030869e-05 
 2.54648190e-01  3.10505503e+01 -2.86863723e-05 -1.23496987e+01 -3.44459685e-07  4.34002491e+01 -2.83419126e-05 
 2.60520309e-01  3.10505503e+01 -2.93478723e-05 -1.23496987e+01 -3.52402832e-07  4.34002491e+01 -2.89954694e-05 
 2.66527837e-01  3.10505503e+01 -3.00246263e-05 -1.23496987e+01 -3.60529147e-07  4.34002491e+01 -2.96640971e-05 
 2.72673897e-01  3.10505503e+01 -3.07169861e-05 -1.23496987e+01 -3.68842851e-07  4.34002491e+01 -3.03481432e-05 
 2.78961683e-01  3.10505503e+01 -3.14253115e-05 -1.23496987e+01 -3.77348268e-07  4.34002491e+01 -3.10479632e-05 
 2.85394464e-01  3.10505503e+01 -3.21499706e-05 -1.23496987e+01 -3.86049817e-07  4.34002491e+01 -3.17639208e-05 
 2.91975583e-01  3.10505503e+01 -3.28913403e-05 -1.23496987e+01 -3.94952021e-07  4.34002491e+01 -3.24963883e-05 
 2.98708461e-01  3.10505503e+01 -3.36498057e-05 -1.23496987e+01 -4.04059508e-07  4.34002491e+01 -3.32457462e-05 
 3.05596598e-01  3.10505503e+01 -3.44257611e-05 -1.23496987e+01 -4.13377011e-07  4.34002491e+01 -3.40123841e-05 
 3.12643573e-01  3.10505503e+01 -3.52196099e-05 -1.23496987e+01 -4.22909374e-07  4.34002491e+01 -3.47967005e-05 
 3.19853049e-01  3.10505503e+01 -3.60317646e-05 -1.23496987e+01 -4.32661550e-07  4.34002491e+01 -3.55991030e-05 
 3.27228774e-01  3.10505503e+01 -3.68626473e-05 -1.23496987e+01 -4.42638608e-07  4.34002491e+01 -3.64200087e-05 
 3.34774581e-01  3.10505503e+01 -3.77126900e-05 -1.23496987e+01 -4.52845735e-07  4.34002491e+01 -3.72598443e-05 
 3.42494392e-01  3.10505503e+01 -3.85823345e-05 -1.23496987e+01 -4.63288235e-07  4.34002491e+01 -3.81190462e-05 
 3.50392221e-01  3.10505503e+01 -3.94720327e-05 -1.23496987e+01 -4.73971537e-07  4.34002491e+01 -3.89980611e-05 
 3.58472171e-01  3.10505503e+01 -4.03822471e-05 -1.23496987e+01 -4.84901192e-07  4.34002491e+01 -3.98973459e-05 
 3.66738442e-01  3.10505503e+01 -4.13134508e-05 -1.23496987e+01 -4.96082883e-07  4.34002491e+01 -4.08173679e-05 
 3.75195331e-01  3.10505503e+01 -4.22661278e-05 -1.23496987e+01 -5.07522420e-07  4.34002491e+01 -4.17586054e-05 
 3.83847234e-01  3.10505503e+01 -4.32407733e-05 -1.23496987e+01 -5.19225750e-07  4.34002491e+01 -4.27215475e-05 
 3.92698648e-01  3.10505503e+01 -4.42378938e-05 -1.23496987e+01 -5.31198955e-07  4.34002491e+01 -4.37066949e-05 
 4.01754173e-01  3.10505503e+01 -4.52580077e-05 -1.23496987e+01 -5.43448260e-07  4.34002491e+01 -4.47145595e-05 
 4.11018515e-01  3.10505503e+01 -4.63016452e-05 -1.23496987e+01 -5.55980030e-07  4.34002491e+01 -4.57456651e-05 
 4.20496491e-01  3.10505503e+01 -4.73693486e-05 -1.23496987e+01 -5.68800779e-07  4.34002491e+01 -4.68005478e-05 
 4.30193027e-01  3.10505503e+01 -4.84616730e-05 -1.23496987e+01 -5.81917171e-07  4.34002491e+01 -4.78797558e-05 
 4.40113162e-01  3.10505503e+01 -4.95791861e-05 -1.23496987e+01 -5.95336024e-07  4.34002491e+01 -4.89838500e-05 
 4.50262052e-01  3.10505503e+01 -5.07224687e-05 -1.23496987e+01 -6.09064312e-07  4.34002491e+01 -5.01134044e-05 
 4.60644974e-01  3.10505503e+01 -5.18921151e-05 -1.23496987e+01 -6.23109170e-07  4.34002491e+01 -5.12690059e-05 
 4.71267322e-01  3.10505503e+01 -5.30887333e-05 -1.23496987e+01 -6.37477900e-07  4.34002491e+01 -5.24512554e-05 
 4.82134619e-01  3.10505503e+01 -5.43129451e-05 -1.23496987e+01 -6.52177968e-07  4.34002491e+01 -5.36607671e-05 
 4.93252513e-01  3.10505503e+01 -5.55653870e-05 -1.23496987e+01 -6.67217016e-07  4.34002491e+01 -5.48981699e-05 
 5.04626783e-01  3.10505503e+01 -5.68467098e-05 -1.23496987e+01 -6.82602860e-07  4.34002491e+01 -5.61641069e-05 
 5.16263340e-01  3.10505503e+01 -5.81575795e-05 -1.23496987e+01 -6.98343497e-07  4.34002491e+01 -5.74592360e-05 
 5.28168234e-01  3.10505503e+01 -5.94986776e-05 -1.23496987e+01 -7.14447110e-07  4.34002491e+01 -5.87842305e-05 
 5.40347650e-01  3.10505503e+01 -6.08707010e-05 -1.23496987e+01 -7.30922067e-07  4.34002491e+01 -6.01397790e-05 
 5.52807921e-01  3.10505503e+01 -6.22743630e-05 -1.23496987e+01 -7.47776932e-07  4.34002491e+01 -6.15265860e-05 
 5.65555523e-01  3.10505503e+01 -6.37103930e-05 -1.23496987e+01 -7.65020466e-07  4.34002491e+01 -6.29453725e-05 
 5.78597080e-01  3.10505503e+01 -6.51795374e-05 -1.23496987e+01 -7.82661632e-07  4.34002491e+01 -6.43968758e-05 
 5.91939372e-01  3.10505503e+01 -6.66825599e-05 -1.23496987e+01 -8.00709597e-07  4.34002491e+01 -6.58818503e-05 
 6.05589334e-01  3.10505503e+01 -6.82202417e-05 -1.23496987e+01 -8.19173744e-07  4.34002491e+01 -6.74010680e-05 
 6.19554061e-01  3.10505503e+01 -6.97933821e-05 -1.23496987e+01 -8.38063670e-07  4.34002491e+01 -6.89553184e-05 
 6.33840810e-01  3.10505503e+01 -7.14027986e-05 -1.23496987e+01 -8.57389191e-07  4.34002491e+01 -7.05454094e-05 
 6.48457008e-01  3.10505503e+01 -7.30493279e-05 -1.23496987e+01 -8.77160355e-07  4.34002491e+01 -7.21721675e-05 
 6.63410251e-01  3.10505503e+01 -7.47338256e-05 -1.23496987e+01 -8.97387435e-07  4.34002491e+01 -7.38364382e-05 
 6.78708313e-01  3.10505503e+01 -7.64571675e-05 -1.23496987e+01 -9.18080947e-07  4.34002491e+01 -7.55390865e-05 
 6.94359143e-01  3.10505503e+01 -7.82202491e-05 -1.23496987e+01 -9.39251646e-07  4.34002491e+01 -7.72809974e-05 
 7.10370877e-01  3.10505503e+01 -8.00239869e-05 -1.23496987e+01 -9.60910535e-07  4.34002491e+01 -7.90630764e-05 
 7.26751838e-01  3.10505503e+01 -8.18693184e-05 -1.23496987e+01 -9.83068872e-07  4.34002491e+01 -8.08862495e-05 
 7.43510539e-01  3.10505503e+01 -8.37572028e-05 -1.23496987e+01 -1.00573817e-06  4.34002491e+01 -8.27514646e-05 
 7.60655691e-01  3.10505503e+01 -8.56886213e-05 -1.23496987e+01 -1.02893023e-06  4.34002491e+01 -8.46596910e-05 
 7.78196206e-01  3.10505503e+01 -8.76645777e-05 -1.23496987e+01 -1.05265708e-06  4.34002491e+01 -8.66119206e-05 
 7.96141200e-01  3.10505503e+01 -8.96860992e-05 -1.23496987e+01 -1.07693107e-06  4.34002491e+01 -8.86091681e-05 
 8.14500001e-01  3.10505503e+01 -9.17542364e-05 -1.23496987e+01 -1.10176481e-06  4.34002491e+01 -9.06524716e-05 
 8.33282151e-01  3.10505503e+01 -9.38700643e-05 -1.23496987e+01 -1.12717120e-06  4.34002491e+01 -9.27428931e-05 
 8.52497412e-01  3.10505503e+01 -9.60346826e-05 -1.23496987e+01 -1.15316347e-06  4.34002491e+01 -9.48815192e-05 
 8.72155772e-01  3.10505503e+01 -9.82492165e-05 -1.23496987e+01 -1.17975511e-06  4.34002491e+01 -9.70694614e-05 
 8.92267449e-01  3.10505503e+01 -1.00514817e-04 -1.23496987e+01 -1.20695994e-06  4.34002491e+01 -9.93078569e-05 
 9.12842895e-01  3.10505503e+01 -1.02832661e-04 -1.23496987e+01 -1.23479211e-06  4.34002491e+01 -1.01597869e-04 
 9.33892805e-01  3.10505503e+01 -1.05203955e-04 -1.23496987e+01 -1.26326608e-06  4.34002491e+01 -1.03940689e-04 
 9.55428121e-01  3.10505503e+01 -1.07629930e-04 -1.23496987e+01 -1.29239666e-06  4.34002491e+01 -1.06337533e-04 
 9.77460036e-01  3.10505503e+01 -1.10111847e-04 -1.23496987e+01 -1.32219898e-06  4.34002491e+01 -1.08789648e-04 
 1.00000000e+00  3.10505503e+01 -1.12650996e-04 -1.23496987e+01 -1.35268853e-06  4.34002491e+01 -1.11298308e-04 
 1.02305973e+00  3.10505503e+01 -1.15248698e-04 -1.23496987e+01 -1.38388116e-06  4.34002491e+01 -1.13864816e-04 
 1.04665121e+00  3.10505503e+01 -1.17906301e-04 -1.23496987e+01 -1.41579308e-06  4.34002491e+01 -1.16490508e-04 
 1.07078670e+00  3.10505503e+01 -1.20625189e-04 -1.23496987e+01 -1.44844089e-06  4.34002491e+01 -1.19176748e-04 
 1.09547876e+00  3.10505503e+01 -1.23406773e-04 -1.23496987e+01 -1.48184155e-06  4.34002491e+01 -1.21924932e-04 
 1.12074020e+00  3.10505503e+01 -1.26252500e-04 -1.23496987e+01 -1.51601241e-06  4.34002491e+01 -1.24736488e-04 
 1.14658417e+00  3.10505503e+01 -1.29163849e-04 -1.23496987e+01 -1.55097125e-06  4.34002491e+01 -1.27612877e-04 
 1.17302409e+00  3.10505503e+01 -1.32142332e-04 -1.23496987e+01 -1.58673623e-06  4.34002491e+01 -1.30555596e-04 
 1.20007371e+00  3.10505503e+01 -1.35189499e-04 -1.23496987e+01 -1.62332593e-06  4.34002491e+01 -1.33566173e-04 
 1.22774708e+00  3.10505503e+01 -1.38306932e-04 -1.23496987e+01 -1.66075939e-06  4.34002491e+01 -1.36646172e-04 
 1.25605860e+00  3.10505503e+01 -1.41496252e-04 -1.23496987e+01 -1.69905606e-06  4.34002491e+01 -1.39797196e-04 
 1.28502297e+00  3.10505503e+01 -1.44759118e-04 -1.23496987e+01 -1.73823583e-06  4.34002491e+01 -1.43020882e-04 
 1.31465525e+00  3.10505503e+01 -1.48097224e-04 -1.23496987e+01 -1.77831908e-06  4.34002491e+01 -1.46318905e-04 
 1.34497085e+00  3.10505503e+01 -1.51512306e-04 -1.23496987e+01 -1.81932663e-06  4.34002491e+01 -1.49692979e-04 
 1.37598551e+00  3.10505503e+01 -1.55006139e-04 -1.23496987e+01 -1.86127982e-06  4.34002491e+01 -1.53144859e-04 
 1.40771537e+00  3.10505503e+01 -1.58580538e-04 -1.23496987e+01 -1.90420043e-06  4.34002491e+01 -1.56676338e-04 
 1.44017690e+00  3.10505503e+01 -1.62237363e-04 -1.23496987e+01 -1.94811077e-06  4.34002491e+01 -1.60289252e-04 
 1.47338699e+00  3.10505503e+01 -1.65978512e-04 -1.23496987e+01 -1.99303368e-06  4.34002491e+01 -1.63985479e-04 
 1.50736290e+00  3.10505503e+01 -1.69805932e-04 -1.23496987e+01 -2.03899250e-06  4.34002491e+01 -1.67766940e-04 
 1.54212228e+00  3.10505503e+01 -1.73721611e-04 -1.23496987e+01 -2.08601112e-06  4.34002491e+01 -1.71635600e-04 
 1.57768320e+00  3.10505503e+01 -1.77727584e-04 -1.23496987e+01 -2.13411397e-06  4.34002491e+01 -1.75593470e-04 
 1.61406415e+00  3.10505503e+01 -1.81825934e-04 -1.23496987e+01 -2.18332606e-06  4.34002491e+01 -1.79642608e-04 
 1.65128404e+00  3.10505503e+01 -1.86018791e-04 -1.23496987e+01 -2.23367297e-06  4.34002491e+01 -1.83785118e-04 
 1.68936220e+00  3.10505503e+01 -1.90308334e-04 -1.23496987e+01 -2.28518086e-06  4.34002491e+01 -1.88023154e-04 
 1.72831844e+00  3.10505503e+01 -1.94696793e-04 -1.23496987e+01 -2.33787652e-06  4.34002491e+01 -1.92358917e-04 
 1.76817299e+00  3.10505503e+01 -1.99186449e-04 -1.23496987e+01 -2.39178732e-06  4.34002491e+01 -1.96794661e-04 
 1.80894658e+00  3.10505503e+01 -2.03779634e-04 -1.23496987e+01 -2.44694129e-06  4.34002491e+01 -2.01332693e-04 
 1.85066040e+00  3.10505503e+01 -2.08478738e-04 -1.23496987e+01 -2.50336709e-06  4.34002491e+01 -2.05975371e-04 
 1.89333613e+00  3.10505503e+01 -2.13286201e-04 -1.23496987e+01 -2.56109406e-06  4.34002491e+01 -2.10725107e-04 
 1.93699595e+00  3.10505503e+01 -2.18204523e-04 -1.23496987e+01 -2.62015220e-06  4.34002491e+01 -2.15584371e-04 
 1.98166255e+00  3.10505503e+01 -2.23236261e-04 -1.23496987e+01 -2.68057220e-06  4.34002491e+01 -2.20555688e-04 
 2.02735916e+00  3.10505503e+01 -2.28384028e-04 -1.23496987e+01 -2.74238547e-06  4.34002491e+01 -2.25641643e-04 
 2.07410951e+00  3.10505503e+01 -2.33650502e-04 -1.23496987e+01 -2.80562414e-06  4.34002491e+01 -2.30844878e-04 
 2.12193792e+00  3.10505503e+01 -2.39038420e-04 -1.23496987e+01 -2.87032107e-06  4.34002491e+01 -2.36168099e-04 
 2.17086923e+00  3.10505503e+01 -2.44550581e-04 -1.23496987e+01 -2.93650990e-06  4.34002491e+01 -2.41614071e-04 
 2.22092889e+00  3.10505503e+01 -2.50189852e-04 -1.23496987e+01 -3.00422503e-06  4.34002491e+01 -2.47185627e-04 
 2.27214291e+00  3.10505503e+01 -2.55959162e-04 -1.23496987e+01 -3.07350164e-06  4.34002491e+01 -2.52885660e-04 
 2.32453791e+00  3.10505503e+01 -2.61861511e-04 -1.23496987e+01 -3.14437576e-06  4.34002491e+01 -2.58717135e-04 
 2.37814113e+00  3.10505503e+01 -2.67899967e-04 -1.23496987e+01 -3.21688422e-06  4.34002491e+01 -2.64683083e-04 
 2.43298042e+00  3.10505503e+01 -2.74077668e-04 -1.23496987e+01 -3.29106470e-06  4.34002491e+01 -2.70786603e-04 
 2.48908429e+00  3.10505503e+01 -2.80397825e-04 -1.23496987e+01 -3.36695576e-06  4.34002491e+01 -2.77030869e-04 
 2.54648190e+00  3.10505503e+01 -2.86863723e-04 -1.23496987e+01 -3.44459685e-06  4.34002491e+01 -2.83419126e-04 
 2.60520309e+00  3.10505503e+01 -2.93478723e-04 -1.23496987e+01 -3.52402832e-06  4.34002491e+01 -2.89954694e-04 
 2.66527837e+00  3.10505503e+01 -3.00246263e-04 -1.23496987e+01 -3.60529147e-06  4.34002491e+01 -2.96640971e-04 
 2.72673897e+00  3.10505503e+01 -3.07169861e-04 -1.23496987e+01 -3.68842851e-06  4.34002491e+01 -3.03481432e-04 
 2.78961683e+00  3.10505503e+01 -3.14253115e-04 -1.23496987e+01 -3.77348268e-06  4.34002491e+01 -3.10479632e-04 
 2.85394464e+00  3.10505503e+01 -3.21499706e-04 -1.23496987e+01 -3.86049817e-06  4.34002491e+01 -3.17639208e-04 
 2.91975583e+00  3.10505503e+01 -3.28913403e-04 -1.23496987e+01 -3.94952021e-06  4.34002491e+01 -3.24963883e-04 
 2.98708461e+00  3.10505503e+01 -3.36498057e-04 -1.23496987e+01 -4.04059508e-06  4.34002491e+01 -3.32457462e-04 
 3.05596598e+00  3.10505503e+01 -3.44257611e-04 -1.23496987e+01 -4.13377011e-06  4.34002491e+01 -3.40123841e-04 
 3.12643573e+00  3.10505503e+01 -3.52196099e-04 -1.23496987e+01 -4.22909374e-06  4.34002491e+01 -3.47967005e-04 
 3.19853049e+00  3.10505503e+01 -3.60317646e-04 -1.23496987e+01 -4.32661550e-06  4.34002491e+01 -3.55991030e-04 
 3.27228774e+00  3.10505503e+01 -3.68626473e-04 -1.23496987e+01 -4.42638608e-06  4.34002491e+01 -3.64200087e-04 
 3.34774581e+00  3.10505503e+01 -3.77126900e-04 -1.23496987e+01 -4.52845735e-06  4.34002491e+01 -3.72598443e-04 
 3.42494392e+00  3.10505503e+01 -3.85823345e-04 -1.23496987e+01 -4.63288235e-06  4.34002491e+01 -3.81190462e-04 
 3.50392221e+00  3.10505503e+01 -3.94720327e-04 -1.23496987e+01 -4.73971537e-06  4.34002491e+01 -3.89980611e-04 
 3.58472171e+00  3.10505503e+01 -4.03822471e-04 -1.23496987e+01 -4.84901192e-06  4.34002491e+01 -3.98973459e-04 
 3.66738442e+00  3.10505503e+01 -4.13134508e-04 -1.23496987e+01 -4.96082883e-06  4.34002491e+01 -4.08173679e-04 
 3.75195331e+00  3.10505503e+01 -4.22661278e-04 -1.23496987e+01 -5.07522420e-06  4.34002491e+01 -4.17586054e-04 
 3.83847234e+00  3.10505503e+01 -4.32407733e-04 -1.23496987e+01 -5.19225750e-06  4.34002491e+01 -4.27215475e-04 
 3.92698648e+00  3.10505503e+01 -4.42378938e-04 -1.23496987e+01 -5.31198955e-06  4.34002491e+01 -4.37066949e-04 
 4.01754173e+00  3.10505503e+01 -4.52580077e-04 -1.23496987e+01 -5.43448260e-06  4.34002491e+01 -4.47145595e-04 
 4.11018515e+00  3.10505503e+01 -4.63016452e-04 -1.23496987e+01 -5.55980030e-06  4.34002491e+01 -4.57456651e-04 
 4.20496491e+00  3.10505503e+01 -4.73693486e-04 -1.23496987e+01 -5.68800779e-06  4.34002491e+01 -4.68005478e-04 
 4.30193027e+00  3.10505503e+01 -4.84616730e-04 -1.23496987e+01 -5.81917171e-06  4.34002491e+01 -4.78797558e-04 
 4.40113162e+00  3.10505503e+01 -4.95791861e-04 -1.23496987e+01 -5.95336024e-06  4.34002491e+01 -4.89838500e-04 
 4.50262052e+00  3.10505503e+01 -5.07224687e-04 -1.23496987e+01 -6.09064312e-06  4.34002491e+01 -5.01134044e-04 
 4.60644974e+00  3.10505503e+01 -5.18921151e-04 -1.23496987e+01 -6.23109170e-06  4.34002491e+01 -5.12690059e-04 
 4.71267322e+00  3.10505503e+01 -5.30887333e-04 -1.23496987e+01 -6.37477900e-06  4.34002491e+01 -5.24512554e-04 
 4.82134619e+00  3.10505503e+01 -5.43129451e-04 -1.23496987e+01 -6.52177968e-06  4.34002491e+01 -5.36607671e-04 
 4.93252513e+00  3.10505503e+01 -5.55653870e-04 -1.23496987e+01 -6.67217016e-06  4.34002491e+01 -5.48981699e-04 
 5.04626783e+00  3.10505503e+01 -5.68467098e-04 -1.23496987e+01 -6.82602860e-06  4.34002491e+01 -5.61641069e-04 
 5.16263340e+00  3.10505503e+01 -5.81575795e-04 -1.23496987e+01 -6.98343497e-06  4.34002491e+01 -5.74592360e-04 
 5.28168234e+00  3.10505503e+01 -5.94986776e-04 -1.23496987e+01 -7.14447110e-06  4.34002491e+01 -5.87842305e-04 
