 frequency       v(Tmb_dB)       v(Tmb_arg)     
 1.00000000e+00  2.48344618e+01 -6.52606517e-04 
 1.02305973e+00  2.48344618e+01 -6.67655447e-04 
 1.04665121e+00  2.48344618e+01 -6.83051402e-04 
 1.07078670e+00  2.48344618e+01 -6.98802382e-04 
 1.09547876e+00  2.48344618e+01 -7.14916576e-04 
 1.12074020e+00  2.48344618e+01 -7.31402360e-04 
 1.14658417e+00  2.48344618e+01 -7.48268300e-04 
 1.17302409e+00  2.48344618e+01 -7.65523165e-04 
 1.20007371e+00  2.48344618e+01 -7.83175923e-04 
 1.22774708e+00  2.48344618e+01 -8.01235748e-04 
 1.25605860e+00  2.48344618e+01 -8.19712028e-04 
 1.28502297e+00  2.48344618e+01 -8.38614366e-04 
 1.31465525e+00  2.48344618e+01 -8.57952586e-04 
 1.34497085e+00  2.48344618e+01 -8.77736741e-04 
 1.37598551e+00  2.48344618e+01 -8.97977113e-04 
 1.40771537e+00  2.48344618e+01 -9.18684223e-04 
 1.44017690e+00  2.48344618e+01 -9.39868833e-04 
 1.47338699e+00  2.48344618e+01 -9.61541954e-04 
 1.50736290e+00  2.48344618e+01 -9.83714852e-04 
 1.54212228e+00  2.48344618e+01 -1.00639905e-03 
 1.57768320e+00  2.48344618e+01 -1.02960634e-03 
 1.61406415e+00  2.48344618e+01 -1.05334878e-03 
 1.65128404e+00  2.48344618e+01 -1.07763872e-03 
 1.68936220e+00  2.48344618e+01 -1.10248878e-03 
 1.72831844e+00  2.48344618e+01 -1.12791187e-03 
 1.76817299e+00  2.48344618e+01 -1.15392122e-03 
 1.80894658e+00  2.48344618e+01 -1.18053033e-03 
 1.85066040e+00  2.48344618e+01 -1.20775304e-03 
 1.89333613e+00  2.48344618e+01 -1.23560350e-03 
 1.93699595e+00  2.48344618e+01 -1.26409618e-03 
 1.98166255e+00  2.48344618e+01 -1.29324590e-03 
 2.02735916e+00  2.48344618e+01 -1.32306780e-03 
 2.07410951e+00  2.48344618e+01 -1.35357738e-03 
 2.12193792e+00  2.48344618e+01 -1.38479051e-03 
 2.17086923e+00  2.48344618e+01 -1.41672341e-03 
 2.22092889e+00  2.48344618e+01 -1.44939267e-03 
 2.27214291e+00  2.48344618e+01 -1.48281527e-03 
 2.32453791e+00  2.48344618e+01 -1.51700859e-03 
 2.37814113e+00  2.48344618e+01 -1.55199040e-03 
 2.43298042e+00  2.48344618e+01 -1.58777888e-03 
 2.48908429e+00  2.48344618e+01 -1.62439263e-03 
 2.54648190e+00  2.48344618e+01 -1.66185069e-03 
 2.60520309e+00  2.48344618e+01 -1.70017251e-03 
 2.66527837e+00  2.48344618e+01 -1.73937803e-03 
 2.72673897e+00  2.48344618e+01 -1.77948762e-03 
 2.78961683e+00  2.48344618e+01 -1.82052212e-03 
 2.85394464e+00  2.48344618e+01 -1.86250287e-03 
 2.91975583e+00  2.48344618e+01 -1.90545168e-03 
 2.98708461e+00  2.48344618e+01 -1.94939089e-03 
 3.05596598e+00  2.48344618e+01 -1.99434331e-03 
 3.12643573e+00  2.48344618e+01 -2.04033233e-03 
 3.19853049e+00  2.48344618e+01 -2.08738184e-03 
 3.27228774e+00  2.48344618e+01 -2.13551630e-03 
 3.34774581e+00  2.48344618e+01 -2.18476073e-03 
 3.42494392e+00  2.48344618e+01 -2.23514073e-03 
 3.50392221e+00  2.48344618e+01 -2.28668247e-03 
 3.58472171e+00  2.48344618e+01 -2.33941275e-03 
 3.66738442e+00  2.48344618e+01 -2.39335897e-03 
 3.75195331e+00  2.48344618e+01 -2.44854918e-03 
 3.83847234e+00  2.48344618e+01 -2.50501207e-03 
 3.92698648e+00  2.48344618e+01 -2.56277697e-03 
 4.01754173e+00  2.48344618e+01 -2.62187391e-03 
 4.11018515e+00  2.48344618e+01 -2.68233362e-03 
 4.20496491e+00  2.48344618e+01 -2.74418751e-03 
 4.30193027e+00  2.48344618e+01 -2.80746773e-03 
 4.40113162e+00  2.48344618e+01 -2.87220718e-03 
 4.50262052e+00  2.48344618e+01 -2.93843950e-03 
 4.60644974e+00  2.48344618e+01 -3.00619912e-03 
 4.71267322e+00  2.48344618e+01 -3.07552126e-03 
 4.82134619e+00  2.48344618e+01 -3.14644195e-03 
 4.93252513e+00  2.48344618e+01 -3.21899805e-03 
 5.04626783e+00  2.48344618e+01 -3.29322727e-03 
 5.16263340e+00  2.48344618e+01 -3.36916820e-03 
 5.28168234e+00  2.48344618e+01 -3.44686031e-03 
 5.40347650e+00  2.48344618e+01 -3.52634398e-03 
 5.52807921e+00  2.48344618e+01 -3.60766052e-03 
 5.65555523e+00  2.48344618e+01 -3.69085220e-03 
 5.78597080e+00  2.48344618e+01 -3.77596225e-03 
 5.91939372e+00  2.48344618e+01 -3.86303492e-03 
 6.05589334e+00  2.48344618e+01 -3.95211546e-03 
 6.19554061e+00  2.48344618e+01 -4.04325018e-03 
 6.33840810e+00  2.48344618e+01 -4.13648643e-03 
 6.48457008e+00  2.48344618e+01 -4.23187269e-03 
 6.63410251e+00  2.48344618e+01 -4.32945853e-03 
 6.78708313e+00  2.48344618e+01 -4.42929468e-03 
 6.94359143e+00  2.48344618e+01 -4.53143301e-03 
 7.10370877e+00  2.48344618e+01 -4.63592664e-03 
 7.26751838e+00  2.48344618e+01 -4.74282985e-03 
 7.43510539e+00  2.48344618e+01 -4.85219823e-03 
 7.60655691e+00  2.48344618e+01 -4.96408861e-03 
 7.78196206e+00  2.48344618e+01 -5.07855915e-03 
 7.96141200e+00  2.48344618e+01 -5.19566935e-03 
 8.14500001e+00  2.48344618e+01 -5.31548008e-03 
 8.33282151e+00  2.48344618e+01 -5.43805361e-03 
 8.52497412e+00  2.48344618e+01 -5.56345366e-03 
 8.72155772e+00  2.48344618e+01 -5.69174540e-03 
 8.92267449e+00  2.48344618e+01 -5.82299551e-03 
 9.12842895e+00  2.48344618e+01 -5.95727221e-03 
 9.33892805e+00  2.48344618e+01 -6.09464530e-03 
 9.55428121e+00  2.48344618e+01 -6.23518617e-03 
 9.77460036e+00  2.48344618e+01 -6.37896788e-03 
 1.00000000e+01  2.48344618e+01 -6.52606516e-03 
 1.02305973e+01  2.48344618e+01 -6.67655446e-03 
 1.04665121e+01  2.48344618e+01 -6.83051400e-03 
 1.07078670e+01  2.48344618e+01 -6.98802380e-03 
 1.09547876e+01  2.48344618e+01 -7.14916574e-03 
 1.12074020e+01  2.48344618e+01 -7.31402357e-03 
 1.14658417e+01  2.48344618e+01 -7.48268298e-03 
 1.17302409e+01  2.48344618e+01 -7.65523163e-03 
 1.20007371e+01  2.48344618e+01 -7.83175920e-03 
 1.22774708e+01  2.48344618e+01 -8.01235745e-03 
 1.25605860e+01  2.48344618e+01 -8.19712024e-03 
 1.28502297e+01  2.48344618e+01 -8.38614362e-03 
 1.31465525e+01  2.48344618e+01 -8.57952583e-03 
 1.34497085e+01  2.48344618e+01 -8.77736737e-03 
 1.37598551e+01  2.48344618e+01 -8.97977109e-03 
 1.40771537e+01  2.48344618e+01 -9.18684218e-03 
 1.44017690e+01  2.48344618e+01 -9.39868828e-03 
 1.47338699e+01  2.48344617e+01 -9.61541949e-03 
 1.50736290e+01  2.48344617e+01 -9.83714846e-03 
 1.54212228e+01  2.48344617e+01 -1.00639904e-02 
 1.57768320e+01  2.48344617e+01 -1.02960633e-02 
 1.61406415e+01  2.48344617e+01 -1.05334878e-02 
 1.65128404e+01  2.48344617e+01 -1.07763872e-02 
 1.68936220e+01  2.48344617e+01 -1.10248877e-02 
 1.72831844e+01  2.48344617e+01 -1.12791187e-02 
 1.76817299e+01  2.48344617e+01 -1.15392121e-02 
 1.80894658e+01  2.48344617e+01 -1.18053032e-02 
 1.85066040e+01  2.48344617e+01 -1.20775303e-02 
 1.89333613e+01  2.48344617e+01 -1.23560349e-02 
 1.93699595e+01  2.48344617e+01 -1.26409617e-02 
 1.98166255e+01  2.48344617e+01 -1.29324589e-02 
 2.02735916e+01  2.48344617e+01 -1.32306779e-02 
 2.07410951e+01  2.48344617e+01 -1.35357737e-02 
 2.12193792e+01  2.48344616e+01 -1.38479050e-02 
 2.17086923e+01  2.48344616e+01 -1.41672339e-02 
 2.22092889e+01  2.48344616e+01 -1.44939265e-02 
 2.27214291e+01  2.48344616e+01 -1.48281525e-02 
 2.32453791e+01  2.48344616e+01 -1.51700857e-02 
 2.37814113e+01  2.48344616e+01 -1.55199038e-02 
 2.43298042e+01  2.48344616e+01 -1.58777886e-02 
 2.48908429e+01  2.48344616e+01 -1.62439261e-02 
 2.54648190e+01  2.48344616e+01 -1.66185066e-02 
 2.60520309e+01  2.48344615e+01 -1.70017248e-02 
 2.66527837e+01  2.48344615e+01 -1.73937800e-02 
 2.72673897e+01  2.48344615e+01 -1.77948759e-02 
 2.78961683e+01  2.48344615e+01 -1.82052209e-02 
 2.85394464e+01  2.48344615e+01 -1.86250283e-02 
 2.91975583e+01  2.48344615e+01 -1.90545164e-02 
 2.98708461e+01  2.48344614e+01 -1.94939084e-02 
 3.05596598e+01  2.48344614e+01 -1.99434327e-02 
 3.12643573e+01  2.48344614e+01 -2.04033228e-02 
 3.19853049e+01  2.48344614e+01 -2.08738179e-02 
 3.27228774e+01  2.48344614e+01 -2.13551625e-02 
 3.34774581e+01  2.48344613e+01 -2.18476067e-02 
 3.42494392e+01  2.48344613e+01 -2.23514066e-02 
 3.50392221e+01  2.48344613e+01 -2.28668240e-02 
 3.58472171e+01  2.48344613e+01 -2.33941267e-02 
 3.66738442e+01  2.48344612e+01 -2.39335889e-02 
 3.75195331e+01  2.48344612e+01 -2.44854910e-02 
 3.83847234e+01  2.48344612e+01 -2.50501198e-02 
 3.92698648e+01  2.48344612e+01 -2.56277687e-02 
 4.01754173e+01  2.48344611e+01 -2.62187381e-02 
 4.11018515e+01  2.48344611e+01 -2.68233350e-02 
 4.20496491e+01  2.48344611e+01 -2.74418739e-02 
 4.30193027e+01  2.48344610e+01 -2.80746760e-02 
 4.40113162e+01  2.48344610e+01 -2.87220704e-02 
 4.50262052e+01  2.48344609e+01 -2.93843935e-02 
 4.60644974e+01  2.48344609e+01 -3.00619896e-02 
 4.71267322e+01  2.48344608e+01 -3.07552109e-02 
 4.82134619e+01  2.48344608e+01 -3.14644176e-02 
 4.93252513e+01  2.48344608e+01 -3.21899785e-02 
 5.04626783e+01  2.48344607e+01 -3.29322706e-02 
 5.16263340e+01  2.48344606e+01 -3.36916798e-02 
 5.28168234e+01  2.48344606e+01 -3.44686007e-02 
 5.40347650e+01  2.48344605e+01 -3.52634372e-02 
 5.52807921e+01  2.48344605e+01 -3.60766025e-02 
 5.65555523e+01  2.48344604e+01 -3.69085190e-02 
 5.78597080e+01  2.48344603e+01 -3.77596194e-02 
 5.91939372e+01  2.48344603e+01 -3.86303458e-02 
 6.05589334e+01  2.48344602e+01 -3.95211510e-02 
 6.19554061e+01  2.48344601e+01 -4.04324979e-02 
 6.33840810e+01  2.48344600e+01 -4.13648602e-02 
 6.48457008e+01  2.48344600e+01 -4.23187225e-02 
 6.63410251e+01  2.48344599e+01 -4.32945806e-02 
 6.78708313e+01  2.48344598e+01 -4.42929417e-02 
 6.94359143e+01  2.48344597e+01 -4.53143247e-02 
 7.10370877e+01  2.48344596e+01 -4.63592605e-02 
 7.26751838e+01  2.48344595e+01 -4.74282923e-02 
 7.43510539e+01  2.48344594e+01 -4.85219756e-02 
 7.60655691e+01  2.48344592e+01 -4.96408789e-02 
 7.78196206e+01  2.48344591e+01 -5.07855838e-02 
 7.96141200e+01  2.48344590e+01 -5.19566853e-02 
 8.14500001e+01  2.48344589e+01 -5.31547920e-02 
 8.33282151e+01  2.48344587e+01 -5.43805268e-02 
 8.52497412e+01  2.48344586e+01 -5.56345266e-02 
 8.72155772e+01  2.48344584e+01 -5.69174432e-02 
 8.92267449e+01  2.48344583e+01 -5.82299436e-02 
 9.12842895e+01  2.48344581e+01 -5.95727098e-02 
 9.33892805e+01  2.48344579e+01 -6.09464398e-02 
 9.55428121e+01  2.48344577e+01 -6.23518476e-02 
 9.77460036e+01  2.48344576e+01 -6.37896637e-02 
 1.00000000e+02  2.48344574e+01 -6.52606354e-02 
 1.02305973e+02  2.48344571e+01 -6.67655272e-02 
 1.04665121e+02  2.48344569e+01 -6.83051214e-02 
 1.07078670e+02  2.48344567e+01 -6.98802181e-02 
 1.09547876e+02  2.48344565e+01 -7.14916361e-02 
 1.12074020e+02  2.48344562e+01 -7.31402129e-02 
 1.14658417e+02  2.48344559e+01 -7.48268054e-02 
 1.17302409e+02  2.48344557e+01 -7.65522901e-02 
 1.20007371e+02  2.48344554e+01 -7.83175640e-02 
 1.22774708e+02  2.48344551e+01 -8.01235445e-02 
 1.25605860e+02  2.48344548e+01 -8.19711703e-02 
 1.28502297e+02  2.48344544e+01 -8.38614018e-02 
 1.31465525e+02  2.48344541e+01 -8.57952214e-02 
 1.34497085e+02  2.48344537e+01 -8.77736343e-02 
 1.37598551e+02  2.48344533e+01 -8.97976687e-02 
 1.40771537e+02  2.48344529e+01 -9.18683766e-02 
 1.44017690e+02  2.48344525e+01 -9.39868344e-02 
 1.47338699e+02  2.48344521e+01 -9.61541431e-02 
 1.50736290e+02  2.48344516e+01 -9.83714291e-02 
 1.54212228e+02  2.48344512e+01 -1.00639845e-01 
 1.57768320e+02  2.48344507e+01 -1.02960570e-01 
 1.61406415e+02  2.48344501e+01 -1.05334810e-01 
 1.65128404e+02  2.48344496e+01 -1.07763799e-01 
 1.68936220e+02  2.48344490e+01 -1.10248799e-01 
 1.72831844e+02  2.48344484e+01 -1.12791103e-01 
 1.76817299e+02  2.48344478e+01 -1.15392031e-01 
 1.80894658e+02  2.48344472e+01 -1.18052936e-01 
 1.85066040e+02  2.48344465e+01 -1.20775200e-01 
 1.89333613e+02  2.48344458e+01 -1.23560239e-01 
 1.93699595e+02  2.48344450e+01 -1.26409499e-01 
 1.98166255e+02  2.48344442e+01 -1.29324462e-01 
 2.02735916e+02  2.48344434e+01 -1.32306644e-01 
 2.07410951e+02  2.48344425e+01 -1.35357592e-01 
 2.12193792e+02  2.48344416e+01 -1.38478895e-01 
 2.17086923e+02  2.48344407e+01 -1.41672173e-01 
 2.22092889e+02  2.48344397e+01 -1.44939088e-01 
 2.27214291e+02  2.48344387e+01 -1.48281335e-01 
 2.32453791e+02  2.48344376e+01 -1.51700654e-01 
 2.37814113e+02  2.48344365e+01 -1.55198820e-01 
 2.43298042e+02  2.48344353e+01 -1.58777652e-01 
 2.48908429e+02  2.48344340e+01 -1.62439011e-01 
 2.54648190e+02  2.48344327e+01 -1.66184798e-01 
 2.60520309e+02  2.48344314e+01 -1.70016962e-01 
 2.66527837e+02  2.48344300e+01 -1.73937493e-01 
 2.72673897e+02  2.48344285e+01 -1.77948430e-01 
 2.78961683e+02  2.48344269e+01 -1.82051857e-01 
 2.85394464e+02  2.48344253e+01 -1.86249907e-01 
 2.91975583e+02  2.48344236e+01 -1.90544761e-01 
 2.98708461e+02  2.48344218e+01 -1.94938652e-01 
 3.05596598e+02  2.48344199e+01 -1.99433864e-01 
 3.12643573e+02  2.48344180e+01 -2.04032733e-01 
 3.19853049e+02  2.48344159e+01 -2.08737649e-01 
 3.27228774e+02  2.48344138e+01 -2.13551057e-01 
 3.34774581e+02  2.48344115e+01 -2.18475459e-01 
 3.42494392e+02  2.48344092e+01 -2.23513415e-01 
 3.50392221e+02  2.48344067e+01 -2.28667543e-01 
 3.58472171e+02  2.48344042e+01 -2.33940521e-01 
 3.66738442e+02  2.48344015e+01 -2.39335090e-01 
 3.75195331e+02  2.48343986e+01 -2.44854054e-01 
 3.83847234e+02  2.48343957e+01 -2.50500281e-01 
 3.92698648e+02  2.48343926e+01 -2.56276706e-01 
 4.01754173e+02  2.48343894e+01 -2.62186330e-01 
 4.11018515e+02  2.48343860e+01 -2.68232225e-01 
 4.20496491e+02  2.48343825e+01 -2.74417534e-01 
 4.30193027e+02  2.48343788e+01 -2.80745470e-01 
 4.40113162e+02  2.48343749e+01 -2.87219322e-01 
 4.50262052e+02  2.48343708e+01 -2.93842456e-01 
 4.60644974e+02  2.48343666e+01 -3.00618312e-01 
 4.71267322e+02  2.48343621e+01 -3.07550413e-01 
 4.82134619e+02  2.48343575e+01 -3.14642360e-01 
 4.93252513e+02  2.48343526e+01 -3.21897841e-01 
 5.04626783e+02  2.48343475e+01 -3.29320624e-01 
 5.16263340e+02  2.48343422e+01 -3.36914568e-01 
 5.28168234e+02  2.48343366e+01 -3.44683620e-01 
 5.40347650e+02  2.48343308e+01 -3.52631816e-01 
 5.52807921e+02  2.48343246e+01 -3.60763287e-01 
 5.65555523e+02  2.48343182e+01 -3.69082259e-01 
 5.78597080e+02  2.48343115e+01 -3.77593055e-01 
 5.91939372e+02  2.48343045e+01 -3.86300098e-01 
 6.05589334e+02  2.48342972e+01 -3.95207911e-01 
 6.19554061e+02  2.48342895e+01 -4.04321126e-01 
 6.33840810e+02  2.48342815e+01 -4.13644476e-01 
 6.48457008e+02  2.48342731e+01 -4.23182807e-01 
 6.63410251e+02  2.48342642e+01 -4.32941075e-01 
 6.78708313e+02  2.48342550e+01 -4.42924351e-01 
 6.94359143e+02  2.48342454e+01 -4.53137823e-01 
 7.10370877e+02  2.48342353e+01 -4.63586797e-01 
 7.26751838e+02  2.48342247e+01 -4.74276703e-01 
 7.43510539e+02  2.48342137e+01 -4.85213096e-01 
 7.60655691e+02  2.48342021e+01 -4.96401658e-01 
 7.78196206e+02  2.48341900e+01 -5.07848202e-01 
 7.96141200e+02  2.48341773e+01 -5.19558676e-01 
 8.14500001e+02  2.48341640e+01 -5.31539165e-01 
 8.33282151e+02  2.48341501e+01 -5.43795892e-01 
 8.52497412e+02  2.48341356e+01 -5.56335227e-01 
 8.72155772e+02  2.48341203e+01 -5.69163683e-01 
 8.92267449e+02  2.48341044e+01 -5.82287925e-01 
 9.12842895e+02  2.48340877e+01 -5.95714773e-01 
 9.33892805e+02  2.48340703e+01 -6.09451200e-01 
 9.55428121e+02  2.48340520e+01 -6.23504344e-01 
 9.77460036e+02  2.48340329e+01 -6.37881505e-01 
 1.00000000e+03  2.48340129e+01 -6.52590150e-01 
 1.02305973e+03  2.48339919e+01 -6.67637922e-01 
 1.04665121e+03  2.48339700e+01 -6.83032635e-01 
 1.07078670e+03  2.48339471e+01 -6.98782288e-01 
 1.09547876e+03  2.48339231e+01 -7.14895060e-01 
 1.12074020e+03  2.48338979e+01 -7.31379320e-01 
 1.14658417e+03  2.48338716e+01 -7.48243630e-01 
 1.17302409e+03  2.48338441e+01 -7.65496748e-01 
 1.20007371e+03  2.48338153e+01 -7.83147636e-01 
 1.22774708e+03  2.48337851e+01 -8.01205459e-01 
 1.25605860e+03  2.48337535e+01 -8.19679595e-01 
 1.28502297e+03  2.48337205e+01 -8.38579637e-01 
 1.31465525e+03  2.48336859e+01 -8.57915399e-01 
 1.34497085e+03  2.48336497e+01 -8.77696922e-01 
 1.37598551e+03  2.48336118e+01 -8.97934476e-01 
 1.40771537e+03  2.48335722e+01 -9.18638567e-01 
 1.44017690e+03  2.48335307e+01 -9.39819946e-01 
 1.47338699e+03  2.48334873e+01 -9.61489607e-01 
 1.50736290e+03  2.48334418e+01 -9.83658799e-01 
 1.54212228e+03  2.48333942e+01 -1.00633903e+00 
 1.57768320e+03  2.48333444e+01 -1.02954207e+00 
 1.61406415e+03  2.48332923e+01 -1.05327997e+00 
 1.65128404e+03  2.48332377e+01 -1.07756504e+00 
 1.68936220e+03  2.48331806e+01 -1.10240988e+00 
 1.72831844e+03  2.48331209e+01 -1.12782739e+00 
 1.76817299e+03  2.48330583e+01 -1.15383075e+00 
 1.80894658e+03  2.48329928e+01 -1.18043346e+00 
 1.85066040e+03  2.48329243e+01 -1.20764931e+00 
 1.89333613e+03  2.48328526e+01 -1.23549243e+00 
 1.93699595e+03  2.48327775e+01 -1.26397725e+00 
 1.98166255e+03  2.48326990e+01 -1.29311855e+00 
 2.02735916e+03  2.48326167e+01 -1.32293144e+00 
 2.07410951e+03  2.48325307e+01 -1.35343137e+00 
 2.12193792e+03  2.48324406e+01 -1.38463416e+00 
 2.17086923e+03  2.48323463e+01 -1.41655599e+00 
 2.22092889e+03  2.48322477e+01 -1.44921340e+00 
 2.27214291e+03  2.48321444e+01 -1.48262332e+00 
 2.32453791e+03  2.48320363e+01 -1.51680305e+00 
 2.37814113e+03  2.48319232e+01 -1.55177032e+00 
 2.43298042e+03  2.48318047e+01 -1.58754322e+00 
 2.48908429e+03  2.48316808e+01 -1.62414029e+00 
 2.54648190e+03  2.48315511e+01 -1.66158049e+00 
 2.60520309e+03  2.48314154e+01 -1.69988320e+00 
 2.66527837e+03  2.48312733e+01 -1.73906824e+00 
 2.72673897e+03  2.48311246e+01 -1.77915590e+00 
 2.78961683e+03  2.48309689e+01 -1.82016693e+00 
 2.85394464e+03  2.48308060e+01 -1.86212254e+00 
 2.91975583e+03  2.48306355e+01 -1.90504444e+00 
 2.98708461e+03  2.48304571e+01 -1.94895482e+00 
 3.05596598e+03  2.48302703e+01 -1.99387639e+00 
 3.12643573e+03  2.48300748e+01 -2.03983237e+00 
 3.19853049e+03  2.48298703e+01 -2.08684650e+00 
 3.27228774e+03  2.48296561e+01 -2.13494308e+00 
 3.34774581e+03  2.48294320e+01 -2.18414695e+00 
 3.42494392e+03  2.48291975e+01 -2.23448351e+00 
 3.50392221e+03  2.48289520e+01 -2.28597875e+00 
 3.58472171e+03  2.48286951e+01 -2.33865923e+00 
 3.66738442e+03  2.48284262e+01 -2.39255214e+00 
 3.75195331e+03  2.48281448e+01 -2.44768527e+00 
 3.83847234e+03  2.48278502e+01 -2.50408702e+00 
 3.92698648e+03  2.48275419e+01 -2.56178648e+00 
 4.01754173e+03  2.48272193e+01 -2.62081334e+00 
 4.11018515e+03  2.48268816e+01 -2.68119801e+00 
 4.20496491e+03  2.48265282e+01 -2.74297156e+00 
 4.30193027e+03  2.48261584e+01 -2.80616576e+00 
 4.40113162e+03  2.48257713e+01 -2.87081311e+00 
 4.50262052e+03  2.48253662e+01 -2.93694681e+00 
 4.60644974e+03  2.48249422e+01 -3.00460084e+00 
 4.71267322e+03  2.48244984e+01 -3.07380992e+00 
 4.82134619e+03  2.48240340e+01 -3.14460956e+00 
 4.93252513e+03  2.48235479e+01 -3.21703605e+00 
 5.04626783e+03  2.48230393e+01 -3.29112651e+00 
 5.16263340e+03  2.48225069e+01 -3.36691886e+00 
 5.28168234e+03  2.48219497e+01 -3.44445189e+00 
 5.40347650e+03  2.48213667e+01 -3.52376523e+00 
 5.52807921e+03  2.48207564e+01 -3.60489940e+00 
 5.65555523e+03  2.48201178e+01 -3.68789583e+00 
 5.78597080e+03  2.48194494e+01 -3.77279684e+00 
 5.91939372e+03  2.48187500e+01 -3.85964569e+00 
 6.05589334e+03  2.48180180e+01 -3.94848659e+00 
 6.19554061e+03  2.48172519e+01 -4.03936475e+00 
 6.33840810e+03  2.48164502e+01 -4.13232632e+00 
 6.48457008e+03  2.48156112e+01 -4.22741849e+00 
 6.63410251e+03  2.48147332e+01 -4.32468948e+00 
 6.78708313e+03  2.48138143e+01 -4.42418853e+00 
 6.94359143e+03  2.48128528e+01 -4.52596597e+00 
 7.10370877e+03  2.48118465e+01 -4.63007322e+00 
 7.26751838e+03  2.48107935e+01 -4.73656279e+00 
 7.43510539e+03  2.48096915e+01 -4.84548832e+00 
 7.60655691e+03  2.48085384e+01 -4.95690460e+00 
 7.78196206e+03  2.48073317e+01 -5.07086759e+00 
 7.96141200e+03  2.48060689e+01 -5.18743443e+00 
 8.14500001e+03  2.48047475e+01 -5.30666346e+00 
 8.33282151e+03  2.48033647e+01 -5.42861428e+00 
 8.52497412e+03  2.48019178e+01 -5.55334768e+00 
 8.72155772e+03  2.48004037e+01 -5.68092578e+00 
 8.92267449e+03  2.47988194e+01 -5.81141194e+00 
 9.12842895e+03  2.47971617e+01 -5.94487085e+00 
 9.33892805e+03  2.47954270e+01 -6.08136851e+00 
 9.55428121e+03  2.47936120e+01 -6.22097229e+00 
 9.77460036e+03  2.47917128e+01 -6.36375089e+00 
 1.00000000e+04  2.47897256e+01 -6.50977442e+00 
 1.02305973e+04  2.47876465e+01 -6.65911437e+00 
 1.04665121e+04  2.47854711e+01 -6.81184367e+00 
