 frequency       v(L_dB)         v(L_arg)        v(Tmb_dB)       v(Tmb_arg)      v(Ttian_dB)     v(Ttian_arg)   
 1.00000000e+00  2.48344617e+01  1.13616784e-02  2.48344618e+01 -6.52606517e-04  2.48344618e+01 -6.52691592e-04 
 1.02305973e+00  2.48344617e+01  1.10913080e-02  2.48344618e+01 -6.67655447e-04  2.48344618e+01 -6.67742484e-04 
 1.04665121e+00  2.48344617e+01  1.08267025e-02  2.48344618e+01 -6.83051402e-04  2.48344618e+01 -6.83140445e-04 
 1.07078670e+00  2.48344617e+01  1.05677244e-02  2.48344618e+01 -6.98802382e-04  2.48344618e+01 -6.98893480e-04 
 1.09547876e+00  2.48344617e+01  1.03142390e-02  2.48344618e+01 -7.14916576e-04  2.48344618e+01 -7.15009774e-04 
 1.12074020e+00  2.48344617e+01  1.00661146e-02  2.48344618e+01 -7.31402360e-04  2.48344618e+01 -7.31497707e-04 
 1.14658417e+00  2.48344617e+01  9.82322220e-03  2.48344618e+01 -7.48268300e-04  2.48344618e+01 -7.48365846e-04 
 1.17302409e+00  2.48344617e+01  9.58543557e-03  2.48344618e+01 -7.65523165e-04  2.48344618e+01 -7.65622960e-04 
 1.20007371e+00  2.48344617e+01  9.35263113e-03  2.48344618e+01 -7.83175923e-04  2.48344618e+01 -7.83278019e-04 
 1.22774708e+00  2.48344617e+01  9.12468786e-03  2.48344618e+01 -8.01235748e-04  2.48344618e+01 -8.01340198e-04 
 1.25605860e+00  2.48344617e+01  8.90148729e-03  2.48344618e+01 -8.19712028e-04  2.48344618e+01 -8.19818887e-04 
 1.28502297e+00  2.48344617e+01  8.68291340e-03  2.48344618e+01 -8.38614366e-04  2.48344618e+01 -8.38723689e-04 
 1.31465525e+00  2.48344618e+01  8.46885259e-03  2.48344618e+01 -8.57952586e-04  2.48344618e+01 -8.58064431e-04 
 1.34497085e+00  2.48344618e+01  8.25919360e-03  2.48344618e+01 -8.77736741e-04  2.48344618e+01 -8.77851165e-04 
 1.37598551e+00  2.48344618e+01  8.05382746e-03  2.48344618e+01 -8.97977113e-04  2.48344618e+01 -8.98094175e-04 
 1.40771537e+00  2.48344618e+01  7.85264741e-03  2.48344618e+01 -9.18684223e-04  2.48344618e+01 -9.18803984e-04 
 1.44017690e+00  2.48344618e+01  7.65554890e-03  2.48344618e+01 -9.39868833e-04  2.48344618e+01 -9.39991356e-04 
 1.47338699e+00  2.48344618e+01  7.46242948e-03  2.48344618e+01 -9.61541954e-04  2.48344618e+01 -9.61667303e-04 
 1.50736290e+00  2.48344618e+01  7.27318877e-03  2.48344618e+01 -9.83714852e-04  2.48344618e+01 -9.83843091e-04 
 1.54212228e+00  2.48344618e+01  7.08772841e-03  2.48344618e+01 -1.00639905e-03  2.48344618e+01 -1.00653025e-03 
 1.57768320e+00  2.48344618e+01  6.90595201e-03  2.48344618e+01 -1.02960634e-03  2.48344618e+01 -1.02974056e-03 
 1.61406415e+00  2.48344618e+01  6.72776509e-03  2.48344618e+01 -1.05334878e-03  2.48344618e+01 -1.05348610e-03 
 1.65128404e+00  2.48344618e+01  6.55307503e-03  2.48344618e+01 -1.07763872e-03  2.48344618e+01 -1.07777921e-03 
 1.68936220e+00  2.48344618e+01  6.38179102e-03  2.48344618e+01 -1.10248878e-03  2.48344618e+01 -1.10263250e-03 
 1.72831844e+00  2.48344618e+01  6.21382406e-03  2.48344618e+01 -1.12791187e-03  2.48344618e+01 -1.12805891e-03 
 1.76817299e+00  2.48344618e+01  6.04908682e-03  2.48344618e+01 -1.15392122e-03  2.48344618e+01 -1.15407165e-03 
 1.80894658e+00  2.48344618e+01  5.88749369e-03  2.48344618e+01 -1.18053033e-03  2.48344618e+01 -1.18068423e-03 
 1.85066040e+00  2.48344618e+01  5.72896068e-03  2.48344618e+01 -1.20775304e-03  2.48344618e+01 -1.20791048e-03 
 1.89333613e+00  2.48344618e+01  5.57340538e-03  2.48344618e+01 -1.23560350e-03  2.48344618e+01 -1.23576457e-03 
 1.93699595e+00  2.48344618e+01  5.42074695e-03  2.48344618e+01 -1.26409618e-03  2.48344618e+01 -1.26426097e-03 
 1.98166255e+00  2.48344618e+01  5.27090603e-03  2.48344618e+01 -1.29324590e-03  2.48344618e+01 -1.29341449e-03 
 2.02735916e+00  2.48344618e+01  5.12380475e-03  2.48344618e+01 -1.32306780e-03  2.48344618e+01 -1.32324028e-03 
 2.07410951e+00  2.48344618e+01  4.97936664e-03  2.48344618e+01 -1.35357738e-03  2.48344618e+01 -1.35375384e-03 
 2.12193792e+00  2.48344618e+01  4.83751664e-03  2.48344618e+01 -1.38479051e-03  2.48344618e+01 -1.38497104e-03 
 2.17086923e+00  2.48344618e+01  4.69818101e-03  2.48344618e+01 -1.41672341e-03  2.48344618e+01 -1.41690810e-03 
 2.22092889e+00  2.48344618e+01  4.56128734e-03  2.48344618e+01 -1.44939267e-03  2.48344618e+01 -1.44958161e-03 
 2.27214291e+00  2.48344618e+01  4.42676446e-03  2.48344618e+01 -1.48281527e-03  2.48344618e+01 -1.48300857e-03 
 2.32453791e+00  2.48344618e+01  4.29454246e-03  2.48344618e+01 -1.51700859e-03  2.48344618e+01 -1.51720635e-03 
 2.37814113e+00  2.48344618e+01  4.16455262e-03  2.48344618e+01 -1.55199040e-03  2.48344618e+01 -1.55219272e-03 
 2.43298042e+00  2.48344618e+01  4.03672737e-03  2.48344618e+01 -1.58777888e-03  2.48344618e+01 -1.58798586e-03 
 2.48908429e+00  2.48344618e+01  3.91100027e-03  2.48344618e+01 -1.62439263e-03  2.48344618e+01 -1.62460439e-03 
 2.54648190e+00  2.48344618e+01  3.78730597e-03  2.48344618e+01 -1.66185069e-03  2.48344618e+01 -1.66206733e-03 
 2.60520309e+00  2.48344618e+01  3.66558019e-03  2.48344618e+01 -1.70017251e-03  2.48344618e+01 -1.70039415e-03 
 2.66527837e+00  2.48344618e+01  3.54575964e-03  2.48344618e+01 -1.73937803e-03  2.48344618e+01 -1.73960478e-03 
 2.72673897e+00  2.48344618e+01  3.42778206e-03  2.48344618e+01 -1.77948762e-03  2.48344618e+01 -1.77971960e-03 
 2.78961683e+00  2.48344618e+01  3.31158613e-03  2.48344618e+01 -1.82052212e-03  2.48344618e+01 -1.82075945e-03 
 2.85394464e+00  2.48344618e+01  3.19711144e-03  2.48344618e+01 -1.86250287e-03  2.48344618e+01 -1.86274567e-03 
 2.91975583e+00  2.48344618e+01  3.08429850e-03  2.48344618e+01 -1.90545168e-03  2.48344618e+01 -1.90570008e-03 
 2.98708461e+00  2.48344618e+01  2.97308867e-03  2.48344618e+01 -1.94939089e-03  2.48344618e+01 -1.94964501e-03 
 3.05596598e+00  2.48344618e+01  2.86342415e-03  2.48344618e+01 -1.99434331e-03  2.48344618e+01 -1.99460330e-03 
 3.12643573e+00  2.48344618e+01  2.75524793e-03  2.48344618e+01 -2.04033233e-03  2.48344618e+01 -2.04059831e-03 
 3.19853049e+00  2.48344618e+01  2.64850381e-03  2.48344618e+01 -2.08738184e-03  2.48344618e+01 -2.08765396e-03 
 3.27228774e+00  2.48344618e+01  2.54313628e-03  2.48344618e+01 -2.13551630e-03  2.48344618e+01 -2.13579469e-03 
 3.34774581e+00  2.48344618e+01  2.43909058e-03  2.48344618e+01 -2.18476073e-03  2.48344618e+01 -2.18504554e-03 
 3.42494392e+00  2.48344618e+01  2.33631265e-03  2.48344618e+01 -2.23514073e-03  2.48344618e+01 -2.23543210e-03 
 3.50392221e+00  2.48344618e+01  2.23474904e-03  2.48344618e+01 -2.28668247e-03  2.48344618e+01 -2.28698056e-03 
 3.58472171e+00  2.48344618e+01  2.13434698e-03  2.48344618e+01 -2.33941275e-03  2.48344618e+01 -2.33971772e-03 
 3.66738442e+00  2.48344618e+01  2.03505429e-03  2.48344618e+01 -2.39335897e-03  2.48344618e+01 -2.39367098e-03 
 3.75195331e+00  2.48344618e+01  1.93681934e-03  2.48344618e+01 -2.44854918e-03  2.48344618e+01 -2.44886838e-03 
 3.83847234e+00  2.48344618e+01  1.83959108e-03  2.48344618e+01 -2.50501207e-03  2.48344618e+01 -2.50533863e-03 
 3.92698648e+00  2.48344618e+01  1.74331898e-03  2.48344618e+01 -2.56277697e-03  2.48344618e+01 -2.56311106e-03 
 4.01754173e+00  2.48344618e+01  1.64795300e-03  2.48344618e+01 -2.62187391e-03  2.48344618e+01 -2.62221571e-03 
 4.11018515e+00  2.48344618e+01  1.55344357e-03  2.48344618e+01 -2.68233362e-03  2.48344618e+01 -2.68268329e-03 
 4.20496491e+00  2.48344618e+01  1.45974156e-03  2.48344618e+01 -2.74418751e-03  2.48344618e+01 -2.74454524e-03 
 4.30193027e+00  2.48344618e+01  1.36679828e-03  2.48344618e+01 -2.80746773e-03  2.48344618e+01 -2.80783371e-03 
 4.40113162e+00  2.48344618e+01  1.27456541e-03  2.48344618e+01 -2.87220718e-03  2.48344618e+01 -2.87258160e-03 
 4.50262052e+00  2.48344618e+01  1.18299501e-03  2.48344618e+01 -2.93843950e-03  2.48344618e+01 -2.93882256e-03 
 4.60644974e+00  2.48344618e+01  1.09203950e-03  2.48344618e+01 -3.00619912e-03  2.48344618e+01 -3.00659101e-03 
 4.71267322e+00  2.48344618e+01  1.00165159e-03  2.48344618e+01 -3.07552126e-03  2.48344618e+01 -3.07592219e-03 
 4.82134619e+00  2.48344618e+01  9.11784305e-04  2.48344618e+01 -3.14644195e-03  2.48344618e+01 -3.14685212e-03 
 4.93252513e+00  2.48344618e+01  8.22390933e-04  2.48344618e+01 -3.21899805e-03  2.48344618e+01 -3.21941768e-03 
 5.04626783e+00  2.48344618e+01  7.33425012e-04  2.48344618e+01 -3.29322727e-03  2.48344618e+01 -3.29365658e-03 
 5.16263340e+00  2.48344618e+01  6.44840300e-04  2.48344618e+01 -3.36916820e-03  2.48344618e+01 -3.36960742e-03 
 5.28168234e+00  2.48344618e+01  5.56590753e-04  2.48344618e+01 -3.44686031e-03  2.48344618e+01 -3.44730965e-03 
 5.40347650e+00  2.48344618e+01  4.68630503e-04  2.48344618e+01 -3.52634398e-03  2.48344618e+01 -3.52680368e-03 
 5.52807921e+00  2.48344618e+01  3.80913831e-04  2.48344618e+01 -3.60766052e-03  2.48344618e+01 -3.60813082e-03 
 5.65555523e+00  2.48344618e+01  2.93395145e-04  2.48344618e+01 -3.69085220e-03  2.48344618e+01 -3.69133334e-03 
 5.78597080e+00  2.48344618e+01  2.06028956e-04  2.48344618e+01 -3.77596225e-03  2.48344618e+01 -3.77645449e-03 
 5.91939372e+00  2.48344618e+01  1.18769853e-04  2.48344618e+01 -3.86303492e-03  2.48344618e+01 -3.86353851e-03 
 6.05589334e+00  2.48344618e+01  3.15724831e-05  2.48344618e+01 -3.95211546e-03  2.48344618e+01 -3.95263067e-03 
 6.19554061e+00  2.48344618e+01 -5.56084768e-05  2.48344618e+01 -4.04325018e-03  2.48344618e+01 -4.04377726e-03 
 6.33840810e+00  2.48344618e+01 -1.42818340e-04  2.48344618e+01 -4.13648643e-03  2.48344618e+01 -4.13702567e-03 
 6.48457008e+00  2.48344618e+01 -2.30102435e-04  2.48344618e+01 -4.23187269e-03  2.48344618e+01 -4.23242437e-03 
 6.63410251e+00  2.48344618e+01 -3.17506130e-04  2.48344618e+01 -4.32945853e-03  2.48344618e+01 -4.33002293e-03 
 6.78708313e+00  2.48344618e+01 -4.05074853e-04  2.48344618e+01 -4.42929468e-03  2.48344618e+01 -4.42987209e-03 
 6.94359143e+00  2.48344618e+01 -4.92854120e-04  2.48344618e+01 -4.53143301e-03  2.48344618e+01 -4.53202374e-03 
 7.10370877e+00  2.48344618e+01 -5.80889556e-04  2.48344618e+01 -4.63592664e-03  2.48344618e+01 -4.63653098e-03 
 7.26751838e+00  2.48344618e+01 -6.69226918e-04  2.48344618e+01 -4.74282985e-03  2.48344618e+01 -4.74344814e-03 
 7.43510539e+00  2.48344618e+01 -7.57912122e-04  2.48344618e+01 -4.85219823e-03  2.48344618e+01 -4.85283077e-03 
 7.60655691e+00  2.48344618e+01 -8.46991261e-04  2.48344618e+01 -4.96408861e-03  2.48344618e+01 -4.96473573e-03 
 7.78196206e+00  2.48344618e+01 -9.36510638e-04  2.48344618e+01 -5.07855915e-03  2.48344618e+01 -5.07922120e-03 
 7.96141200e+00  2.48344618e+01 -1.02651678e-03  2.48344618e+01 -5.19566935e-03  2.48344618e+01 -5.19634667e-03 
 8.14500001e+00  2.48344618e+01 -1.11705647e-03  2.48344618e+01 -5.31548008e-03  2.48344618e+01 -5.31617302e-03 
 8.33282151e+00  2.48344618e+01 -1.20817677e-03  2.48344618e+01 -5.43805361e-03  2.48344618e+01 -5.43876253e-03 
 8.52497412e+00  2.48344618e+01 -1.29992504e-03  2.48344618e+01 -5.56345366e-03  2.48344618e+01 -5.56417892e-03 
 8.72155772e+00  2.48344618e+01 -1.39234896e-03  2.48344618e+01 -5.69174540e-03  2.48344618e+01 -5.69248739e-03 
 8.92267449e+00  2.48344618e+01 -1.48549658e-03  2.48344618e+01 -5.82299551e-03  2.48344618e+01 -5.82375461e-03 
 9.12842895e+00  2.48344618e+01 -1.57941630e-03  2.48344618e+01 -5.95727221e-03  2.48344618e+01 -5.95804881e-03 
 9.33892805e+00  2.48344618e+01 -1.67415696e-03  2.48344618e+01 -6.09464530e-03  2.48344618e+01 -6.09543981e-03 
 9.55428121e+00  2.48344618e+01 -1.76976778e-03  2.48344618e+01 -6.23518617e-03  2.48344618e+01 -6.23599900e-03 
 9.77460036e+00  2.48344618e+01 -1.86629847e-03  2.48344618e+01 -6.37896788e-03  2.48344618e+01 -6.37979946e-03 
 1.00000000e+01  2.48344618e+01 -1.96379919e-03  2.48344618e+01 -6.52606516e-03  2.48344618e+01 -6.52691591e-03 
 1.02305973e+01  2.48344618e+01 -2.06232063e-03  2.48344618e+01 -6.67655446e-03  2.48344618e+01 -6.67742482e-03 
 1.04665121e+01  2.48344618e+01 -2.16191399e-03  2.48344618e+01 -6.83051400e-03  2.48344618e+01 -6.83140444e-03 
 1.07078670e+01  2.48344618e+01 -2.26263104e-03  2.48344618e+01 -6.98802380e-03  2.48344618e+01 -6.98893478e-03 
 1.09547876e+01  2.48344618e+01 -2.36452413e-03  2.48344618e+01 -7.14916574e-03  2.48344618e+01 -7.15009772e-03 
 1.12074020e+01  2.48344618e+01 -2.46764622e-03  2.48344618e+01 -7.31402357e-03  2.48344618e+01 -7.31497704e-03 
 1.14658417e+01  2.48344618e+01 -2.57205090e-03  2.48344618e+01 -7.48268298e-03  2.48344618e+01 -7.48365844e-03 
 1.17302409e+01  2.48344618e+01 -2.67779245e-03  2.48344618e+01 -7.65523163e-03  2.48344618e+01 -7.65622958e-03 
 1.20007371e+01  2.48344618e+01 -2.78492582e-03  2.48344618e+01 -7.83175920e-03  2.48344618e+01 -7.83278016e-03 
 1.22774708e+01  2.48344618e+01 -2.89350670e-03  2.48344618e+01 -8.01235745e-03  2.48344618e+01 -8.01340195e-03 
 1.25605860e+01  2.48344618e+01 -3.00359152e-03  2.48344618e+01 -8.19712024e-03  2.48344618e+01 -8.19818884e-03 
 1.28502297e+01  2.48344618e+01 -3.11523751e-03  2.48344618e+01 -8.38614362e-03  2.48344618e+01 -8.38723686e-03 
 1.31465525e+01  2.48344618e+01 -3.22850269e-03  2.48344618e+01 -8.57952583e-03  2.48344618e+01 -8.58064427e-03 
 1.34497085e+01  2.48344618e+01 -3.34344593e-03  2.48344618e+01 -8.77736737e-03  2.48344618e+01 -8.77851161e-03 
 1.37598551e+01  2.48344618e+01 -3.46012698e-03  2.48344618e+01 -8.97977109e-03  2.48344618e+01 -8.98094171e-03 
 1.40771537e+01  2.48344618e+01 -3.57860649e-03  2.48344618e+01 -9.18684218e-03  2.48344618e+01 -9.18803980e-03 
 1.44017690e+01  2.48344618e+01 -3.69894603e-03  2.48344618e+01 -9.39868828e-03  2.48344618e+01 -9.39991351e-03 
 1.47338699e+01  2.48344618e+01 -3.82120816e-03  2.48344617e+01 -9.61541949e-03  2.48344617e+01 -9.61667298e-03 
 1.50736290e+01  2.48344618e+01 -3.94545642e-03  2.48344617e+01 -9.83714846e-03  2.48344617e+01 -9.83843085e-03 
 1.54212228e+01  2.48344618e+01 -4.07175539e-03  2.48344617e+01 -1.00639904e-02  2.48344617e+01 -1.00653024e-02 
 1.57768320e+01  2.48344618e+01 -4.20017072e-03  2.48344617e+01 -1.02960633e-02  2.48344617e+01 -1.02974056e-02 
 1.61406415e+01  2.48344618e+01 -4.33076915e-03  2.48344617e+01 -1.05334878e-02  2.48344617e+01 -1.05348609e-02 
 1.65128404e+01  2.48344618e+01 -4.46361857e-03  2.48344617e+01 -1.07763872e-02  2.48344617e+01 -1.07777920e-02 
 1.68936220e+01  2.48344618e+01 -4.59878802e-03  2.48344617e+01 -1.10248877e-02  2.48344617e+01 -1.10263250e-02 
 1.72831844e+01  2.48344618e+01 -4.73634776e-03  2.48344617e+01 -1.12791187e-02  2.48344617e+01 -1.12805890e-02 
 1.76817299e+01  2.48344618e+01 -4.87636930e-03  2.48344617e+01 -1.15392121e-02  2.48344617e+01 -1.15407164e-02 
 1.80894658e+01  2.48344618e+01 -5.01892540e-03  2.48344617e+01 -1.18053032e-02  2.48344617e+01 -1.18068422e-02 
 1.85066040e+01  2.48344618e+01 -5.16409016e-03  2.48344617e+01 -1.20775303e-02  2.48344617e+01 -1.20791047e-02 
 1.89333613e+01  2.48344618e+01 -5.31193905e-03  2.48344617e+01 -1.23560349e-02  2.48344617e+01 -1.23576456e-02 
 1.93699595e+01  2.48344618e+01 -5.46254889e-03  2.48344617e+01 -1.26409617e-02  2.48344617e+01 -1.26426096e-02 
 1.98166255e+01  2.48344618e+01 -5.61599798e-03  2.48344617e+01 -1.29324589e-02  2.48344617e+01 -1.29341448e-02 
 2.02735916e+01  2.48344618e+01 -5.77236607e-03  2.48344617e+01 -1.32306779e-02  2.48344617e+01 -1.32324026e-02 
 2.07410951e+01  2.48344618e+01 -5.93173443e-03  2.48344617e+01 -1.35357737e-02  2.48344617e+01 -1.35375383e-02 
 2.12193792e+01  2.48344618e+01 -6.09418591e-03  2.48344616e+01 -1.38479050e-02  2.48344616e+01 -1.38497102e-02 
 2.17086923e+01  2.48344618e+01 -6.25980494e-03  2.48344616e+01 -1.41672339e-02  2.48344616e+01 -1.41690808e-02 
 2.22092889e+01  2.48344618e+01 -6.42867759e-03  2.48344616e+01 -1.44939265e-02  2.48344616e+01 -1.44958160e-02 
 2.27214291e+01  2.48344618e+01 -6.60089165e-03  2.48344616e+01 -1.48281525e-02  2.48344616e+01 -1.48300855e-02 
 2.32453791e+01  2.48344618e+01 -6.77653662e-03  2.48344616e+01 -1.51700857e-02  2.48344616e+01 -1.51720633e-02 
 2.37814113e+01  2.48344618e+01 -6.95570381e-03  2.48344616e+01 -1.55199038e-02  2.48344616e+01 -1.55219270e-02 
 2.43298042e+01  2.48344617e+01 -7.13848633e-03  2.48344616e+01 -1.58777886e-02  2.48344616e+01 -1.58798584e-02 
 2.48908429e+01  2.48344617e+01 -7.32497919e-03  2.48344616e+01 -1.62439261e-02  2.48344616e+01 -1.62460436e-02 
 2.54648190e+01  2.48344617e+01 -7.51527932e-03  2.48344616e+01 -1.66185066e-02  2.48344616e+01 -1.66206730e-02 
 2.60520309e+01  2.48344617e+01 -7.70948563e-03  2.48344615e+01 -1.70017248e-02  2.48344615e+01 -1.70039412e-02 
 2.66527837e+01  2.48344617e+01 -7.90769906e-03  2.48344615e+01 -1.73937800e-02  2.48344615e+01 -1.73960475e-02 
 2.72673897e+01  2.48344617e+01 -8.11002265e-03  2.48344615e+01 -1.77948759e-02  2.48344615e+01 -1.77971956e-02 
 2.78961683e+01  2.48344617e+01 -8.31656154e-03  2.48344615e+01 -1.82052209e-02  2.48344615e+01 -1.82075942e-02 
 2.85394464e+01  2.48344617e+01 -8.52742310e-03  2.48344615e+01 -1.86250283e-02  2.48344615e+01 -1.86274563e-02 
 2.91975583e+01  2.48344617e+01 -8.74271691e-03  2.48344615e+01 -1.90545164e-02  2.48344615e+01 -1.90570004e-02 
 2.98708461e+01  2.48344617e+01 -8.96255489e-03  2.48344614e+01 -1.94939084e-02  2.48344614e+01 -1.94964497e-02 
 3.05596598e+01  2.48344617e+01 -9.18705129e-03  2.48344614e+01 -1.99434327e-02  2.48344614e+01 -1.99460325e-02 
 3.12643573e+01  2.48344617e+01 -9.41632281e-03  2.48344614e+01 -2.04033228e-02  2.48344614e+01 -2.04059826e-02 
 3.19853049e+01  2.48344617e+01 -9.65048860e-03  2.48344614e+01 -2.08738179e-02  2.48344614e+01 -2.08765391e-02 
 3.27228774e+01  2.48344617e+01 -9.88967039e-03  2.48344614e+01 -2.13551625e-02  2.48344614e+01 -2.13579464e-02 
 3.34774581e+01  2.48344617e+01 -1.01339925e-02  2.48344613e+01 -2.18476067e-02  2.48344613e+01 -2.18504548e-02 
 3.42494392e+01  2.48344617e+01 -1.03835819e-02  2.48344613e+01 -2.23514066e-02  2.48344613e+01 -2.23543204e-02 
 3.50392221e+01  2.48344616e+01 -1.06385683e-02  2.48344613e+01 -2.28668240e-02  2.48344613e+01 -2.28698049e-02 
 3.58472171e+01  2.48344616e+01 -1.08990843e-02  2.48344613e+01 -2.33941267e-02  2.48344613e+01 -2.33971764e-02 
 3.66738442e+01  2.48344616e+01 -1.11652652e-02  2.48344612e+01 -2.39335889e-02  2.48344612e+01 -2.39367090e-02 
 3.75195331e+01  2.48344616e+01 -1.14372495e-02  2.48344612e+01 -2.44854910e-02  2.48344612e+01 -2.44886830e-02 
 3.83847234e+01  2.48344616e+01 -1.17151784e-02  2.48344612e+01 -2.50501198e-02  2.48344612e+01 -2.50533853e-02 
 3.92698648e+01  2.48344616e+01 -1.19991965e-02  2.48344612e+01 -2.56277687e-02  2.48344612e+01 -2.56311096e-02 
 4.01754173e+01  2.48344616e+01 -1.22894514e-02  2.48344611e+01 -2.62187381e-02  2.48344611e+01 -2.62221560e-02 
 4.11018515e+01  2.48344616e+01 -1.25860939e-02  2.48344611e+01 -2.68233350e-02  2.48344611e+01 -2.68268318e-02 
 4.20496491e+01  2.48344616e+01 -1.28892782e-02  2.48344611e+01 -2.74418739e-02  2.48344611e+01 -2.74454512e-02 
 4.30193027e+01  2.48344615e+01 -1.31991619e-02  2.48344610e+01 -2.80746760e-02  2.48344610e+01 -2.80783359e-02 
 4.40113162e+01  2.48344615e+01 -1.35159061e-02  2.48344610e+01 -2.87220704e-02  2.48344610e+01 -2.87258146e-02 
 4.50262052e+01  2.48344615e+01 -1.38396754e-02  2.48344609e+01 -2.93843935e-02  2.48344609e+01 -2.93882241e-02 
 4.60644974e+01  2.48344615e+01 -1.41706380e-02  2.48344609e+01 -3.00619896e-02  2.48344609e+01 -3.00659085e-02 
 4.71267322e+01  2.48344615e+01 -1.45089661e-02  2.48344608e+01 -3.07552109e-02  2.48344608e+01 -3.07592202e-02 
 4.82134619e+01  2.48344615e+01 -1.48548354e-02  2.48344608e+01 -3.14644176e-02  2.48344608e+01 -3.14685194e-02 
 4.93252513e+01  2.48344614e+01 -1.52084258e-02  2.48344608e+01 -3.21899785e-02  2.48344608e+01 -3.21941749e-02 
 5.04626783e+01  2.48344614e+01 -1.55699210e-02  2.48344607e+01 -3.29322706e-02  2.48344607e+01 -3.29365638e-02 
 5.16263340e+01  2.48344614e+01 -1.59395089e-02  2.48344606e+01 -3.36916798e-02  2.48344606e+01 -3.36960719e-02 
 5.28168234e+01  2.48344614e+01 -1.63173815e-02  2.48344606e+01 -3.44686007e-02  2.48344606e+01 -3.44730941e-02 
