 frequency       v(Zin_dm)       v(Zin_dm)      
 1.00000000e-02  1.12231085e+06 -2.25026105e-02 
 1.02305973e-02  1.12231085e+06 -2.30215147e-02 
 1.04665121e-02  1.12231085e+06 -2.35523846e-02 
 1.07078670e-02  1.12231085e+06 -2.40954962e-02 
 1.09547876e-02  1.12231085e+06 -2.46511318e-02 
 1.12074020e-02  1.12231085e+06 -2.52195803e-02 
 1.14658417e-02  1.12231085e+06 -2.58011370e-02 
 1.17302409e-02  1.12231085e+06 -2.63961042e-02 
 1.20007371e-02  1.12231085e+06 -2.70047913e-02 
 1.22774708e-02  1.12231085e+06 -2.76275145e-02 
 1.25605860e-02  1.12231085e+06 -2.82645975e-02 
 1.28502297e-02  1.12231085e+06 -2.89163715e-02 
 1.31465525e-02  1.12231085e+06 -2.95831752e-02 
 1.34497085e-02  1.12231085e+06 -3.02653552e-02 
 1.37598551e-02  1.12231085e+06 -3.09632661e-02 
 1.40771537e-02  1.12231085e+06 -3.16772707e-02 
 1.44017690e-02  1.12231085e+06 -3.24077400e-02 
 1.47338699e-02  1.12231085e+06 -3.31550537e-02 
 1.50736290e-02  1.12231085e+06 -3.39196003e-02 
 1.54212228e-02  1.12231085e+06 -3.47017771e-02 
 1.57768320e-02  1.12231085e+06 -3.55019907e-02 
 1.61406415e-02  1.12231085e+06 -3.63206570e-02 
 1.65128404e-02  1.12231085e+06 -3.71582016e-02 
 1.68936220e-02  1.12231085e+06 -3.80150596e-02 
 1.72831844e-02  1.12231085e+06 -3.88916766e-02 
 1.76817299e-02  1.12231085e+06 -3.97885082e-02 
 1.80894658e-02  1.12231085e+06 -4.07060205e-02 
 1.85066040e-02  1.12231085e+06 -4.16446903e-02 
 1.89333613e-02  1.12231085e+06 -4.26050056e-02 
 1.93699595e-02  1.12231085e+06 -4.35874655e-02 
 1.98166255e-02  1.12231085e+06 -4.45925807e-02 
 2.02735916e-02  1.12231085e+06 -4.56208736e-02 
 2.07410951e-02  1.12231085e+06 -4.66728786e-02 
 2.12193792e-02  1.12231085e+06 -4.77491426e-02 
 2.17086923e-02  1.12231085e+06 -4.88502249e-02 
 2.22092889e-02  1.12231085e+06 -4.99766979e-02 
 2.27214291e-02  1.12231085e+06 -5.11291470e-02 
 2.32453791e-02  1.12231085e+06 -5.23081713e-02 
 2.37814113e-02  1.12231085e+06 -5.35143836e-02 
 2.43298042e-02  1.12231085e+06 -5.47484109e-02 
 2.48908429e-02  1.12231085e+06 -5.60108944e-02 
 2.54648190e-02  1.12231085e+06 -5.73024905e-02 
 2.60520309e-02  1.12231085e+06 -5.86238705e-02 
 2.66527837e-02  1.12231085e+06 -5.99757211e-02 
 2.72673897e-02  1.12231085e+06 -6.13587450e-02 
 2.78961683e-02  1.12231085e+06 -6.27736611e-02 
 2.85394464e-02  1.12231085e+06 -6.42212048e-02 
 2.91975583e-02  1.12231085e+06 -6.57021284e-02 
 2.98708461e-02  1.12231085e+06 -6.72172017e-02 
 3.05596598e-02  1.12231085e+06 -6.87672122e-02 
 3.12643573e-02  1.12231085e+06 -7.03529656e-02 
 3.19853049e-02  1.12231085e+06 -7.19752860e-02 
 3.27228774e-02  1.12231085e+06 -7.36350166e-02 
 3.34774581e-02  1.12231085e+06 -7.53330202e-02 
 3.42494392e-02  1.12231085e+06 -7.70701793e-02 
 3.50392221e-02  1.12231085e+06 -7.88473968e-02 
 3.58472171e-02  1.12231085e+06 -8.06655965e-02 
 3.66738442e-02  1.12231085e+06 -8.25257233e-02 
 3.75195331e-02  1.12231085e+06 -8.44287442e-02 
 3.83847234e-02  1.12231085e+06 -8.63756482e-02 
 3.92698648e-02  1.12231085e+06 -8.83674474e-02 
 4.01754173e-02  1.12231085e+06 -9.04051768e-02 
 4.11018515e-02  1.12231085e+06 -9.24898958e-02 
 4.20496491e-02  1.12231085e+06 -9.46226878e-02 
 4.30193027e-02  1.12231085e+06 -9.68046614e-02 
 4.40113162e-02  1.12231085e+06 -9.90369507e-02 
 4.50262052e-02  1.12231085e+06 -1.01320716e-01 
 4.60644974e-02  1.12231085e+06 -1.03657144e-01 
 4.71267322e-02  1.12231085e+06 -1.06047450e-01 
 4.82134619e-02  1.12231085e+06 -1.08492876e-01 
 4.93252513e-02  1.12231085e+06 -1.10994692e-01 
 5.04626783e-02  1.12231085e+06 -1.13554200e-01 
 5.16263340e-02  1.12231085e+06 -1.16172729e-01 
 5.28168234e-02  1.12231085e+06 -1.18851641e-01 
 5.40347650e-02  1.12231085e+06 -1.21592327e-01 
 5.52807921e-02  1.12231085e+06 -1.24396214e-01 
 5.65555523e-02  1.12231085e+06 -1.27264757e-01 
 5.78597080e-02  1.12231085e+06 -1.30199448e-01 
 5.91939372e-02  1.12231085e+06 -1.33201812e-01 
 6.05589334e-02  1.12231085e+06 -1.36273409e-01 
 6.19554061e-02  1.12231085e+06 -1.39415837e-01 
 6.33840810e-02  1.12231085e+06 -1.42630729e-01 
 6.48457008e-02  1.12231085e+06 -1.45919755e-01 
 6.63410251e-02  1.12231085e+06 -1.49284625e-01 
 6.78708313e-02  1.12231085e+06 -1.52727088e-01 
 6.94359143e-02  1.12231085e+06 -1.56248934e-01 
 7.10370877e-02  1.12231085e+06 -1.59851992e-01 
 7.26751838e-02  1.12231085e+06 -1.63538136e-01 
 7.43510539e-02  1.12231085e+06 -1.67309281e-01 
 7.60655691e-02  1.12231085e+06 -1.71167388e-01 
 7.78196206e-02  1.12231085e+06 -1.75114461e-01 
 7.96141200e-02  1.12231085e+06 -1.79152554e-01 
 8.14500001e-02  1.12231085e+06 -1.83283763e-01 
 8.33282151e-02  1.12231085e+06 -1.87510237e-01 
 8.52497412e-02  1.12231085e+06 -1.91834173e-01 
 8.72155772e-02  1.12231085e+06 -1.96257817e-01 
 8.92267449e-02  1.12231085e+06 -2.00783469e-01 
 9.12842895e-02  1.12231085e+06 -2.05413482e-01 
 9.33892805e-02  1.12231085e+06 -2.10150261e-01 
 9.55428121e-02  1.12231085e+06 -2.14996269e-01 
 9.77460036e-02  1.12231085e+06 -2.19954025e-01 
 1.00000000e-01  1.12231085e+06 -2.25026105e-01 
 1.02305973e-01  1.12231085e+06 -2.30215147e-01 
 1.04665121e-01  1.12231085e+06 -2.35523846e-01 
 1.07078670e-01  1.12231085e+06 -2.40954962e-01 
 1.09547876e-01  1.12231085e+06 -2.46511318e-01 
 1.12074020e-01  1.12231085e+06 -2.52195803e-01 
 1.14658417e-01  1.12231085e+06 -2.58011370e-01 
 1.17302409e-01  1.12231085e+06 -2.63961042e-01 
 1.20007371e-01  1.12231085e+06 -2.70047913e-01 
 1.22774708e-01  1.12231085e+06 -2.76275145e-01 
 1.25605860e-01  1.12231085e+06 -2.82645975e-01 
 1.28502297e-01  1.12231085e+06 -2.89163715e-01 
 1.31465525e-01  1.12231085e+06 -2.95831752e-01 
 1.34497085e-01  1.12231085e+06 -3.02653552e-01 
 1.37598551e-01  1.12231085e+06 -3.09632661e-01 
 1.40771537e-01  1.12231085e+06 -3.16772707e-01 
 1.44017690e-01  1.12231085e+06 -3.24077400e-01 
 1.47338699e-01  1.12231085e+06 -3.31550537e-01 
 1.50736290e-01  1.12231085e+06 -3.39196003e-01 
 1.54212228e-01  1.12231085e+06 -3.47017771e-01 
 1.57768320e-01  1.12231085e+06 -3.55019907e-01 
 1.61406415e-01  1.12231085e+06 -3.63206570e-01 
 1.65128404e-01  1.12231085e+06 -3.71582016e-01 
 1.68936220e-01  1.12231085e+06 -3.80150596e-01 
 1.72831844e-01  1.12231085e+06 -3.88916766e-01 
 1.76817299e-01  1.12231085e+06 -3.97885082e-01 
 1.80894658e-01  1.12231085e+06 -4.07060205e-01 
 1.85066040e-01  1.12231085e+06 -4.16446903e-01 
 1.89333613e-01  1.12231085e+06 -4.26050056e-01 
 1.93699595e-01  1.12231085e+06 -4.35874655e-01 
 1.98166255e-01  1.12231085e+06 -4.45925807e-01 
 2.02735916e-01  1.12231085e+06 -4.56208736e-01 
 2.07410951e-01  1.12231085e+06 -4.66728786e-01 
 2.12193792e-01  1.12231085e+06 -4.77491426e-01 
 2.17086923e-01  1.12231085e+06 -4.88502249e-01 
 2.22092889e-01  1.12231085e+06 -4.99766979e-01 
 2.27214291e-01  1.12231085e+06 -5.11291470e-01 
 2.32453791e-01  1.12231085e+06 -5.23081713e-01 
 2.37814113e-01  1.12231085e+06 -5.35143836e-01 
 2.43298042e-01  1.12231085e+06 -5.47484109e-01 
 2.48908429e-01  1.12231085e+06 -5.60108944e-01 
 2.54648190e-01  1.12231085e+06 -5.73024905e-01 
 2.60520309e-01  1.12231085e+06 -5.86238705e-01 
 2.66527837e-01  1.12231085e+06 -5.99757211e-01 
 2.72673897e-01  1.12231085e+06 -6.13587450e-01 
 2.78961683e-01  1.12231085e+06 -6.27736611e-01 
 2.85394464e-01  1.12231085e+06 -6.42212048e-01 
 2.91975583e-01  1.12231085e+06 -6.57021284e-01 
 2.98708461e-01  1.12231085e+06 -6.72172017e-01 
 3.05596598e-01  1.12231085e+06 -6.87672122e-01 
 3.12643573e-01  1.12231085e+06 -7.03529656e-01 
 3.19853049e-01  1.12231085e+06 -7.19752860e-01 
 3.27228774e-01  1.12231085e+06 -7.36350166e-01 
 3.34774581e-01  1.12231085e+06 -7.53330202e-01 
 3.42494392e-01  1.12231085e+06 -7.70701793e-01 
 3.50392221e-01  1.12231085e+06 -7.88473968e-01 
 3.58472171e-01  1.12231085e+06 -8.06655965e-01 
 3.66738442e-01  1.12231085e+06 -8.25257233e-01 
 3.75195331e-01  1.12231085e+06 -8.44287442e-01 
 3.83847234e-01  1.12231085e+06 -8.63756482e-01 
 3.92698648e-01  1.12231085e+06 -8.83674474e-01 
 4.01754173e-01  1.12231085e+06 -9.04051768e-01 
 4.11018515e-01  1.12231085e+06 -9.24898958e-01 
 4.20496491e-01  1.12231085e+06 -9.46226878e-01 
 4.30193027e-01  1.12231085e+06 -9.68046614e-01 
 4.40113162e-01  1.12231085e+06 -9.90369507e-01 
 4.50262052e-01  1.12231085e+06 -1.01320716e+00 
 4.60644974e-01  1.12231085e+06 -1.03657144e+00 
 4.71267322e-01  1.12231085e+06 -1.06047450e+00 
 4.82134619e-01  1.12231085e+06 -1.08492876e+00 
 4.93252513e-01  1.12231085e+06 -1.10994692e+00 
 5.04626783e-01  1.12231085e+06 -1.13554200e+00 
 5.16263340e-01  1.12231085e+06 -1.16172729e+00 
 5.28168234e-01  1.12231085e+06 -1.18851641e+00 
 5.40347650e-01  1.12231085e+06 -1.21592327e+00 
 5.52807921e-01  1.12231085e+06 -1.24396214e+00 
 5.65555523e-01  1.12231085e+06 -1.27264757e+00 
 5.78597080e-01  1.12231085e+06 -1.30199448e+00 
 5.91939372e-01  1.12231085e+06 -1.33201812e+00 
 6.05589334e-01  1.12231085e+06 -1.36273409e+00 
 6.19554061e-01  1.12231085e+06 -1.39415837e+00 
 6.33840810e-01  1.12231085e+06 -1.42630729e+00 
 6.48457008e-01  1.12231085e+06 -1.45919755e+00 
 6.63410251e-01  1.12231085e+06 -1.49284625e+00 
 6.78708313e-01  1.12231085e+06 -1.52727088e+00 
 6.94359143e-01  1.12231085e+06 -1.56248934e+00 
 7.10370877e-01  1.12231085e+06 -1.59851992e+00 
 7.26751838e-01  1.12231085e+06 -1.63538136e+00 
 7.43510539e-01  1.12231085e+06 -1.67309281e+00 
 7.60655691e-01  1.12231085e+06 -1.71167388e+00 
 7.78196206e-01  1.12231085e+06 -1.75114461e+00 
 7.96141200e-01  1.12231085e+06 -1.79152554e+00 
 8.14500001e-01  1.12231085e+06 -1.83283763e+00 
 8.33282151e-01  1.12231085e+06 -1.87510237e+00 
 8.52497412e-01  1.12231085e+06 -1.91834173e+00 
 8.72155772e-01  1.12231085e+06 -1.96257817e+00 
 8.92267449e-01  1.12231085e+06 -2.00783469e+00 
 9.12842895e-01  1.12231085e+06 -2.05413482e+00 
 9.33892805e-01  1.12231085e+06 -2.10150261e+00 
 9.55428121e-01  1.12231085e+06 -2.14996269e+00 
 9.77460036e-01  1.12231085e+06 -2.19954025e+00 
 1.00000000e+00  1.12231085e+06 -2.25026105e+00 
 1.02305973e+00  1.12231085e+06 -2.30215147e+00 
 1.04665121e+00  1.12231085e+06 -2.35523846e+00 
 1.07078670e+00  1.12231085e+06 -2.40954962e+00 
 1.09547876e+00  1.12231085e+06 -2.46511318e+00 
 1.12074020e+00  1.12231085e+06 -2.52195803e+00 
 1.14658417e+00  1.12231085e+06 -2.58011370e+00 
 1.17302409e+00  1.12231085e+06 -2.63961042e+00 
 1.20007371e+00  1.12231085e+06 -2.70047913e+00 
 1.22774708e+00  1.12231085e+06 -2.76275145e+00 
 1.25605860e+00  1.12231085e+06 -2.82645975e+00 
 1.28502297e+00  1.12231085e+06 -2.89163715e+00 
 1.31465525e+00  1.12231085e+06 -2.95831752e+00 
 1.34497085e+00  1.12231085e+06 -3.02653552e+00 
 1.37598551e+00  1.12231085e+06 -3.09632661e+00 
 1.40771537e+00  1.12231085e+06 -3.16772707e+00 
 1.44017690e+00  1.12231085e+06 -3.24077400e+00 
 1.47338699e+00  1.12231085e+06 -3.31550537e+00 
 1.50736290e+00  1.12231085e+06 -3.39196003e+00 
 1.54212228e+00  1.12231085e+06 -3.47017771e+00 
 1.57768320e+00  1.12231085e+06 -3.55019907e+00 
 1.61406415e+00  1.12231085e+06 -3.63206570e+00 
 1.65128404e+00  1.12231085e+06 -3.71582016e+00 
 1.68936220e+00  1.12231085e+06 -3.80150596e+00 
 1.72831844e+00  1.12231085e+06 -3.88916766e+00 
 1.76817299e+00  1.12231085e+06 -3.97885082e+00 
 1.80894658e+00  1.12231085e+06 -4.07060205e+00 
 1.85066040e+00  1.12231085e+06 -4.16446903e+00 
 1.89333613e+00  1.12231085e+06 -4.26050056e+00 
 1.93699595e+00  1.12231085e+06 -4.35874655e+00 
 1.98166255e+00  1.12231085e+06 -4.45925807e+00 
 2.02735916e+00  1.12231085e+06 -4.56208736e+00 
 2.07410951e+00  1.12231085e+06 -4.66728786e+00 
 2.12193792e+00  1.12231085e+06 -4.77491425e+00 
 2.17086923e+00  1.12231085e+06 -4.88502249e+00 
 2.22092889e+00  1.12231085e+06 -4.99766979e+00 
 2.27214291e+00  1.12231085e+06 -5.11291470e+00 
 2.32453791e+00  1.12231085e+06 -5.23081713e+00 
 2.37814113e+00  1.12231085e+06 -5.35143836e+00 
 2.43298042e+00  1.12231085e+06 -5.47484109e+00 
 2.48908429e+00  1.12231085e+06 -5.60108944e+00 
 2.54648190e+00  1.12231085e+06 -5.73024905e+00 
 2.60520309e+00  1.12231085e+06 -5.86238705e+00 
 2.66527837e+00  1.12231085e+06 -5.99757211e+00 
 2.72673897e+00  1.12231085e+06 -6.13587450e+00 
 2.78961683e+00  1.12231085e+06 -6.27736611e+00 
 2.85394464e+00  1.12231085e+06 -6.42212048e+00 
 2.91975583e+00  1.12231085e+06 -6.57021284e+00 
 2.98708461e+00  1.12231085e+06 -6.72172017e+00 
 3.05596598e+00  1.12231085e+06 -6.87672122e+00 
 3.12643573e+00  1.12231085e+06 -7.03529656e+00 
 3.19853049e+00  1.12231085e+06 -7.19752859e+00 
 3.27228774e+00  1.12231085e+06 -7.36350166e+00 
 3.34774581e+00  1.12231085e+06 -7.53330202e+00 
 3.42494392e+00  1.12231085e+06 -7.70701793e+00 
 3.50392221e+00  1.12231085e+06 -7.88473968e+00 
 3.58472171e+00  1.12231085e+06 -8.06655965e+00 
 3.66738442e+00  1.12231085e+06 -8.25257233e+00 
 3.75195331e+00  1.12231085e+06 -8.44287442e+00 
 3.83847234e+00  1.12231085e+06 -8.63756482e+00 
 3.92698648e+00  1.12231085e+06 -8.83674474e+00 
 4.01754173e+00  1.12231085e+06 -9.04051768e+00 
 4.11018515e+00  1.12231085e+06 -9.24898958e+00 
 4.20496491e+00  1.12231085e+06 -9.46226878e+00 
 4.30193027e+00  1.12231085e+06 -9.68046614e+00 
 4.40113162e+00  1.12231085e+06 -9.90369507e+00 
 4.50262052e+00  1.12231085e+06 -1.01320716e+01 
 4.60644974e+00  1.12231085e+06 -1.03657144e+01 
 4.71267322e+00  1.12231085e+06 -1.06047450e+01 
 4.82134619e+00  1.12231085e+06 -1.08492876e+01 
 4.93252513e+00  1.12231085e+06 -1.10994692e+01 
 5.04626783e+00  1.12231085e+06 -1.13554200e+01 
 5.16263340e+00  1.12231085e+06 -1.16172729e+01 
 5.28168234e+00  1.12231085e+06 -1.18851641e+01 
 5.40347650e+00  1.12231085e+06 -1.21592327e+01 
 5.52807921e+00  1.12231085e+06 -1.24396214e+01 
 5.65555523e+00  1.12231085e+06 -1.27264757e+01 
 5.78597080e+00  1.12231085e+06 -1.30199448e+01 
 5.91939372e+00  1.12231085e+06 -1.33201812e+01 
 6.05589334e+00  1.12231085e+06 -1.36273409e+01 
 6.19554061e+00  1.12231085e+06 -1.39415837e+01 
 6.33840810e+00  1.12231085e+06 -1.42630729e+01 
 6.48457008e+00  1.12231085e+06 -1.45919755e+01 
 6.63410251e+00  1.12231085e+06 -1.49284625e+01 
 6.78708313e+00  1.12231085e+06 -1.52727088e+01 
 6.94359143e+00  1.12231085e+06 -1.56248934e+01 
 7.10370877e+00  1.12231085e+06 -1.59851992e+01 
 7.26751838e+00  1.12231085e+06 -1.63538136e+01 
 7.43510539e+00  1.12231085e+06 -1.67309281e+01 
 7.60655691e+00  1.12231085e+06 -1.71167388e+01 
 7.78196206e+00  1.12231085e+06 -1.75114461e+01 
 7.96141200e+00  1.12231085e+06 -1.79152554e+01 
 8.14500001e+00  1.12231085e+06 -1.83283763e+01 
 8.33282151e+00  1.12231085e+06 -1.87510237e+01 
 8.52497412e+00  1.12231085e+06 -1.91834172e+01 
 8.72155772e+00  1.12231085e+06 -1.96257817e+01 
 8.92267449e+00  1.12231085e+06 -2.00783469e+01 
 9.12842895e+00  1.12231085e+06 -2.05413481e+01 
 9.33892805e+00  1.12231085e+06 -2.10150261e+01 
 9.55428121e+00  1.12231085e+06 -2.14996269e+01 
 9.77460036e+00  1.12231085e+06 -2.19954025e+01 
 1.00000000e+01  1.12231085e+06 -2.25026105e+01 
 1.02305973e+01  1.12231085e+06 -2.30215147e+01 
 1.04665121e+01  1.12231085e+06 -2.35523846e+01 
 1.07078670e+01  1.12231085e+06 -2.40954962e+01 
 1.09547876e+01  1.12231085e+06 -2.46511318e+01 
 1.12074020e+01  1.12231085e+06 -2.52195803e+01 
 1.14658417e+01  1.12231085e+06 -2.58011370e+01 
 1.17302409e+01  1.12231085e+06 -2.63961042e+01 
 1.20007371e+01  1.12231085e+06 -2.70047912e+01 
 1.22774708e+01  1.12231085e+06 -2.76275144e+01 
 1.25605860e+01  1.12231085e+06 -2.82645974e+01 
 1.28502297e+01  1.12231085e+06 -2.89163714e+01 
 1.31465525e+01  1.12231085e+06 -2.95831751e+01 
 1.34497085e+01  1.12231085e+06 -3.02653552e+01 
 1.37598551e+01  1.12231085e+06 -3.09632661e+01 
 1.40771537e+01  1.12231085e+06 -3.16772706e+01 
 1.44017690e+01  1.12231085e+06 -3.24077399e+01 
 1.47338699e+01  1.12231085e+06 -3.31550537e+01 
 1.50736290e+01  1.12231085e+06 -3.39196002e+01 
 1.54212228e+01  1.12231085e+06 -3.47017770e+01 
 1.57768320e+01  1.12231085e+06 -3.55019906e+01 
 1.61406415e+01  1.12231085e+06 -3.63206570e+01 
 1.65128404e+01  1.12231085e+06 -3.71582015e+01 
 1.68936220e+01  1.12231085e+06 -3.80150596e+01 
 1.72831844e+01  1.12231085e+06 -3.88916766e+01 
 1.76817299e+01  1.12231085e+06 -3.97885081e+01 
 1.80894658e+01  1.12231085e+06 -4.07060204e+01 
 1.85066040e+01  1.12231085e+06 -4.16446902e+01 
 1.89333613e+01  1.12231085e+06 -4.26050055e+01 
 1.93699595e+01  1.12231085e+06 -4.35874654e+01 
 1.98166255e+01  1.12231085e+06 -4.45925806e+01 
 2.02735916e+01  1.12231085e+06 -4.56208734e+01 
 2.07410951e+01  1.12231085e+06 -4.66728785e+01 
 2.12193792e+01  1.12231085e+06 -4.77491424e+01 
 2.17086923e+01  1.12231085e+06 -4.88502247e+01 
 2.22092889e+01  1.12231085e+06 -4.99766977e+01 
 2.27214291e+01  1.12231085e+06 -5.11291468e+01 
 2.32453791e+01  1.12231085e+06 -5.23081712e+01 
 2.37814113e+01  1.12231085e+06 -5.35143834e+01 
 2.43298042e+01  1.12231085e+06 -5.47484107e+01 
 2.48908429e+01  1.12231085e+06 -5.60108942e+01 
 2.54648190e+01  1.12231085e+06 -5.73024903e+01 
 2.60520309e+01  1.12231085e+06 -5.86238702e+01 
 2.66527837e+01  1.12231085e+06 -5.99757208e+01 
 2.72673897e+01  1.12231085e+06 -6.13587447e+01 
 2.78961683e+01  1.12231085e+06 -6.27736608e+01 
 2.85394464e+01  1.12231085e+06 -6.42212044e+01 
 2.91975583e+01  1.12231084e+06 -6.57021280e+01 
 2.98708461e+01  1.12231084e+06 -6.72172013e+01 
 3.05596598e+01  1.12231084e+06 -6.87672118e+01 
 3.12643573e+01  1.12231084e+06 -7.03529651e+01 
 3.19853049e+01  1.12231084e+06 -7.19752855e+01 
 3.27228774e+01  1.12231084e+06 -7.36350161e+01 
 3.34774581e+01  1.12231084e+06 -7.53330197e+01 
 3.42494392e+01  1.12231084e+06 -7.70701787e+01 
 3.50392221e+01  1.12231084e+06 -7.88473962e+01 
 3.58472171e+01  1.12231084e+06 -8.06655958e+01 
 3.66738442e+01  1.12231084e+06 -8.25257226e+01 
 3.75195331e+01  1.12231084e+06 -8.44287435e+01 
 3.83847234e+01  1.12231084e+06 -8.63756474e+01 
 3.92698648e+01  1.12231084e+06 -8.83674465e+01 
 4.01754173e+01  1.12231084e+06 -9.04051759e+01 
 4.11018515e+01  1.12231084e+06 -9.24898948e+01 
 4.20496491e+01  1.12231084e+06 -9.46226867e+01 
 4.30193027e+01  1.12231084e+06 -9.68046603e+01 
 4.40113162e+01  1.12231084e+06 -9.90369495e+01 
 4.50262052e+01  1.12231084e+06 -1.01320715e+02 
 4.60644974e+01  1.12231084e+06 -1.03657143e+02 
 4.71267322e+01  1.12231084e+06 -1.06047449e+02 
 4.82134619e+01  1.12231084e+06 -1.08492874e+02 
 4.93252513e+01  1.12231083e+06 -1.10994690e+02 
 5.04626783e+01  1.12231083e+06 -1.13554198e+02 
 5.16263340e+01  1.12231083e+06 -1.16172727e+02 
 5.28168234e+01  1.12231083e+06 -1.18851639e+02 
 5.40347650e+01  1.12231083e+06 -1.21592325e+02 
 5.52807921e+01  1.12231083e+06 -1.24396211e+02 
 5.65555523e+01  1.12231083e+06 -1.27264754e+02 
 5.78597080e+01  1.12231083e+06 -1.30199445e+02 
 5.91939372e+01  1.12231083e+06 -1.33201809e+02 
 6.05589334e+01  1.12231083e+06 -1.36273406e+02 
 6.19554061e+01  1.12231083e+06 -1.39415834e+02 
 6.33840810e+01  1.12231082e+06 -1.42630725e+02 
 6.48457008e+01  1.12231082e+06 -1.45919751e+02 
 6.63410251e+01  1.12231082e+06 -1.49284621e+02 
 6.78708313e+01  1.12231082e+06 -1.52727084e+02 
 6.94359143e+01  1.12231082e+06 -1.56248929e+02 
 7.10370877e+01  1.12231082e+06 -1.59851987e+02 
 7.26751838e+01  1.12231082e+06 -1.63538130e+02 
 7.43510539e+01  1.12231081e+06 -1.67309275e+02 
 7.60655691e+01  1.12231081e+06 -1.71167381e+02 
 7.78196206e+01  1.12231081e+06 -1.75114455e+02 
 7.96141200e+01  1.12231081e+06 -1.79152546e+02 
 8.14500001e+01  1.12231081e+06 -1.83283755e+02 
 8.33282151e+01  1.12231081e+06 -1.87510229e+02 
 8.52497412e+01  1.12231080e+06 -1.91834164e+02 
 8.72155772e+01  1.12231080e+06 -1.96257807e+02 
 8.92267449e+01  1.12231080e+06 -2.00783459e+02 
 9.12842895e+01  1.12231080e+06 -2.05413471e+02 
 9.33892805e+01  1.12231079e+06 -2.10150249e+02 
 9.55428121e+01  1.12231079e+06 -2.14996257e+02 
 9.77460036e+01  1.12231079e+06 -2.19954012e+02 
 1.00000000e+02  1.12231079e+06 -2.25026091e+02 
 1.02305973e+02  1.12231078e+06 -2.30215131e+02 
 1.04665121e+02  1.12231078e+06 -2.35523829e+02 
