 frequency       v(Amag_dB)      v(Aarg)        
 1.00000000e+00  3.10694145e+01 -2.84208762e-02 
 1.02305973e+00  3.10694144e+01 -2.90762539e-02 
 1.04665121e+00  3.10694144e+01 -2.97467443e-02 
 1.07078670e+00  3.10694143e+01 -3.04326961e-02 
 1.09547876e+00  3.10694143e+01 -3.11344657e-02 
 1.12074020e+00  3.10694142e+01 -3.18524179e-02 
 1.14658417e+00  3.10694142e+01 -3.25869259e-02 
 1.17302409e+00  3.10694141e+01 -3.33383714e-02 
 1.20007371e+00  3.10694140e+01 -3.41071451e-02 
 1.22774708e+00  3.10694140e+01 -3.48936465e-02 
 1.25605860e+00  3.10694139e+01 -3.56982843e-02 
 1.28502297e+00  3.10694138e+01 -3.65214769e-02 
 1.31465525e+00  3.10694137e+01 -3.73636521e-02 
 1.34497085e+00  3.10694136e+01 -3.82252475e-02 
 1.37598551e+00  3.10694135e+01 -3.91067111e-02 
 1.40771537e+00  3.10694135e+01 -4.00085010e-02 
 1.44017690e+00  3.10694134e+01 -4.09310860e-02 
 1.47338699e+00  3.10694133e+01 -4.18749454e-02 
 1.50736290e+00  3.10694131e+01 -4.28405700e-02 
 1.54212228e+00  3.10694130e+01 -4.38284616e-02 
 1.57768320e+00  3.10694129e+01 -4.48391337e-02 
 1.61406415e+00  3.10694128e+01 -4.58731115e-02 
 1.65128404e+00  3.10694127e+01 -4.69309326e-02 
 1.68936220e+00  3.10694125e+01 -4.80131468e-02 
 1.72831844e+00  3.10694124e+01 -4.91203164e-02 
 1.76817299e+00  3.10694122e+01 -5.02530171e-02 
 1.80894658e+00  3.10694121e+01 -5.14118375e-02 
 1.85066040e+00  3.10694119e+01 -5.25973799e-02 
 1.89333613e+00  3.10694118e+01 -5.38102606e-02 
 1.93699595e+00  3.10694116e+01 -5.50511099e-02 
 1.98166255e+00  3.10694114e+01 -5.63205728e-02 
 2.02735916e+00  3.10694112e+01 -5.76193091e-02 
 2.07410951e+00  3.10694110e+01 -5.89479939e-02 
 2.12193792e+00  3.10694108e+01 -6.03073178e-02 
 2.17086923e+00  3.10694106e+01 -6.16979872e-02 
 2.22092889e+00  3.10694103e+01 -6.31207249e-02 
 2.27214291e+00  3.10694101e+01 -6.45762706e-02 
 2.32453791e+00  3.10694098e+01 -6.60653807e-02 
 2.37814113e+00  3.10694095e+01 -6.75888291e-02 
 2.43298042e+00  3.10694093e+01 -6.91474077e-02 
 2.48908429e+00  3.10694090e+01 -7.07419267e-02 
 2.54648190e+00  3.10694087e+01 -7.23732147e-02 
 2.60520309e+00  3.10694083e+01 -7.40421197e-02 
 2.66527837e+00  3.10694080e+01 -7.57495090e-02 
 2.72673897e+00  3.10694077e+01 -7.74962701e-02 
 2.78961683e+00  3.10694073e+01 -7.92833109e-02 
 2.85394464e+00  3.10694069e+01 -8.11115603e-02 
 2.91975583e+00  3.10694065e+01 -8.29819684e-02 
 2.98708461e+00  3.10694061e+01 -8.48955074e-02 
 3.05596598e+00  3.10694056e+01 -8.68531719e-02 
 3.12643573e+00  3.10694052e+01 -8.88559794e-02 
 3.19853049e+00  3.10694047e+01 -9.09049710e-02 
 3.27228774e+00  3.10694042e+01 -9.30012114e-02 
 3.34774581e+00  3.10694036e+01 -9.51457904e-02 
 3.42494392e+00  3.10694031e+01 -9.73398224e-02 
 3.50392221e+00  3.10694025e+01 -9.95844480e-02 
 3.58472171e+00  3.10694019e+01 -1.01880834e-01 
 3.66738442e+00  3.10694013e+01 -1.04230173e-01 
 3.75195331e+00  3.10694006e+01 -1.06633687e-01 
 3.83847234e+00  3.10693999e+01 -1.09092626e-01 
 3.92698648e+00  3.10693992e+01 -1.11608266e-01 
 4.01754173e+00  3.10693984e+01 -1.14181916e-01 
 4.11018515e+00  3.10693976e+01 -1.16814912e-01 
 4.20496491e+00  3.10693968e+01 -1.19508625e-01 
 4.30193027e+00  3.10693959e+01 -1.22264454e-01 
 4.40113162e+00  3.10693950e+01 -1.25083830e-01 
 4.50262052e+00  3.10693940e+01 -1.27968220e-01 
 4.60644974e+00  3.10693930e+01 -1.30919122e-01 
 4.71267322e+00  3.10693920e+01 -1.33938071e-01 
 4.82134619e+00  3.10693908e+01 -1.37026635e-01 
 4.93252513e+00  3.10693897e+01 -1.40186420e-01 
 5.04626783e+00  3.10693885e+01 -1.43419068e-01 
 5.16263340e+00  3.10693872e+01 -1.46726259e-01 
 5.28168234e+00  3.10693859e+01 -1.50109711e-01 
 5.40347650e+00  3.10693845e+01 -1.53571185e-01 
 5.52807921e+00  3.10693831e+01 -1.57112477e-01 
 5.65555523e+00  3.10693816e+01 -1.60735430e-01 
 5.78597080e+00  3.10693800e+01 -1.64441925e-01 
 5.91939372e+00  3.10693783e+01 -1.68233890e-01 
 6.05589334e+00  3.10693766e+01 -1.72113296e-01 
 6.19554061e+00  3.10693748e+01 -1.76082157e-01 
 6.33840810e+00  3.10693729e+01 -1.80142538e-01 
 6.48457008e+00  3.10693709e+01 -1.84296548e-01 
 6.63410251e+00  3.10693688e+01 -1.88546347e-01 
 6.78708313e+00  3.10693666e+01 -1.92894142e-01 
 6.94359143e+00  3.10693643e+01 -1.97342194e-01 
 7.10370877e+00  3.10693619e+01 -2.01892815e-01 
 7.26751838e+00  3.10693594e+01 -2.06548369e-01 
 7.43510539e+00  3.10693568e+01 -2.11311277e-01 
 7.60655691e+00  3.10693541e+01 -2.16184012e-01 
 7.78196206e+00  3.10693512e+01 -2.21169108e-01 
 7.96141200e+00  3.10693482e+01 -2.26269156e-01 
 8.14500001e+00  3.10693450e+01 -2.31486806e-01 
 8.33282151e+00  3.10693417e+01 -2.36824770e-01 
 8.52497412e+00  3.10693383e+01 -2.42285821e-01 
 8.72155772e+00  3.10693347e+01 -2.47872798e-01 
 8.92267449e+00  3.10693309e+01 -2.53588605e-01 
 9.12842895e+00  3.10693270e+01 -2.59436211e-01 
 9.33892805e+00  3.10693228e+01 -2.65418656e-01 
 9.55428121e+00  3.10693185e+01 -2.71539049e-01 
 9.77460036e+00  3.10693140e+01 -2.77800570e-01 
 1.00000000e+01  3.10693093e+01 -2.84206473e-01 
 1.02305973e+01  3.10693043e+01 -2.90760087e-01 
 1.04665121e+01  3.10692991e+01 -2.97464817e-01 
 1.07078670e+01  3.10692937e+01 -3.04324149e-01 
 1.09547876e+01  3.10692880e+01 -3.11341646e-01 
 1.12074020e+01  3.10692820e+01 -3.18520955e-01 
 1.14658417e+01  3.10692758e+01 -3.25865807e-01 
 1.17302409e+01  3.10692693e+01 -3.33380018e-01 
 1.20007371e+01  3.10692625e+01 -3.41067493e-01 
 1.22774708e+01  3.10692553e+01 -3.48932227e-01 
 1.25605860e+01  3.10692478e+01 -3.56978305e-01 
 1.28502297e+01  3.10692400e+01 -3.65209910e-01 
 1.31465525e+01  3.10692318e+01 -3.73631317e-01 
 1.34497085e+01  3.10692233e+01 -3.82246904e-01 
 1.37598551e+01  3.10692143e+01 -3.91061146e-01 
 1.40771537e+01  3.10692049e+01 -4.00078622e-01 
 1.44017690e+01  3.10691951e+01 -4.09304019e-01 
 1.47338699e+01  3.10691848e+01 -4.18742130e-01 
 1.50736290e+01  3.10691740e+01 -4.28397857e-01 
 1.54212228e+01  3.10691627e+01 -4.38276218e-01 
 1.57768320e+01  3.10691509e+01 -4.48382344e-01 
 1.61406415e+01  3.10691386e+01 -4.58721486e-01 
 1.65128404e+01  3.10691257e+01 -4.69299016e-01 
 1.68936220e+01  3.10691122e+01 -4.80120427e-01 
 1.72831844e+01  3.10690980e+01 -4.91191342e-01 
 1.76817299e+01  3.10690832e+01 -5.02517512e-01 
 1.80894658e+01  3.10690677e+01 -5.14104820e-01 
 1.85066040e+01  3.10690515e+01 -5.25959285e-01 
 1.89333613e+01  3.10690345e+01 -5.38087064e-01 
 1.93699595e+01  3.10690167e+01 -5.50494457e-01 
 1.98166255e+01  3.10689981e+01 -5.63187908e-01 
 2.02735916e+01  3.10689786e+01 -5.76174010e-01 
 2.07410951e+01  3.10689582e+01 -5.89459508e-01 
 2.12193792e+01  3.10689369e+01 -6.03051300e-01 
 2.17086923e+01  3.10689146e+01 -6.16956445e-01 
 2.22092889e+01  3.10688912e+01 -6.31182165e-01 
 2.27214291e+01  3.10688667e+01 -6.45735846e-01 
 2.32453791e+01  3.10688411e+01 -6.60625045e-01 
 2.37814113e+01  3.10688143e+01 -6.75857494e-01 
 2.43298042e+01  3.10687863e+01 -6.91441100e-01 
 2.48908429e+01  3.10687569e+01 -7.07383956e-01 
 2.54648190e+01  3.10687262e+01 -7.23694336e-01 
 2.60520309e+01  3.10686941e+01 -7.40380710e-01 
 2.66527837e+01  3.10686604e+01 -7.57451737e-01 
 2.72673897e+01  3.10686252e+01 -7.74916280e-01 
 2.78961683e+01  3.10685883e+01 -7.92783402e-01 
 2.85394464e+01  3.10685497e+01 -8.11062377e-01 
 2.91975583e+01  3.10685093e+01 -8.29762691e-01 
 2.98708461e+01  3.10684671e+01 -8.48894047e-01 
 3.05596598e+01  3.10684228e+01 -8.68466373e-01 
 3.12643573e+01  3.10683765e+01 -8.88489823e-01 
 3.19853049e+01  3.10683281e+01 -9.08974785e-01 
 3.27228774e+01  3.10682773e+01 -9.29931887e-01 
 3.34774581e+01  3.10682242e+01 -9.51371998e-01 
 3.42494392e+01  3.10681687e+01 -9.73306239e-01 
 3.50392221e+01  3.10681105e+01 -9.95745984e-01 
 3.58472171e+01  3.10680496e+01 -1.01870287e+00 
 3.66738442e+01  3.10679859e+01 -1.04218880e+00 
 3.75195331e+01  3.10679192e+01 -1.06621595e+00 
 3.83847234e+01  3.10678494e+01 -1.09079677e+00 
 3.92698648e+01  3.10677764e+01 -1.11594401e+00 
 4.01754173e+01  3.10676999e+01 -1.14167069e+00 
 4.11018515e+01  3.10676199e+01 -1.16799016e+00 
 4.20496491e+01  3.10675362e+01 -1.19491603e+00 
 4.30193027e+01  3.10674485e+01 -1.22246227e+00 
 4.40113162e+01  3.10673568e+01 -1.25064313e+00 
 4.50262052e+01  3.10672607e+01 -1.27947322e+00 
 4.60644974e+01  3.10671603e+01 -1.30896746e+00 
 4.71267322e+01  3.10670551e+01 -1.33914111e+00 
 4.82134619e+01  3.10669450e+01 -1.37000979e+00 
 4.93252513e+01  3.10668298e+01 -1.40158948e+00 
 5.04626783e+01  3.10667092e+01 -1.43389652e+00 
 5.16263340e+01  3.10665829e+01 -1.46694761e+00 
 5.28168234e+01  3.10664508e+01 -1.50075985e+00 
 5.40347650e+01  3.10663126e+01 -1.53535071e+00 
 5.52807921e+01  3.10661679e+01 -1.57073808e+00 
 5.65555523e+01  3.10660164e+01 -1.60694025e+00 
 5.78597080e+01  3.10658579e+01 -1.64397590e+00 
 5.91939372e+01  3.10656920e+01 -1.68186418e+00 
 6.05589334e+01  3.10655184e+01 -1.72062464e+00 
 6.19554061e+01  3.10653367e+01 -1.76027729e+00 
 6.33840810e+01  3.10651465e+01 -1.80084258e+00 
 6.48457008e+01  3.10649474e+01 -1.84234145e+00 
 6.63410251e+01  3.10647391e+01 -1.88479528e+00 
 6.78708313e+01  3.10645211e+01 -1.92822596e+00 
 6.94359143e+01  3.10642929e+01 -1.97265586e+00 
 7.10370877e+01  3.10640540e+01 -2.01810786e+00 
 7.26751838e+01  3.10638041e+01 -2.06460537e+00 
 7.43510539e+01  3.10635425e+01 -2.11217230e+00 
 7.60655691e+01  3.10632687e+01 -2.16083313e+00 
 7.78196206e+01  3.10629821e+01 -2.21061285e+00 
 7.96141200e+01  3.10626822e+01 -2.26153705e+00 
 8.14500001e+01  3.10623684e+01 -2.31363188e+00 
 8.33282151e+01  3.10620399e+01 -2.36692407e+00 
 8.52497412e+01  3.10616961e+01 -2.42144096e+00 
 8.72155772e+01  3.10613363e+01 -2.47721048e+00 
 8.92267449e+01  3.10609598e+01 -2.53426122e+00 
 9.12842895e+01  3.10605657e+01 -2.59262236e+00 
 9.33892805e+01  3.10601533e+01 -2.65232376e+00 
 9.55428121e+01  3.10597217e+01 -2.71339595e+00 
 9.77460036e+01  3.10592700e+01 -2.77587010e+00 
 1.00000000e+02  3.10587972e+01 -2.83977811e+00 
 1.02305973e+02  3.10583025e+01 -2.90515256e+00 
 1.04665121e+02  3.10577848e+01 -2.97202675e+00 
 1.07078670e+02  3.10572429e+01 -3.04043472e+00 
 1.09547876e+02  3.10566759e+01 -3.11041125e+00 
 1.12074020e+02  3.10560825e+01 -3.18199188e+00 
 1.14658417e+02  3.10554615e+01 -3.25521292e+00 
 1.17302409e+02  3.10548116e+01 -3.33011150e+00 
 1.20007371e+02  3.10541315e+01 -3.40672551e+00 
 1.22774708e+02  3.10534198e+01 -3.48509370e+00 
 1.25605860e+02  3.10526750e+01 -3.56525563e+00 
 1.28502297e+02  3.10518956e+01 -3.64725172e+00 
 1.31465525e+02  3.10510800e+01 -3.73112326e+00 
 1.34497085e+02  3.10502265e+01 -3.81691241e+00 
 1.37598551e+02  3.10493334e+01 -3.90466224e+00 
 1.40771537e+02  3.10483988e+01 -3.99441671e+00 
 1.44017690e+02  3.10474209e+01 -4.08622073e+00 
 1.47338699e+02  3.10463975e+01 -4.18012015e+00 
 1.50736290e+02  3.10453266e+01 -4.27616177e+00 
 1.54212228e+02  3.10442061e+01 -4.37439336e+00 
 1.57768320e+02  3.10430336e+01 -4.47486369e+00 
 1.61406415e+02  3.10418068e+01 -4.57762253e+00 
 1.65128404e+02  3.10405231e+01 -4.68272065e+00 
 1.68936220e+02  3.10391799e+01 -4.79020989e+00 
 1.72831844e+02  3.10377745e+01 -4.90014309e+00 
 1.76817299e+02  3.10363040e+01 -5.01257420e+00 
 1.80894658e+02  3.10347655e+01 -5.12755820e+00 
 1.85066040e+02  3.10331557e+01 -5.24515118e+00 
 1.89333613e+02  3.10314715e+01 -5.36541034e+00 
 1.93699595e+02  3.10297094e+01 -5.48839396e+00 
 1.98166255e+02  3.10278659e+01 -5.61416148e+00 
 2.02735916e+02  3.10259373e+01 -5.74277344e+00 
 2.07410951e+02  3.10239195e+01 -5.87429155e+00 
 2.12193792e+02  3.10218087e+01 -6.00877867e+00 
 2.17086923e+02  3.10196005e+01 -6.14629881e+00 
 2.22092889e+02  3.10172904e+01 -6.28691715e+00 
 2.27214291e+02  3.10148739e+01 -6.43070006e+00 
 2.32453791e+02  3.10123461e+01 -6.57771508e+00 
 2.37814113e+02  3.10097020e+01 -6.72803094e+00 
 2.43298042e+02  3.10069362e+01 -6.88171755e+00 
 2.48908429e+02  3.10040433e+01 -7.03884601e+00 
 2.54648190e+02  3.10010175e+01 -7.19948860e+00 
 2.60520309e+02  3.09978528e+01 -7.36371879e+00 
 2.66527837e+02  3.09945430e+01 -7.53161123e+00 
 2.72673897e+02  3.09910814e+01 -7.70324172e+00 
 2.78961683e+02  3.09874613e+01 -7.87868726e+00 
 2.85394464e+02  3.09836755e+01 -8.05802596e+00 
 2.91975583e+02  3.09797166e+01 -8.24133708e+00 
 2.98708461e+02  3.09755770e+01 -8.42870101e+00 
 3.05596598e+02  3.09712484e+01 -8.62019922e+00 
 3.12643573e+02  3.09667225e+01 -8.81591425e+00 
 3.19853049e+02  3.09619905e+01 -9.01592969e+00 
 3.27228774e+02  3.09570433e+01 -9.22033015e+00 
 3.34774581e+02  3.09518713e+01 -9.42920121e+00 
 3.42494392e+02  3.09464647e+01 -9.64262940e+00 
 3.50392221e+02  3.09408130e+01 -9.86070212e+00 
 3.58472171e+02  3.09349055e+01 -1.00835076e+01 
 3.66738442e+02  3.09287310e+01 -1.03111350e+01 
 3.75195331e+02  3.09222778e+01 -1.05436740e+01 
 3.83847234e+02  3.09155339e+01 -1.07812151e+01 
 3.92698648e+02  3.09084865e+01 -1.10238494e+01 
 4.01754173e+02  3.09011226e+01 -1.12716683e+01 
 4.11018515e+02  3.08934286e+01 -1.15247640e+01 
 4.20496491e+02  3.08853901e+01 -1.17832286e+01 
 4.30193027e+02  3.08769926e+01 -1.20471549e+01 
 4.40113162e+02  3.08682206e+01 -1.23166355e+01 
 4.50262052e+02  3.08590584e+01 -1.25917632e+01 
 4.60644974e+02  3.08494894e+01 -1.28726306e+01 
 4.71267322e+02  3.08394965e+01 -1.31593301e+01 
 4.82134619e+02  3.08290621e+01 -1.34519537e+01 
 4.93252513e+02  3.08181676e+01 -1.37505930e+01 
 5.04626783e+02  3.08067941e+01 -1.40553387e+01 
 5.16263340e+02  3.07949218e+01 -1.43662809e+01 
 5.28168234e+02  3.07825303e+01 -1.46835083e+01 
 5.40347650e+02  3.07695985e+01 -1.50071088e+01 
 5.52807921e+02  3.07561045e+01 -1.53371686e+01 
 5.65555523e+02  3.07420257e+01 -1.56737723e+01 
 5.78597080e+02  3.07273389e+01 -1.60170026e+01 
 5.91939372e+02  3.07120200e+01 -1.63669403e+01 
 6.05589334e+02  3.06960441e+01 -1.67236635e+01 
 6.19554061e+02  3.06793856e+01 -1.70872479e+01 
 6.33840810e+02  3.06620181e+01 -1.74577664e+01 
 6.48457008e+02  3.06439145e+01 -1.78352886e+01 
 6.63410251e+02  3.06250468e+01 -1.82198805e+01 
 6.78708313e+02  3.06053863e+01 -1.86116048e+01 
 6.94359143e+02  3.05849035e+01 -1.90105195e+01 
 7.10370877e+02  3.05635681e+01 -1.94166787e+01 
 7.26751838e+02  3.05413491e+01 -1.98301316e+01 
 7.43510539e+02  3.05182147e+01 -2.02509222e+01 
 7.60655691e+02  3.04941323e+01 -2.06790893e+01 
 7.78196206e+02  3.04690686e+01 -2.11146656e+01 
 7.96141200e+02  3.04429897e+01 -2.15576779e+01 
 8.14500001e+02  3.04158608e+01 -2.20081464e+01 
 8.33282151e+02  3.03876468e+01 -2.24660845e+01 
 8.52497412e+02  3.03583115e+01 -2.29314980e+01 
 8.72155772e+02  3.03278184e+01 -2.34043855e+01 
 8.92267449e+02  3.02961305e+01 -2.38847373e+01 
 9.12842895e+02  3.02632101e+01 -2.43725353e+01 
 9.33892805e+02  3.02290191e+01 -2.48677528e+01 
 9.55428121e+02  3.01935190e+01 -2.53703539e+01 
 9.77460036e+02  3.01566710e+01 -2.58802934e+01 
 1.00000000e+03  3.01184360e+01 -2.63975159e+01 
 1.02305973e+03  3.00787746e+01 -2.69219565e+01 
 1.04665121e+03  3.00376472e+01 -2.74535394e+01 
 1.07078670e+03  2.99950143e+01 -2.79921785e+01 
 1.09547876e+03  2.99508362e+01 -2.85377764e+01 
 1.12074020e+03  2.99050736e+01 -2.90902248e+01 
 1.14658417e+03  2.98576869e+01 -2.96494041e+01 
 1.17302409e+03  2.98086373e+01 -3.02151831e+01 
 1.20007371e+03  2.97578860e+01 -3.07874190e+01 
 1.22774708e+03  2.97053946e+01 -3.13659571e+01 
 1.25605860e+03  2.96511257e+01 -3.19506313e+01 
 1.28502297e+03  2.95950421e+01 -3.25412634e+01 
 1.31465525e+03  2.95371077e+01 -3.31376637e+01 
 1.34497085e+03  2.94772871e+01 -3.37396308e+01 
 1.37598551e+03  2.94155460e+01 -3.43469519e+01 
 1.40771537e+03  2.93518511e+01 -3.49594027e+01 
 1.44017690e+03  2.92861705e+01 -3.55767481e+01 
 1.47338699e+03  2.92184733e+01 -3.61987423e+01 
 1.50736290e+03  2.91487303e+01 -3.68251288e+01 
 1.54212228e+03  2.90769138e+01 -3.74556415e+01 
 1.57768320e+03  2.90029976e+01 -3.80900045e+01 
 1.61406415e+03  2.89269574e+01 -3.87279332e+01 
 1.65128404e+03  2.88487705e+01 -3.93691342e+01 
 1.68936220e+03  2.87684163e+01 -4.00133068e+01 
 1.72831844e+03  2.86858760e+01 -4.06601426e+01 
 1.76817299e+03  2.86011331e+01 -4.13093270e+01 
 1.80894658e+03  2.85141729e+01 -4.19605397e+01 
 1.85066040e+03  2.84249833e+01 -4.26134554e+01 
 1.89333613e+03  2.83335540e+01 -4.32677447e+01 
 1.93699595e+03  2.82398772e+01 -4.39230748e+01 
 1.98166255e+03  2.81439475e+01 -4.45791104e+01 
 2.02735916e+03  2.80457615e+01 -4.52355148e+01 
 2.07410951e+03  2.79453185e+01 -4.58919504e+01 
 2.12193792e+03  2.78426199e+01 -4.65480797e+01 
 2.17086923e+03  2.77376696e+01 -4.72035666e+01 
 2.22092889e+03  2.76304736e+01 -4.78580764e+01 
 2.27214291e+03  2.75210405e+01 -4.85112775e+01 
 2.32453791e+03  2.74093809e+01 -4.91628420e+01 
 2.37814113e+03  2.72955078e+01 -4.98124462e+01 
 2.43298042e+03  2.71794363e+01 -5.04597717e+01 
 2.48908429e+03  2.70611835e+01 -5.11045062e+01 
 2.54648190e+03  2.69407687e+01 -5.17463441e+01 
 2.60520309e+03  2.68182130e+01 -5.23849873e+01 
 2.66527837e+03  2.66935396e+01 -5.30201455e+01 
 2.72673897e+03  2.65667733e+01 -5.36515373e+01 
 2.78961683e+03  2.64379408e+01 -5.42788905e+01 
 2.85394464e+03  2.63070700e+01 -5.49019425e+01 
 2.91975583e+03  2.61741908e+01 -5.55204411e+01 
 2.98708461e+03  2.60393342e+01 -5.61341444e+01 
 3.05596598e+03  2.59025325e+01 -5.67428215e+01 
 3.12643573e+03  2.57638194e+01 -5.73462527e+01 
 3.19853049e+03  2.56232293e+01 -5.79442298e+01 
 3.27228774e+03  2.54807979e+01 -5.85365561e+01 
 3.34774581e+03  2.53365616e+01 -5.91230466e+01 
 3.42494392e+03  2.51905576e+01 -5.97035283e+01 
 3.50392221e+03  2.50428238e+01 -6.02778399e+01 
 3.58472171e+03  2.48933984e+01 -6.08458320e+01 
 3.66738442e+03  2.47423203e+01 -6.14073670e+01 
 3.75195331e+03  2.45896286e+01 -6.19623190e+01 
 3.83847234e+03  2.44353627e+01 -6.25105735e+01 
 3.92698648e+03  2.42795621e+01 -6.30520277e+01 
 4.01754173e+03  2.41222664e+01 -6.35865896e+01 
 4.11018515e+03  2.39635152e+01 -6.41141785e+01 
 4.20496491e+03  2.38033480e+01 -6.46347242e+01 
 4.30193027e+03  2.36418040e+01 -6.51481671e+01 
 4.40113162e+03  2.34789223e+01 -6.56544574e+01 
 4.50262052e+03  2.33147416e+01 -6.61535554e+01 
 4.60644974e+03  2.31493003e+01 -6.66454308e+01 
 4.71267322e+03  2.29826365e+01 -6.71300622e+01 
 4.82134619e+03  2.28147874e+01 -6.76074374e+01 
 4.93252513e+03  2.26457902e+01 -6.80775521e+01 
 5.04626783e+03  2.24756811e+01 -6.85404103e+01 
 5.16263340e+03  2.23044959e+01 -6.89960237e+01 
 5.28168234e+03  2.21322699e+01 -6.94444112e+01 
 5.40347650e+03  2.19590374e+01 -6.98855985e+01 
 5.52807921e+03  2.17848323e+01 -7.03196182e+01 
 5.65555523e+03  2.16096875e+01 -7.07465086e+01 
 5.78597080e+03  2.14336355e+01 -7.11663141e+01 
 5.91939372e+03  2.12567078e+01 -7.15790846e+01 
 6.05589334e+03  2.10789352e+01 -7.19848751e+01 
 6.19554061e+03  2.09003478e+01 -7.23837451e+01 
 6.33840810e+03  2.07209748e+01 -7.27757589e+01 
 6.48457008e+03  2.05408448e+01 -7.31609848e+01 
 6.63410251e+03  2.03599854e+01 -7.35394948e+01 
 6.78708313e+03  2.01784236e+01 -7.39113646e+01 
 6.94359143e+03  1.99961855e+01 -7.42766731e+01 
 7.10370877e+03  1.98132964e+01 -7.46355020e+01 
 7.26751838e+03  1.96297810e+01 -7.49879359e+01 
 7.43510539e+03  1.94456631e+01 -7.53340618e+01 
 7.60655691e+03  1.92609658e+01 -7.56739686e+01 
 7.78196206e+03  1.90757114e+01 -7.60077476e+01 
 7.96141200e+03  1.88899216e+01 -7.63354916e+01 
 8.14500001e+03  1.87036172e+01 -7.66572949e+01 
 8.33282151e+03  1.85168185e+01 -7.69732534e+01 
 8.52497412e+03  1.83295449e+01 -7.72834638e+01 
 8.72155772e+03  1.81418152e+01 -7.75880241e+01 
 8.92267449e+03  1.79536477e+01 -7.78870329e+01 
 9.12842895e+03  1.77650598e+01 -7.81805896e+01 
 9.33892805e+03  1.75760683e+01 -7.84687941e+01 
 9.55428121e+03  1.73866897e+01 -7.87517467e+01 
 9.77460036e+03  1.71969395e+01 -7.90295477e+01 
 1.00000000e+04  1.70068328e+01 -7.93022980e+01 
 1.02305973e+04  1.68163842e+01 -7.95700982e+01 
 1.04665121e+04  1.66256075e+01 -7.98330489e+01 
