 frequency       v(Adm_dB)       v(Adm_arg)      v(Acm_dB)       v(Acm_arg)      v(CMRR_dB)      v(CMRR_arg)    
 1.00000000e-01 -2.86759571e-01 -2.59636047e-05 -1.59747139e+01 -3.20997774e-05  1.56879543e+01  6.13617263e-06 
 1.02305973e-01 -2.86759571e-01 -2.65623184e-05 -1.59747139e+01 -3.28399896e-05  1.56879543e+01  6.27767112e-06 
 1.04665121e-01 -2.86759571e-01 -2.71748383e-05 -1.59747139e+01 -3.35972708e-05  1.56879543e+01  6.42243252e-06 
 1.07078670e-01 -2.86759571e-01 -2.78014828e-05 -1.59747139e+01 -3.43720148e-05  1.56879543e+01  6.57053207e-06 
 1.09547876e-01 -2.86759571e-01 -2.84425774e-05 -1.59747139e+01 -3.51646242e-05  1.56879543e+01  6.72204677e-06 
 1.12074020e-01 -2.86759571e-01 -2.90984556e-05 -1.59747139e+01 -3.59755109e-05  1.56879543e+01  6.87705535e-06 
 1.14658417e-01 -2.86759571e-01 -2.97694581e-05 -1.59747139e+01 -3.68050965e-05  1.56879543e+01  7.03563839e-06 
 1.17302409e-01 -2.86759571e-01 -3.04559338e-05 -1.59747139e+01 -3.76538121e-05  1.56879543e+01  7.19787831e-06 
 1.20007371e-01 -2.86759571e-01 -3.11582394e-05 -1.59747139e+01 -3.85220988e-05  1.56879543e+01  7.36385944e-06 
 1.22774708e-01 -2.86759571e-01 -3.18767400e-05 -1.59747139e+01 -3.94104080e-05  1.56879543e+01  7.53366805e-06 
 1.25605860e-01 -2.86759571e-01 -3.26118090e-05 -1.59747139e+01 -4.03192014e-05  1.56879543e+01  7.70739240e-06 
 1.28502297e-01 -2.86759571e-01 -3.33638285e-05 -1.59747139e+01 -4.12489513e-05  1.56879543e+01  7.88512279e-06 
 1.31465525e-01 -2.86759571e-01 -3.41331893e-05 -1.59747139e+01 -4.22001409e-05  1.56879543e+01  8.06695159e-06 
 1.34497085e-01 -2.86759571e-01 -3.49202915e-05 -1.59747139e+01 -4.31732648e-05  1.56879543e+01  8.25297331e-06 
 1.37598551e-01 -2.86759571e-01 -3.57255440e-05 -1.59747139e+01 -4.41688286e-05  1.56879543e+01  8.44328465e-06 
 1.40771537e-01 -2.86759571e-01 -3.65493654e-05 -1.59747139e+01 -4.51873499e-05  1.56879543e+01  8.63798451e-06 
 1.44017690e-01 -2.86759571e-01 -3.73921838e-05 -1.59747139e+01 -4.62293579e-05  1.56879543e+01  8.83717410e-06 
 1.47338699e-01 -2.86759571e-01 -3.82544375e-05 -1.59747139e+01 -4.72953944e-05  1.56879543e+01  9.04095694e-06 
 1.50736290e-01 -2.86759571e-01 -3.91365745e-05 -1.59747139e+01 -4.83860135e-05  1.56879543e+01  9.24943897e-06 
 1.54212228e-01 -2.86759571e-01 -4.00390533e-05 -1.59747139e+01 -4.95017819e-05  1.56879543e+01  9.46272853e-06 
 1.57768320e-01 -2.86759571e-01 -4.09623431e-05 -1.59747139e+01 -5.06432796e-05  1.56879543e+01  9.68093650e-06 
 1.61406415e-01 -2.86759571e-01 -4.19069237e-05 -1.59747139e+01 -5.18110999e-05  1.56879543e+01  9.90417628e-06 
 1.65128404e-01 -2.86759571e-01 -4.28732860e-05 -1.59747139e+01 -5.30058499e-05  1.56879543e+01  1.01325639e-05 
 1.68936220e-01 -2.86759571e-01 -4.38619324e-05 -1.59747139e+01 -5.42281505e-05  1.56879543e+01  1.03662181e-05 
 1.72831844e-01 -2.86759571e-01 -4.48733767e-05 -1.59747139e+01 -5.54786370e-05  1.56879543e+01  1.06052603e-05 
 1.76817299e-01 -2.86759571e-01 -4.59081446e-05 -1.59747139e+01 -5.67579594e-05  1.56879543e+01  1.08498147e-05 
 1.80894658e-01 -2.86759571e-01 -4.69667740e-05 -1.59747139e+01 -5.80667826e-05  1.56879543e+01  1.11000085e-05 
 1.85066040e-01 -2.86759571e-01 -4.80498152e-05 -1.59747139e+01 -5.94057869e-05  1.56879543e+01  1.13559717e-05 
 1.89333613e-01 -2.86759571e-01 -4.91578309e-05 -1.59747139e+01 -6.07756683e-05  1.56879543e+01  1.16178374e-05 
 1.93699595e-01 -2.86759571e-01 -5.02913972e-05 -1.59747139e+01 -6.21771388e-05  1.56879543e+01  1.18857415e-05 
 1.98166255e-01 -2.86759571e-01 -5.14511033e-05 -1.59747139e+01 -6.36109268e-05  1.56879543e+01  1.21598235e-05 
 2.02735916e-01 -2.86759571e-01 -5.26375518e-05 -1.59747139e+01 -6.50777776e-05  1.56879543e+01  1.24402258e-05 
 2.07410951e-01 -2.86759571e-01 -5.38513595e-05 -1.59747139e+01 -6.65784535e-05  1.56879543e+01  1.27270940e-05 
 2.12193792e-01 -2.86759571e-01 -5.50931573e-05 -1.59747139e+01 -6.81137347e-05  1.56879543e+01  1.30205774e-05 
 2.17086923e-01 -2.86759571e-01 -5.63635907e-05 -1.59747139e+01 -6.96844190e-05  1.56879543e+01  1.33208284e-05 
 2.22092889e-01 -2.86759571e-01 -5.76633198e-05 -1.59747139e+01 -7.12913229e-05  1.56879543e+01  1.36280031e-05 
 2.27214291e-01 -2.86759571e-01 -5.89930204e-05 -1.59747139e+01 -7.29352815e-05  1.56879543e+01  1.39422611e-05 
 2.32453791e-01 -2.86759571e-01 -6.03533835e-05 -1.59747139e+01 -7.46171494e-05  1.56879543e+01  1.42637659e-05 
 2.37814113e-01 -2.86759571e-01 -6.17451162e-05 -1.59747139e+01 -7.63378007e-05  1.56879543e+01  1.45926845e-05 
 2.43298042e-01 -2.86759571e-01 -6.31689419e-05 -1.59747139e+01 -7.80981298e-05  1.56879543e+01  1.49291879e-05 
 2.48908429e-01 -2.86759571e-01 -6.46256007e-05 -1.59747139e+01 -7.98990516e-05  1.56879543e+01  1.52734509e-05 
 2.54648190e-01 -2.86759571e-01 -6.61158496e-05 -1.59747139e+01 -8.17415021e-05  1.56879543e+01  1.56256526e-05 
 2.60520309e-01 -2.86759571e-01 -6.76404632e-05 -1.59747139e+01 -8.36264391e-05  1.56879543e+01  1.59859759e-05 
 2.66527837e-01 -2.86759571e-01 -6.92002340e-05 -1.59747139e+01 -8.55548422e-05  1.56879543e+01  1.63546082e-05 
 2.72673897e-01 -2.86759571e-01 -7.07959727e-05 -1.59747139e+01 -8.75277137e-05  1.56879543e+01  1.67317410e-05 
 2.78961683e-01 -2.86759571e-01 -7.24285087e-05 -1.59747139e+01 -8.95460791e-05  1.56879543e+01  1.71175704e-05 
 2.85394464e-01 -2.86759571e-01 -7.40986905e-05 -1.59747139e+01 -9.16109875e-05  1.56879543e+01  1.75122970e-05 
 2.91975583e-01 -2.86759571e-01 -7.58073863e-05 -1.59747139e+01 -9.37235122e-05  1.56879543e+01  1.79161258e-05 
 2.98708461e-01 -2.86759571e-01 -7.75554842e-05 -1.59747139e+01 -9.58847510e-05  1.56879543e+01  1.83292669e-05 
 3.05596598e-01 -2.86759571e-01 -7.93438927e-05 -1.59747139e+01 -9.80958275e-05  1.56879543e+01  1.87519348e-05 
 3.12643573e-01 -2.86759571e-01 -8.11735414e-05 -1.59747139e+01 -1.00357891e-04  1.56879543e+01  1.91843493e-05 
 3.19853049e-01 -2.86759571e-01 -8.30453814e-05 -1.59747139e+01 -1.02672117e-04  1.56879543e+01  1.96267353e-05 
 3.27228774e-01 -2.86759571e-01 -8.49603854e-05 -1.59747139e+01 -1.05039708e-04  1.56879543e+01  2.00793225e-05 
 3.34774581e-01 -2.86759571e-01 -8.69195490e-05 -1.59747139e+01 -1.07461895e-04  1.56879543e+01  2.05423462e-05 
 3.42494392e-01 -2.86759571e-01 -8.89238903e-05 -1.59747139e+01 -1.09939937e-04  1.56879543e+01  2.10160472e-05 
 3.50392221e-01 -2.86759571e-01 -9.09744512e-05 -1.59747139e+01 -1.12475123e-04  1.56879543e+01  2.15006715e-05 
 3.58472171e-01 -2.86759571e-01 -9.30722974e-05 -1.59747139e+01 -1.15068769e-04  1.56879543e+01  2.19964712e-05 
 3.66738442e-01 -2.86759571e-01 -9.52185195e-05 -1.59747139e+01 -1.17722223e-04  1.56879543e+01  2.25037039e-05 
 3.75195331e-01 -2.86759571e-01 -9.74142328e-05 -1.59747139e+01 -1.20436866e-04  1.56879543e+01  2.30226332e-05 
 3.83847234e-01 -2.86759571e-01 -9.96605787e-05 -1.59747139e+01 -1.23214108e-04  1.56879543e+01  2.35535289e-05 
 3.92698648e-01 -2.86759571e-01 -1.01958725e-04 -1.59747139e+01 -1.26055392e-04  1.56879543e+01  2.40966670e-05 
 4.01754173e-01 -2.86759571e-01 -1.04309865e-04 -1.59747139e+01 -1.28962195e-04  1.56879543e+01  2.46523296e-05 
 4.11018515e-01 -2.86759571e-01 -1.06715223e-04 -1.59747139e+01 -1.31936028e-04  1.56879543e+01  2.52208056e-05 
 4.20496491e-01 -2.86759571e-01 -1.09176047e-04 -1.59747139e+01 -1.34978437e-04  1.56879543e+01  2.58023906e-05 
 4.30193027e-01 -2.86759571e-01 -1.11693617e-04 -1.59747139e+01 -1.38091004e-04  1.56879543e+01  2.63973868e-05 
 4.40113162e-01 -2.86759571e-01 -1.14269242e-04 -1.59747139e+01 -1.41275345e-04  1.56879543e+01  2.70061034e-05 
 4.50262052e-01 -2.86759571e-01 -1.16904259e-04 -1.59747139e+01 -1.44533116e-04  1.56879543e+01  2.76288568e-05 
 4.60644974e-01 -2.86759571e-01 -1.19600040e-04 -1.59747139e+01 -1.47866011e-04  1.56879543e+01  2.82659708e-05 
 4.71267322e-01 -2.86759571e-01 -1.22357985e-04 -1.59747139e+01 -1.51275761e-04  1.56879543e+01  2.89177765e-05 
 4.82134619e-01 -2.86759571e-01 -1.25179527e-04 -1.59747139e+01 -1.54764139e-04  1.56879543e+01  2.95846126e-05 
 4.93252513e-01 -2.86759571e-01 -1.28066133e-04 -1.59747139e+01 -1.58332959e-04  1.56879543e+01  3.02668257e-05 
 5.04626783e-01 -2.86759571e-01 -1.31019303e-04 -1.59747139e+01 -1.61984074e-04  1.56879543e+01  3.09647706e-05 
 5.16263340e-01 -2.86759571e-01 -1.34040573e-04 -1.59747139e+01 -1.65719383e-04  1.56879543e+01  3.16788098e-05 
 5.28168234e-01 -2.86759571e-01 -1.37131512e-04 -1.59747139e+01 -1.69540827e-04  1.56879543e+01  3.24093146e-05 
 5.40347650e-01 -2.86759571e-01 -1.40293728e-04 -1.59747139e+01 -1.73450393e-04  1.56879543e+01  3.31566646e-05 
 5.52807921e-01 -2.86759571e-01 -1.43528864e-04 -1.59747139e+01 -1.77450112e-04  1.56879543e+01  3.39212484e-05 
 5.65555523e-01 -2.86759571e-01 -1.46838600e-04 -1.59747139e+01 -1.81542064e-04  1.56879543e+01  3.47034632e-05 
 5.78597080e-01 -2.86759571e-01 -1.50224659e-04 -1.59747139e+01 -1.85728375e-04  1.56879543e+01  3.55037157e-05 
 5.91939372e-01 -2.86759571e-01 -1.53688799e-04 -1.59747139e+01 -1.90011221e-04  1.56879543e+01  3.63224218e-05 
 6.05589334e-01 -2.86759571e-01 -1.57232821e-04 -1.59747139e+01 -1.94392828e-04  1.56879543e+01  3.71600070e-05 
 6.19554061e-01 -2.86759571e-01 -1.60858567e-04 -1.59747139e+01 -1.98875474e-04  1.56879543e+01  3.80169067e-05 
 6.33840810e-01 -2.86759571e-01 -1.64567923e-04 -1.59747139e+01 -2.03461489e-04  1.56879543e+01  3.88935663e-05 
 6.48457008e-01 -2.86759571e-01 -1.68362814e-04 -1.59747139e+01 -2.08153256e-04  1.56879543e+01  3.97904415e-05 
 6.63410251e-01 -2.86759571e-01 -1.72245215e-04 -1.59747139e+01 -2.12953214e-04  1.56879543e+01  4.07079983e-05 
 6.78708313e-01 -2.86759571e-01 -1.76217144e-04 -1.59747139e+01 -2.17863857e-04  1.56879543e+01  4.16467137e-05 
 6.94359143e-01 -2.86759571e-01 -1.80280663e-04 -1.59747139e+01 -2.22887739e-04  1.56879543e+01  4.26070757e-05 
 7.10370877e-01 -2.86759571e-01 -1.84437887e-04 -1.59747139e+01 -2.28027470e-04  1.56879543e+01  4.35895834e-05 
 7.26751838e-01 -2.86759571e-01 -1.88690974e-04 -1.59747139e+01 -2.33285722e-04  1.56879543e+01  4.45947474e-05 
 7.43510539e-01 -2.86759571e-01 -1.93042137e-04 -1.59747139e+01 -2.38665228e-04  1.56879543e+01  4.56230902e-05 
 7.60655691e-01 -2.86759571e-01 -1.97493637e-04 -1.59747139e+01 -2.44168783e-04  1.56879543e+01  4.66751463e-05 
 7.78196206e-01 -2.86759571e-01 -2.02047787e-04 -1.59747139e+01 -2.49799249e-04  1.56879543e+01  4.77514626e-05 
 7.96141200e-01 -2.86759571e-01 -2.06706954e-04 -1.59747139e+01 -2.55559553e-04  1.56879543e+01  4.88525984e-05 
 8.14500001e-01 -2.86759571e-01 -2.11473561e-04 -1.59747139e+01 -2.61452687e-04  1.56879543e+01  4.99791261e-05 
 8.33282151e-01 -2.86759571e-01 -2.16350084e-04 -1.59747139e+01 -2.67481715e-04  1.56879543e+01  5.11316313e-05 
 8.52497412e-01 -2.86759571e-01 -2.21339058e-04 -1.59747139e+01 -2.73649771e-04  1.56879543e+01  5.23107129e-05 
 8.72155772e-01 -2.86759571e-01 -2.26443077e-04 -1.59747139e+01 -2.79960061e-04  1.56879543e+01  5.35169838e-05 
 8.92267449e-01 -2.86759571e-01 -2.31664793e-04 -1.59747139e+01 -2.86415864e-04  1.56879543e+01  5.47510710e-05 
 9.12842895e-01 -2.86759571e-01 -2.37006921e-04 -1.59747139e+01 -2.93020537e-04  1.56879543e+01  5.60136159e-05 
 9.33892805e-01 -2.86759571e-01 -2.42472237e-04 -1.59747139e+01 -2.99777511e-04  1.56879543e+01  5.73052747e-05 
 9.55428121e-01 -2.86759571e-01 -2.48063581e-04 -1.59747139e+01 -3.06690300e-04  1.56879543e+01  5.86267189e-05 
 9.77460036e-01 -2.86759571e-01 -2.53783860e-04 -1.59747139e+01 -3.13762495e-04  1.56879543e+01  5.99786352e-05 
 1.00000000e+00 -2.86759571e-01 -2.59636047e-04 -1.59747139e+01 -3.20997774e-04  1.56879543e+01  6.13617263e-05 
 1.02305973e+00 -2.86759571e-01 -2.65623184e-04 -1.59747139e+01 -3.28399896e-04  1.56879543e+01  6.27767112e-05 
 1.04665121e+00 -2.86759571e-01 -2.71748383e-04 -1.59747139e+01 -3.35972708e-04  1.56879543e+01  6.42243252e-05 
 1.07078670e+00 -2.86759571e-01 -2.78014828e-04 -1.59747139e+01 -3.43720148e-04  1.56879543e+01  6.57053207e-05 
 1.09547876e+00 -2.86759571e-01 -2.84425774e-04 -1.59747139e+01 -3.51646242e-04  1.56879543e+01  6.72204677e-05 
 1.12074020e+00 -2.86759571e-01 -2.90984556e-04 -1.59747139e+01 -3.59755109e-04  1.56879543e+01  6.87705535e-05 
 1.14658417e+00 -2.86759571e-01 -2.97694581e-04 -1.59747139e+01 -3.68050965e-04  1.56879543e+01  7.03563839e-05 
 1.17302409e+00 -2.86759571e-01 -3.04559338e-04 -1.59747139e+01 -3.76538121e-04  1.56879543e+01  7.19787831e-05 
 1.20007371e+00 -2.86759571e-01 -3.11582394e-04 -1.59747139e+01 -3.85220988e-04  1.56879543e+01  7.36385944e-05 
 1.22774708e+00 -2.86759571e-01 -3.18767400e-04 -1.59747139e+01 -3.94104080e-04  1.56879543e+01  7.53366805e-05 
 1.25605860e+00 -2.86759571e-01 -3.26118090e-04 -1.59747139e+01 -4.03192014e-04  1.56879543e+01  7.70739240e-05 
 1.28502297e+00 -2.86759571e-01 -3.33638285e-04 -1.59747139e+01 -4.12489513e-04  1.56879543e+01  7.88512278e-05 
 1.31465525e+00 -2.86759571e-01 -3.41331893e-04 -1.59747139e+01 -4.22001409e-04  1.56879543e+01  8.06695159e-05 
 1.34497085e+00 -2.86759571e-01 -3.49202915e-04 -1.59747139e+01 -4.31732648e-04  1.56879543e+01  8.25297331e-05 
 1.37598551e+00 -2.86759571e-01 -3.57255440e-04 -1.59747139e+01 -4.41688286e-04  1.56879543e+01  8.44328464e-05 
 1.40771537e+00 -2.86759571e-01 -3.65493654e-04 -1.59747139e+01 -4.51873499e-04  1.56879543e+01  8.63798451e-05 
 1.44017690e+00 -2.86759571e-01 -3.73921838e-04 -1.59747139e+01 -4.62293579e-04  1.56879543e+01  8.83717410e-05 
 1.47338699e+00 -2.86759571e-01 -3.82544375e-04 -1.59747139e+01 -4.72953944e-04  1.56879543e+01  9.04095694e-05 
 1.50736290e+00 -2.86759571e-01 -3.91365745e-04 -1.59747139e+01 -4.83860135e-04  1.56879543e+01  9.24943897e-05 
 1.54212228e+00 -2.86759571e-01 -4.00390533e-04 -1.59747139e+01 -4.95017819e-04  1.56879543e+01  9.46272853e-05 
 1.57768320e+00 -2.86759571e-01 -4.09623431e-04 -1.59747139e+01 -5.06432796e-04  1.56879543e+01  9.68093650e-05 
 1.61406415e+00 -2.86759571e-01 -4.19069237e-04 -1.59747139e+01 -5.18110999e-04  1.56879543e+01  9.90417628e-05 
 1.65128404e+00 -2.86759571e-01 -4.28732860e-04 -1.59747139e+01 -5.30058499e-04  1.56879543e+01  1.01325639e-04 
 1.68936220e+00 -2.86759571e-01 -4.38619324e-04 -1.59747139e+01 -5.42281505e-04  1.56879543e+01  1.03662181e-04 
 1.72831844e+00 -2.86759571e-01 -4.48733767e-04 -1.59747139e+01 -5.54786370e-04  1.56879543e+01  1.06052603e-04 
 1.76817299e+00 -2.86759571e-01 -4.59081446e-04 -1.59747139e+01 -5.67579594e-04  1.56879543e+01  1.08498147e-04 
 1.80894658e+00 -2.86759571e-01 -4.69667740e-04 -1.59747139e+01 -5.80667826e-04  1.56879543e+01  1.11000085e-04 
 1.85066040e+00 -2.86759571e-01 -4.80498152e-04 -1.59747139e+01 -5.94057869e-04  1.56879543e+01  1.13559717e-04 
 1.89333613e+00 -2.86759571e-01 -4.91578309e-04 -1.59747139e+01 -6.07756683e-04  1.56879543e+01  1.16178373e-04 
 1.93699595e+00 -2.86759571e-01 -5.02913972e-04 -1.59747139e+01 -6.21771388e-04  1.56879543e+01  1.18857415e-04 
 1.98166255e+00 -2.86759571e-01 -5.14511033e-04 -1.59747139e+01 -6.36109268e-04  1.56879543e+01  1.21598235e-04 
 2.02735916e+00 -2.86759571e-01 -5.26375518e-04 -1.59747139e+01 -6.50777776e-04  1.56879543e+01  1.24402258e-04 
 2.07410951e+00 -2.86759571e-01 -5.38513595e-04 -1.59747139e+01 -6.65784535e-04  1.56879543e+01  1.27270940e-04 
 2.12193792e+00 -2.86759571e-01 -5.50931573e-04 -1.59747139e+01 -6.81137347e-04  1.56879543e+01  1.30205774e-04 
 2.17086923e+00 -2.86759571e-01 -5.63635907e-04 -1.59747139e+01 -6.96844190e-04  1.56879543e+01  1.33208284e-04 
 2.22092889e+00 -2.86759571e-01 -5.76633198e-04 -1.59747139e+01 -7.12913229e-04  1.56879543e+01  1.36280031e-04 
 2.27214291e+00 -2.86759571e-01 -5.89930204e-04 -1.59747139e+01 -7.29352815e-04  1.56879543e+01  1.39422611e-04 
 2.32453791e+00 -2.86759571e-01 -6.03533835e-04 -1.59747139e+01 -7.46171494e-04  1.56879543e+01  1.42637659e-04 
 2.37814113e+00 -2.86759571e-01 -6.17451162e-04 -1.59747139e+01 -7.63378007e-04  1.56879543e+01  1.45926845e-04 
 2.43298042e+00 -2.86759571e-01 -6.31689419e-04 -1.59747139e+01 -7.80981298e-04  1.56879543e+01  1.49291879e-04 
 2.48908429e+00 -2.86759571e-01 -6.46256007e-04 -1.59747139e+01 -7.98990516e-04  1.56879543e+01  1.52734509e-04 
 2.54648190e+00 -2.86759571e-01 -6.61158496e-04 -1.59747139e+01 -8.17415021e-04  1.56879543e+01  1.56256526e-04 
 2.60520309e+00 -2.86759571e-01 -6.76404632e-04 -1.59747139e+01 -8.36264391e-04  1.56879543e+01  1.59859759e-04 
 2.66527837e+00 -2.86759571e-01 -6.92002340e-04 -1.59747139e+01 -8.55548422e-04  1.56879543e+01  1.63546082e-04 
 2.72673897e+00 -2.86759571e-01 -7.07959727e-04 -1.59747139e+01 -8.75277137e-04  1.56879543e+01  1.67317410e-04 
 2.78961683e+00 -2.86759571e-01 -7.24285087e-04 -1.59747139e+01 -8.95460791e-04  1.56879543e+01  1.71175704e-04 
 2.85394464e+00 -2.86759571e-01 -7.40986905e-04 -1.59747139e+01 -9.16109875e-04  1.56879543e+01  1.75122970e-04 
 2.91975583e+00 -2.86759571e-01 -7.58073863e-04 -1.59747139e+01 -9.37235122e-04  1.56879543e+01  1.79161258e-04 
 2.98708461e+00 -2.86759571e-01 -7.75554842e-04 -1.59747139e+01 -9.58847510e-04  1.56879543e+01  1.83292668e-04 
 3.05596598e+00 -2.86759571e-01 -7.93438927e-04 -1.59747139e+01 -9.80958275e-04  1.56879543e+01  1.87519348e-04 
 3.12643573e+00 -2.86759571e-01 -8.11735414e-04 -1.59747139e+01 -1.00357891e-03  1.56879543e+01  1.91843493e-04 
 3.19853049e+00 -2.86759571e-01 -8.30453814e-04 -1.59747139e+01 -1.02672117e-03  1.56879543e+01  1.96267352e-04 
 3.27228774e+00 -2.86759571e-01 -8.49603854e-04 -1.59747139e+01 -1.05039708e-03  1.56879543e+01  2.00793225e-04 
 3.34774581e+00 -2.86759571e-01 -8.69195490e-04 -1.59747139e+01 -1.07461895e-03  1.56879543e+01  2.05423462e-04 
 3.42494392e+00 -2.86759571e-01 -8.89238903e-04 -1.59747139e+01 -1.09939937e-03  1.56879543e+01  2.10160472e-04 
 3.50392221e+00 -2.86759571e-01 -9.09744512e-04 -1.59747139e+01 -1.12475123e-03  1.56879543e+01  2.15006715e-04 
 3.58472171e+00 -2.86759571e-01 -9.30722974e-04 -1.59747139e+01 -1.15068769e-03  1.56879543e+01  2.19964712e-04 
 3.66738442e+00 -2.86759571e-01 -9.52185195e-04 -1.59747139e+01 -1.17722223e-03  1.56879543e+01  2.25037039e-04 
 3.75195331e+00 -2.86759570e-01 -9.74142328e-04 -1.59747139e+01 -1.20436866e-03  1.56879543e+01  2.30226332e-04 
 3.83847234e+00 -2.86759570e-01 -9.96605787e-04 -1.59747139e+01 -1.23214108e-03  1.56879543e+01  2.35535289e-04 
 3.92698648e+00 -2.86759570e-01 -1.01958725e-03 -1.59747139e+01 -1.26055392e-03  1.56879543e+01  2.40966669e-04 
 4.01754173e+00 -2.86759570e-01 -1.04309865e-03 -1.59747139e+01 -1.28962195e-03  1.56879543e+01  2.46523296e-04 
 4.11018515e+00 -2.86759570e-01 -1.06715223e-03 -1.59747139e+01 -1.31936028e-03  1.56879543e+01  2.52208056e-04 
 4.20496491e+00 -2.86759570e-01 -1.09176047e-03 -1.59747139e+01 -1.34978437e-03  1.56879543e+01  2.58023906e-04 
 4.30193027e+00 -2.86759570e-01 -1.11693617e-03 -1.59747139e+01 -1.38091004e-03  1.56879543e+01  2.63973867e-04 
 4.40113162e+00 -2.86759570e-01 -1.14269242e-03 -1.59747139e+01 -1.41275345e-03  1.56879543e+01  2.70061033e-04 
 4.50262052e+00 -2.86759570e-01 -1.16904259e-03 -1.59747139e+01 -1.44533116e-03  1.56879543e+01  2.76288568e-04 
 4.60644974e+00 -2.86759570e-01 -1.19600040e-03 -1.59747139e+01 -1.47866011e-03  1.56879543e+01  2.82659708e-04 
 4.71267322e+00 -2.86759570e-01 -1.22357985e-03 -1.59747139e+01 -1.51275761e-03  1.56879543e+01  2.89177764e-04 
 4.82134619e+00 -2.86759570e-01 -1.25179527e-03 -1.59747139e+01 -1.54764139e-03  1.56879543e+01  2.95846125e-04 
 4.93252513e+00 -2.86759570e-01 -1.28066133e-03 -1.59747139e+01 -1.58332959e-03  1.56879543e+01  3.02668257e-04 
 5.04626783e+00 -2.86759570e-01 -1.31019303e-03 -1.59747139e+01 -1.61984074e-03  1.56879543e+01  3.09647705e-04 
 5.16263340e+00 -2.86759570e-01 -1.34040573e-03 -1.59747139e+01 -1.65719383e-03  1.56879543e+01  3.16788098e-04 
 5.28168234e+00 -2.86759570e-01 -1.37131512e-03 -1.59747139e+01 -1.69540827e-03  1.56879543e+01  3.24093145e-04 
