 frequency       v(Zin_dm)       v(Zin_dm)       v(Zin_cm)       v(Zin_cm)      
 1.00000000e-01  2.80459926e+05 -4.04799862e+12 -7.12438079e+01 -1.54986939e+12 
 1.02305973e-01  2.80459926e+05 -3.95675687e+12 -7.12438079e+01 -1.51493539e+12 
 1.04665121e-01  2.80459926e+05 -3.86757171e+12 -7.12438079e+01 -1.48078880e+12 
 1.07078670e-01  2.80459926e+05 -3.78039679e+12 -7.12438079e+01 -1.44741188e+12 
 1.09547876e-01  2.80459926e+05 -3.69518678e+12 -7.12438079e+01 -1.41478727e+12 
 1.12074020e-01  2.80459926e+05 -3.61189740e+12 -7.12438079e+01 -1.38289801e+12 
 1.14658417e-01  2.80459926e+05 -3.53048536e+12 -7.12438079e+01 -1.35172754e+12 
 1.17302409e-01  2.80459926e+05 -3.45090835e+12 -7.12438079e+01 -1.32125965e+12 
 1.20007371e-01  2.80459926e+05 -3.37312500e+12 -7.12438079e+01 -1.29147850e+12 
 1.22774708e-01  2.80459926e+05 -3.29709488e+12 -7.12438079e+01 -1.26236862e+12 
 1.25605860e-01  2.80459926e+05 -3.22277848e+12 -7.12438079e+01 -1.23391488e+12 
 1.28502297e-01  2.80459926e+05 -3.15013717e+12 -7.12438079e+01 -1.20610248e+12 
 1.31465525e-01  2.80459926e+05 -3.07913319e+12 -7.12438079e+01 -1.17891698e+12 
 1.34497085e-01  2.80459926e+05 -3.00972963e+12 -7.12438079e+01 -1.15234423e+12 
 1.37598551e-01  2.80459926e+05 -2.94189043e+12 -7.12438079e+01 -1.12637043e+12 
 1.40771537e-01  2.80459926e+05 -2.87558033e+12 -7.12438079e+01 -1.10098208e+12 
 1.44017690e-01  2.80459926e+05 -2.81076485e+12 -7.12438079e+01 -1.07616598e+12 
 1.47338699e-01  2.80459926e+05 -2.74741031e+12 -7.12438079e+01 -1.05190924e+12 
 1.50736290e-01  2.80459926e+05 -2.68548378e+12 -7.12438079e+01 -1.02819924e+12 
 1.54212228e-01  2.80459926e+05 -2.62495307e+12 -7.12438079e+01 -1.00502367e+12 
 1.57768320e-01  2.80459926e+05 -2.56578672e+12 -7.12438079e+01 -9.82370473e+11 
 1.61406415e-01  2.80459926e+05 -2.50795398e+12 -7.12438079e+01 -9.60227877e+11 
 1.65128404e-01  2.80459926e+05 -2.45142479e+12 -7.12438079e+01 -9.38584375e+11 
 1.68936220e-01  2.80459926e+05 -2.39616976e+12 -7.12438079e+01 -9.17428717e+11 
 1.72831844e-01  2.80459926e+05 -2.34216018e+12 -7.12438079e+01 -8.96749906e+11 
 1.76817299e-01  2.80459926e+05 -2.28936797e+12 -7.12438079e+01 -8.76537195e+11 
 1.80894658e-01  2.80459926e+05 -2.23776570e+12 -7.12438079e+01 -8.56780078e+11 
 1.85066040e-01  2.80459926e+05 -2.18732654e+12 -7.12438079e+01 -8.37468286e+11 
 1.89333613e-01  2.80459926e+05 -2.13802428e+12 -7.12438079e+01 -8.18591781e+11 
 1.93699595e-01  2.80459926e+05 -2.08983329e+12 -7.12438079e+01 -8.00140751e+11 
 1.98166255e-01  2.80459926e+05 -2.04272852e+12 -7.12438079e+01 -7.82105607e+11 
 2.02735916e-01  2.80459926e+05 -1.99668549e+12 -7.12438079e+01 -7.64476974e+11 
 2.07410951e-01  2.80459926e+05 -1.95168027e+12 -7.12438079e+01 -7.47245691e+11 
 2.12193792e-01  2.80459926e+05 -1.90768947e+12 -7.12438079e+01 -7.30402799e+11 
 2.17086923e-01  2.80459926e+05 -1.86469022e+12 -7.12438079e+01 -7.13939546e+11 
 2.22092889e-01  2.80459926e+05 -1.82266017e+12 -7.12438079e+01 -6.97847374e+11 
 2.27214291e-01  2.80459926e+05 -1.78157747e+12 -7.12438079e+01 -6.82117920e+11 
 2.32453791e-01  2.80459926e+05 -1.74142078e+12 -7.12438079e+01 -6.66743006e+11 
 2.37814113e-01  2.80459926e+05 -1.70216922e+12 -7.12438079e+01 -6.51714642e+11 
 2.43298042e-01  2.80459926e+05 -1.66380238e+12 -7.12438079e+01 -6.37025018e+11 
 2.48908429e-01  2.80459926e+05 -1.62630034e+12 -7.12438079e+01 -6.22666496e+11 
 2.54648190e-01  2.80459926e+05 -1.58964358e+12 -7.12438079e+01 -6.08631616e+11 
 2.60520309e-01  2.80459926e+05 -1.55381307e+12 -7.12438079e+01 -5.94913081e+11 
 2.66527837e-01  2.80459926e+05 -1.51879018e+12 -7.12438079e+01 -5.81503761e+11 
 2.72673897e-01  2.80459926e+05 -1.48455671e+12 -7.12438079e+01 -5.68396687e+11 
 2.78961683e-01  2.80459926e+05 -1.45109485e+12 -7.12438079e+01 -5.55585046e+11 
 2.85394464e-01  2.80459926e+05 -1.41838722e+12 -7.12438079e+01 -5.43062179e+11 
 2.91975583e-01  2.80459926e+05 -1.38641683e+12 -7.12438079e+01 -5.30821577e+11 
 2.98708461e-01  2.80459926e+05 -1.35516704e+12 -7.12438079e+01 -5.18856877e+11 
 3.05596598e-01  2.80459926e+05 -1.32462162e+12 -7.12438079e+01 -5.07161862e+11 
 3.12643573e-01  2.80459926e+05 -1.29476470e+12 -7.12438079e+01 -4.95730452e+11 
 3.19853049e-01  2.80459926e+05 -1.26558075e+12 -7.12438079e+01 -4.84556705e+11 
 3.27228774e-01  2.80459926e+05 -1.23705461e+12 -7.12438079e+01 -4.73634814e+11 
 3.34774581e-01  2.80459926e+05 -1.20917144e+12 -7.12438079e+01 -4.62959102e+11 
 3.42494392e-01  2.80459926e+05 -1.18191676e+12 -7.12438079e+01 -4.52524020e+11 
 3.50392221e-01  2.80459926e+05 -1.15527640e+12 -7.12438079e+01 -4.42324145e+11 
 3.58472171e-01  2.80459926e+05 -1.12923651e+12 -7.12438079e+01 -4.32354175e+11 
 3.66738442e-01  2.80459926e+05 -1.10378356e+12 -7.12438079e+01 -4.22608927e+11 
 3.75195331e-01  2.80459926e+05 -1.07890431e+12 -7.12438079e+01 -4.13083337e+11 
 3.83847234e-01  2.80459926e+05 -1.05458585e+12 -7.12438079e+01 -4.03772453e+11 
 3.92698648e-01  2.80459926e+05 -1.03081552e+12 -7.12438079e+01 -3.94671437e+11 
 4.01754173e-01  2.80459926e+05 -1.00758098e+12 -7.12438079e+01 -3.85775556e+11 
 4.11018515e-01  2.80459926e+05 -9.84870138e+11 -7.12438079e+01 -3.77080189e+11 
 4.20496491e-01  2.80459926e+05 -9.62671200e+11 -7.12438079e+01 -3.68580815e+11 
 4.30193027e-01  2.80459926e+05 -9.40972626e+11 -7.12438079e+01 -3.60273017e+11 
 4.40113162e-01  2.80459926e+05 -9.19763136e+11 -7.12438079e+01 -3.52152476e+11 
 4.50262052e-01  2.80459926e+05 -8.99031708e+11 -7.12438079e+01 -3.44214971e+11 
 4.60644974e-01  2.80459926e+05 -8.78767565e+11 -7.12438079e+01 -3.36456378e+11 
 4.71267322e-01  2.80459926e+05 -8.58960176e+11 -7.12438079e+01 -3.28872663e+11 
 4.82134619e-01  2.80459926e+05 -8.39599244e+11 -7.12438079e+01 -3.21459885e+11 
 4.93252513e-01  2.80459926e+05 -8.20674707e+11 -7.12438079e+01 -3.14214191e+11 
 5.04626783e-01  2.80459926e+05 -8.02176728e+11 -7.12438079e+01 -3.07131814e+11 
 5.16263340e-01  2.80459926e+05 -7.84095693e+11 -7.12438079e+01 -3.00209074e+11 
 5.28168234e-01  2.80459926e+05 -7.66422204e+11 -7.12438079e+01 -2.93442372e+11 
 5.40347650e-01  2.80459926e+05 -7.49147075e+11 -7.12438079e+01 -2.86828192e+11 
 5.52807921e-01  2.80459926e+05 -7.32261327e+11 -7.12438079e+01 -2.80363095e+11 
 5.65555523e-01  2.80459926e+05 -7.15756183e+11 -7.12438079e+01 -2.74043720e+11 
 5.78597080e-01  2.80459926e+05 -6.99623064e+11 -7.12438079e+01 -2.67866785e+11 
 5.91939372e-01  2.80459926e+05 -6.83853585e+11 -7.12438079e+01 -2.61829077e+11 
 6.05589334e-01  2.80459926e+05 -6.68439549e+11 -7.12438079e+01 -2.55927459e+11 
 6.19554061e-01  2.80459926e+05 -6.53372946e+11 -7.12438079e+01 -2.50158863e+11 
 6.33840810e-01  2.80459926e+05 -6.38645943e+11 -7.12438079e+01 -2.44520291e+11 
 6.48457008e-01  2.80459926e+05 -6.24250886e+11 -7.12438079e+01 -2.39008813e+11 
 6.63410251e-01  2.80459926e+05 -6.10180293e+11 -7.12438079e+01 -2.33621562e+11 
 6.78708313e-01  2.80459926e+05 -5.96426851e+11 -7.12438079e+01 -2.28355741e+11 
 6.94359143e-01  2.80459926e+05 -5.82983411e+11 -7.12438079e+01 -2.23208610e+11 
 7.10370877e-01  2.80459926e+05 -5.69842986e+11 -7.12438079e+01 -2.18177496e+11 
 7.26751838e-01  2.80459926e+05 -5.56998745e+11 -7.12438079e+01 -2.13259783e+11 
 7.43510539e-01  2.80459926e+05 -5.44444014e+11 -7.12438079e+01 -2.08452915e+11 
 7.60655691e-01  2.80459926e+05 -5.32172265e+11 -7.12438079e+01 -2.03754394e+11 
 7.78196206e-01  2.80459926e+05 -5.20177121e+11 -7.12438079e+01 -1.99161777e+11 
 7.96141200e-01  2.80459926e+05 -5.08452347e+11 -7.12438079e+01 -1.94672678e+11 
 8.14500001e-01  2.80459926e+05 -4.96991849e+11 -7.12438079e+01 -1.90284763e+11 
 8.33282151e-01  2.80459926e+05 -4.85789671e+11 -7.12438079e+01 -1.85995751e+11 
 8.52497412e-01  2.80459926e+05 -4.74839989e+11 -7.12438079e+01 -1.81803413e+11 
 8.72155772e-01  2.80459926e+05 -4.64137113e+11 -7.12438079e+01 -1.77705571e+11 
 8.92267449e-01  2.80459926e+05 -4.53675479e+11 -7.12438079e+01 -1.73700094e+11 
 9.12842895e-01  2.80459926e+05 -4.43449650e+11 -7.12438079e+01 -1.69784900e+11 
 9.33892805e-01  2.80459926e+05 -4.33454310e+11 -7.12438079e+01 -1.65957954e+11 
 9.55428121e-01  2.80459926e+05 -4.23684266e+11 -7.12438079e+01 -1.62217268e+11 
 9.77460036e-01  2.80459926e+05 -4.14134437e+11 -7.12438079e+01 -1.58560896e+11 
 1.00000000e+00  2.80459926e+05 -4.04799862e+11 -7.12438079e+01 -1.54986939e+11 
 1.02305973e+00  2.80459926e+05 -3.95675687e+11 -7.12438079e+01 -1.51493539e+11 
 1.04665121e+00  2.80459926e+05 -3.86757171e+11 -7.12438079e+01 -1.48078880e+11 
 1.07078670e+00  2.80459926e+05 -3.78039679e+11 -7.12438079e+01 -1.44741188e+11 
 1.09547876e+00  2.80459926e+05 -3.69518678e+11 -7.12438079e+01 -1.41478727e+11 
 1.12074020e+00  2.80459926e+05 -3.61189740e+11 -7.12438079e+01 -1.38289801e+11 
 1.14658417e+00  2.80459926e+05 -3.53048536e+11 -7.12438079e+01 -1.35172754e+11 
 1.17302409e+00  2.80459926e+05 -3.45090835e+11 -7.12438079e+01 -1.32125965e+11 
 1.20007371e+00  2.80459926e+05 -3.37312500e+11 -7.12438079e+01 -1.29147850e+11 
 1.22774708e+00  2.80459926e+05 -3.29709488e+11 -7.12438079e+01 -1.26236862e+11 
 1.25605860e+00  2.80459926e+05 -3.22277848e+11 -7.12438079e+01 -1.23391488e+11 
 1.28502297e+00  2.80459926e+05 -3.15013717e+11 -7.12438079e+01 -1.20610248e+11 
 1.31465525e+00  2.80459926e+05 -3.07913319e+11 -7.12438079e+01 -1.17891698e+11 
 1.34497085e+00  2.80459926e+05 -3.00972963e+11 -7.12438079e+01 -1.15234423e+11 
 1.37598551e+00  2.80459926e+05 -2.94189043e+11 -7.12438079e+01 -1.12637043e+11 
 1.40771537e+00  2.80459926e+05 -2.87558033e+11 -7.12438079e+01 -1.10098208e+11 
 1.44017690e+00  2.80459926e+05 -2.81076485e+11 -7.12438079e+01 -1.07616598e+11 
 1.47338699e+00  2.80459926e+05 -2.74741031e+11 -7.12438079e+01 -1.05190924e+11 
 1.50736290e+00  2.80459926e+05 -2.68548378e+11 -7.12438079e+01 -1.02819924e+11 
 1.54212228e+00  2.80459926e+05 -2.62495307e+11 -7.12438079e+01 -1.00502367e+11 
 1.57768320e+00  2.80459926e+05 -2.56578672e+11 -7.12438079e+01 -9.82370473e+10 
 1.61406415e+00  2.80459926e+05 -2.50795398e+11 -7.12438079e+01 -9.60227877e+10 
 1.65128404e+00  2.80459926e+05 -2.45142479e+11 -7.12438079e+01 -9.38584375e+10 
 1.68936220e+00  2.80459926e+05 -2.39616976e+11 -7.12438079e+01 -9.17428717e+10 
 1.72831844e+00  2.80459926e+05 -2.34216018e+11 -7.12438079e+01 -8.96749906e+10 
 1.76817299e+00  2.80459926e+05 -2.28936797e+11 -7.12438079e+01 -8.76537195e+10 
 1.80894658e+00  2.80459926e+05 -2.23776570e+11 -7.12438079e+01 -8.56780078e+10 
 1.85066040e+00  2.80459926e+05 -2.18732654e+11 -7.12438079e+01 -8.37468286e+10 
 1.89333613e+00  2.80459926e+05 -2.13802428e+11 -7.12438079e+01 -8.18591781e+10 
 1.93699595e+00  2.80459926e+05 -2.08983329e+11 -7.12438079e+01 -8.00140751e+10 
 1.98166255e+00  2.80459926e+05 -2.04272852e+11 -7.12438079e+01 -7.82105607e+10 
 2.02735916e+00  2.80459926e+05 -1.99668549e+11 -7.12438079e+01 -7.64476974e+10 
 2.07410951e+00  2.80459926e+05 -1.95168027e+11 -7.12438079e+01 -7.47245691e+10 
 2.12193792e+00  2.80459926e+05 -1.90768947e+11 -7.12438079e+01 -7.30402799e+10 
 2.17086923e+00  2.80459926e+05 -1.86469022e+11 -7.12438079e+01 -7.13939546e+10 
 2.22092889e+00  2.80459926e+05 -1.82266017e+11 -7.12438079e+01 -6.97847374e+10 
 2.27214291e+00  2.80459926e+05 -1.78157747e+11 -7.12438079e+01 -6.82117920e+10 
 2.32453791e+00  2.80459926e+05 -1.74142078e+11 -7.12438079e+01 -6.66743006e+10 
 2.37814113e+00  2.80459926e+05 -1.70216922e+11 -7.12438079e+01 -6.51714642e+10 
 2.43298042e+00  2.80459926e+05 -1.66380238e+11 -7.12438079e+01 -6.37025018e+10 
 2.48908429e+00  2.80459926e+05 -1.62630034e+11 -7.12438079e+01 -6.22666496e+10 
 2.54648190e+00  2.80459926e+05 -1.58964358e+11 -7.12438079e+01 -6.08631616e+10 
 2.60520309e+00  2.80459926e+05 -1.55381307e+11 -7.12438079e+01 -5.94913081e+10 
 2.66527837e+00  2.80459926e+05 -1.51879018e+11 -7.12438079e+01 -5.81503761e+10 
 2.72673897e+00  2.80459926e+05 -1.48455671e+11 -7.12438079e+01 -5.68396687e+10 
 2.78961683e+00  2.80459926e+05 -1.45109485e+11 -7.12438079e+01 -5.55585046e+10 
 2.85394464e+00  2.80459926e+05 -1.41838722e+11 -7.12438079e+01 -5.43062179e+10 
 2.91975583e+00  2.80459926e+05 -1.38641683e+11 -7.12438079e+01 -5.30821577e+10 
 2.98708461e+00  2.80459926e+05 -1.35516704e+11 -7.12438079e+01 -5.18856877e+10 
 3.05596598e+00  2.80459926e+05 -1.32462162e+11 -7.12438079e+01 -5.07161862e+10 
 3.12643573e+00  2.80459926e+05 -1.29476470e+11 -7.12438079e+01 -4.95730452e+10 
 3.19853049e+00  2.80459926e+05 -1.26558075e+11 -7.12438079e+01 -4.84556705e+10 
 3.27228774e+00  2.80459926e+05 -1.23705461e+11 -7.12438079e+01 -4.73634814e+10 
 3.34774581e+00  2.80459926e+05 -1.20917144e+11 -7.12438079e+01 -4.62959102e+10 
 3.42494392e+00  2.80459926e+05 -1.18191676e+11 -7.12438079e+01 -4.52524020e+10 
 3.50392221e+00  2.80459926e+05 -1.15527640e+11 -7.12438079e+01 -4.42324145e+10 
 3.58472171e+00  2.80459926e+05 -1.12923651e+11 -7.12438079e+01 -4.32354175e+10 
 3.66738442e+00  2.80459926e+05 -1.10378356e+11 -7.12438079e+01 -4.22608927e+10 
 3.75195331e+00  2.80459926e+05 -1.07890431e+11 -7.12438079e+01 -4.13083337e+10 
 3.83847234e+00  2.80459926e+05 -1.05458585e+11 -7.12438079e+01 -4.03772453e+10 
 3.92698648e+00  2.80459926e+05 -1.03081552e+11 -7.12438079e+01 -3.94671437e+10 
 4.01754173e+00  2.80459926e+05 -1.00758098e+11 -7.12438079e+01 -3.85775556e+10 
 4.11018515e+00  2.80459926e+05 -9.84870138e+10 -7.12438079e+01 -3.77080189e+10 
 4.20496491e+00  2.80459926e+05 -9.62671200e+10 -7.12438079e+01 -3.68580815e+10 
 4.30193027e+00  2.80459926e+05 -9.40972626e+10 -7.12438079e+01 -3.60273017e+10 
 4.40113162e+00  2.80459926e+05 -9.19763136e+10 -7.12438079e+01 -3.52152476e+10 
 4.50262052e+00  2.80459926e+05 -8.99031708e+10 -7.12438079e+01 -3.44214971e+10 
 4.60644974e+00  2.80459926e+05 -8.78767565e+10 -7.12438079e+01 -3.36456378e+10 
 4.71267322e+00  2.80459926e+05 -8.58960176e+10 -7.12438079e+01 -3.28872663e+10 
 4.82134619e+00  2.80459926e+05 -8.39599244e+10 -7.12438079e+01 -3.21459885e+10 
 4.93252513e+00  2.80459926e+05 -8.20674707e+10 -7.12438079e+01 -3.14214191e+10 
 5.04626783e+00  2.80459926e+05 -8.02176728e+10 -7.12438079e+01 -3.07131814e+10 
 5.16263340e+00  2.80459926e+05 -7.84095693e+10 -7.12438079e+01 -3.00209074e+10 
 5.28168234e+00  2.80459926e+05 -7.66422204e+10 -7.12438079e+01 -2.93442372e+10 
 5.40347650e+00  2.80459926e+05 -7.49147075e+10 -7.12438079e+01 -2.86828192e+10 
 5.52807921e+00  2.80459926e+05 -7.32261327e+10 -7.12438079e+01 -2.80363095e+10 
 5.65555523e+00  2.80459926e+05 -7.15756183e+10 -7.12438079e+01 -2.74043720e+10 
 5.78597080e+00  2.80459926e+05 -6.99623064e+10 -7.12438079e+01 -2.67866785e+10 
 5.91939372e+00  2.80459926e+05 -6.83853585e+10 -7.12438079e+01 -2.61829077e+10 
 6.05589334e+00  2.80459926e+05 -6.68439549e+10 -7.12438079e+01 -2.55927459e+10 
 6.19554061e+00  2.80459926e+05 -6.53372946e+10 -7.12438079e+01 -2.50158863e+10 
 6.33840810e+00  2.80459926e+05 -6.38645943e+10 -7.12438079e+01 -2.44520291e+10 
 6.48457008e+00  2.80459926e+05 -6.24250886e+10 -7.12438079e+01 -2.39008813e+10 
 6.63410251e+00  2.80459926e+05 -6.10180293e+10 -7.12438079e+01 -2.33621562e+10 
 6.78708313e+00  2.80459926e+05 -5.96426851e+10 -7.12438079e+01 -2.28355741e+10 
 6.94359143e+00  2.80459926e+05 -5.82983411e+10 -7.12438079e+01 -2.23208610e+10 
 7.10370877e+00  2.80459926e+05 -5.69842986e+10 -7.12438079e+01 -2.18177496e+10 
 7.26751838e+00  2.80459926e+05 -5.56998745e+10 -7.12438079e+01 -2.13259783e+10 
 7.43510539e+00  2.80459926e+05 -5.44444014e+10 -7.12438079e+01 -2.08452915e+10 
 7.60655691e+00  2.80459926e+05 -5.32172265e+10 -7.12438079e+01 -2.03754394e+10 
 7.78196206e+00  2.80459926e+05 -5.20177121e+10 -7.12438079e+01 -1.99161777e+10 
 7.96141200e+00  2.80459926e+05 -5.08452347e+10 -7.12438079e+01 -1.94672678e+10 
 8.14500001e+00  2.80459926e+05 -4.96991849e+10 -7.12438079e+01 -1.90284763e+10 
 8.33282151e+00  2.80459926e+05 -4.85789671e+10 -7.12438079e+01 -1.85995751e+10 
 8.52497412e+00  2.80459926e+05 -4.74839989e+10 -7.12438079e+01 -1.81803413e+10 
 8.72155772e+00  2.80459926e+05 -4.64137113e+10 -7.12438079e+01 -1.77705571e+10 
 8.92267449e+00  2.80459926e+05 -4.53675479e+10 -7.12438079e+01 -1.73700094e+10 
 9.12842895e+00  2.80459926e+05 -4.43449650e+10 -7.12438079e+01 -1.69784900e+10 
 9.33892805e+00  2.80459926e+05 -4.33454310e+10 -7.12438079e+01 -1.65957954e+10 
 9.55428121e+00  2.80459926e+05 -4.23684266e+10 -7.12438079e+01 -1.62217268e+10 
 9.77460036e+00  2.80459926e+05 -4.14134437e+10 -7.12438079e+01 -1.58560896e+10 
 1.00000000e+01  2.80459926e+05 -4.04799862e+10 -7.12438079e+01 -1.54986939e+10 
 1.02305973e+01  2.80459926e+05 -3.95675687e+10 -7.12438079e+01 -1.51493539e+10 
 1.04665121e+01  2.80459926e+05 -3.86757172e+10 -7.12438079e+01 -1.48078880e+10 
 1.07078670e+01  2.80459926e+05 -3.78039679e+10 -7.12438079e+01 -1.44741188e+10 
 1.09547876e+01  2.80459926e+05 -3.69518678e+10 -7.12438079e+01 -1.41478727e+10 
 1.12074020e+01  2.80459926e+05 -3.61189740e+10 -7.12438079e+01 -1.38289801e+10 
 1.14658417e+01  2.80459926e+05 -3.53048536e+10 -7.12438079e+01 -1.35172754e+10 
 1.17302409e+01  2.80459926e+05 -3.45090835e+10 -7.12438079e+01 -1.32125965e+10 
 1.20007371e+01  2.80459926e+05 -3.37312500e+10 -7.12438079e+01 -1.29147850e+10 
 1.22774708e+01  2.80459926e+05 -3.29709488e+10 -7.12438079e+01 -1.26236862e+10 
 1.25605860e+01  2.80459926e+05 -3.22277848e+10 -7.12438079e+01 -1.23391488e+10 
 1.28502297e+01  2.80459926e+05 -3.15013717e+10 -7.12438079e+01 -1.20610248e+10 
 1.31465525e+01  2.80459926e+05 -3.07913319e+10 -7.12438079e+01 -1.17891698e+10 
 1.34497085e+01  2.80459926e+05 -3.00972963e+10 -7.12438079e+01 -1.15234423e+10 
 1.37598551e+01  2.80459926e+05 -2.94189044e+10 -7.12438079e+01 -1.12637043e+10 
 1.40771537e+01  2.80459926e+05 -2.87558033e+10 -7.12438079e+01 -1.10098208e+10 
 1.44017690e+01  2.80459926e+05 -2.81076485e+10 -7.12438079e+01 -1.07616598e+10 
 1.47338699e+01  2.80459926e+05 -2.74741031e+10 -7.12438079e+01 -1.05190924e+10 
 1.50736290e+01  2.80459926e+05 -2.68548378e+10 -7.12438079e+01 -1.02819924e+10 
 1.54212228e+01  2.80459926e+05 -2.62495307e+10 -7.12438079e+01 -1.00502367e+10 
 1.57768320e+01  2.80459926e+05 -2.56578672e+10 -7.12438079e+01 -9.82370473e+09 
 1.61406415e+01  2.80459926e+05 -2.50795398e+10 -7.12438079e+01 -9.60227877e+09 
 1.65128404e+01  2.80459926e+05 -2.45142479e+10 -7.12438079e+01 -9.38584375e+09 
 1.68936220e+01  2.80459926e+05 -2.39616976e+10 -7.12438079e+01 -9.17428717e+09 
 1.72831844e+01  2.80459926e+05 -2.34216018e+10 -7.12438079e+01 -8.96749906e+09 
 1.76817299e+01  2.80459926e+05 -2.28936797e+10 -7.12438079e+01 -8.76537195e+09 
 1.80894658e+01  2.80459926e+05 -2.23776570e+10 -7.12438079e+01 -8.56780078e+09 
 1.85066040e+01  2.80459926e+05 -2.18732654e+10 -7.12438079e+01 -8.37468286e+09 
 1.89333613e+01  2.80459926e+05 -2.13802428e+10 -7.12438079e+01 -8.18591781e+09 
 1.93699595e+01  2.80459926e+05 -2.08983329e+10 -7.12438079e+01 -8.00140751e+09 
 1.98166255e+01  2.80459926e+05 -2.04272852e+10 -7.12438079e+01 -7.82105607e+09 
 2.02735916e+01  2.80459926e+05 -1.99668549e+10 -7.12438079e+01 -7.64476974e+09 
 2.07410951e+01  2.80459926e+05 -1.95168027e+10 -7.12438079e+01 -7.47245691e+09 
 2.12193792e+01  2.80459926e+05 -1.90768947e+10 -7.12438079e+01 -7.30402799e+09 
 2.17086923e+01  2.80459926e+05 -1.86469022e+10 -7.12438079e+01 -7.13939546e+09 
 2.22092889e+01  2.80459926e+05 -1.82266017e+10 -7.12438079e+01 -6.97847374e+09 
 2.27214291e+01  2.80459926e+05 -1.78157747e+10 -7.12438079e+01 -6.82117920e+09 
 2.32453791e+01  2.80459926e+05 -1.74142078e+10 -7.12438079e+01 -6.66743006e+09 
 2.37814113e+01  2.80459926e+05 -1.70216922e+10 -7.12438079e+01 -6.51714642e+09 
 2.43298042e+01  2.80459926e+05 -1.66380238e+10 -7.12438079e+01 -6.37025018e+09 
 2.48908429e+01  2.80459926e+05 -1.62630034e+10 -7.12438079e+01 -6.22666496e+09 
 2.54648190e+01  2.80459926e+05 -1.58964358e+10 -7.12438079e+01 -6.08631616e+09 
 2.60520309e+01  2.80459926e+05 -1.55381308e+10 -7.12438079e+01 -5.94913081e+09 
